#Parameters = {a=1820; eps_eff=6; r_i=90; r_o=182; t=0.1}
#"Frequency / GHz"	"Z1,1 [Real/Imaginary Part] [Re]"	"Z1,1 [Real/Imaginary Part] [Im]"
#-------------------------------------------------------------------------------------
1.0000000000000	-1157.9576882613	-2416.2445888923
1.4989999532700	-566.50863696719	-1804.5215490830
1.9980000257492	-324.33338513655	-1413.1032248779
2.4969999790192	-204.89037295269	-1154.1739104853
2.9960000514984	-137.94703338681	-972.96859708621
3.4949998855591	-96.896238930934	-839.90834296842
3.9939999580383	-70.012429799986	-738.37794388161
4.4930000305176	-51.509919165328	-658.49863456959
4.9920001029968	-38.276114223239	-594.07955428614
5.4910001754761	-28.519922261109	-541.06269653177
5.9899997711182	-21.151879771972	-496.68461305049
6.4889998435974	-15.479605419979	-459.00172368903
6.9879999160767	-11.046097438315	-426.60898638033
7.4869999885559	-7.5391999403581	-398.46597297191
7.9860000610352	-4.7408505439503	-373.78635025668
8.4849996566772	-2.4941390585607	-351.96488426744
8.9840002059937	-0.68427901787129	-332.52831492156
9.4829998016357	0.77473059214257	-315.10105093816
9.9820003509521	1.9479807125040	-299.38160419559
10.480999946594	2.8860111224565	-285.12473861159
10.979999542236	3.6283824059229	-272.12926614003
11.479000091553	4.2063838764995	-260.22836495333
11.977999687195	4.6454209629077	-249.28258310159
12.477000236511	4.9660851419103	-239.17449654642
12.975999832153	5.1855814726696	-229.80447781515
13.475000381470	5.3181717882499	-221.08749327885
13.973999977112	5.3760037975518	-212.95055179273
14.472999572754	5.3695775353755	-205.33057527861
14.972000122070	5.3079362034386	-198.17292980045
15.470999717712	5.1990202843910	-191.43000257389
15.970000267029	5.0498879750513	-185.06023536974
16.468999862671	4.8669066722720	-179.02713891518
16.968000411987	4.6557370690223	-173.29864634948
17.466999053955	4.4216044069324	-167.84648733938
17.965999603271	4.1691530120041	-162.64584012077
18.465000152588	3.9027561565958	-157.67455021792
18.964000701904	3.6263491824361	-152.91313162175
19.462999343872	3.3435048840291	-148.34428610298
19.961999893188	3.0575217145798	-143.95275422559
20.461000442505	2.7713686012730	-139.72486832511
20.959999084473	2.4877689504146	-135.64855882151
21.458999633789	2.2090913883022	-131.71316863159
21.958000183105	1.9375473028065	-127.90911772399
22.457000732422	1.6749413037109	-124.22795816212
22.955999374390	1.4229172005383	-120.66217168247
23.454999923706	1.1828744156413	-117.20499235159
23.954000473022	0.95591126793701	-113.85045838571
24.452999114990	0.74294371468083	-110.59318571044
24.951999664307	0.54464099246688	-107.42834309962
25.451000213623	0.36153074075761	-104.35155728109
25.950000762939	0.19389317990906	-101.35893158374
26.448999404907	0.041870181791635	-98.446818272653
26.947999954224	-0.094574336443712	-95.611924783454
27.447000503540	-0.21559695689005	-92.851284756451
27.945999145508	-0.32148327306061	-90.162039580061
28.444999694824	-0.41262367831794	-87.541657377356
28.944000244141	-0.48950565498462	-84.987612352279
29.443000793457	-0.55269480510272	-82.497624282841
29.941999435425	-0.60279522716730	-80.069435803329
30.440999984741	-0.64049777079987	-77.701068494935
30.940000534058	-0.66649344691771	-75.390439248669
31.438999176025	-0.68151406835223	-73.135574499091
31.937999725342	-0.68630100070317	-70.934671955243
32.437000274658	-0.68160538305898	-68.785927397328
32.936000823975	-0.66817999050150	-66.687584556713
33.435001373291	-0.64675865384434	-64.637862771974
33.933998107910	-0.61807082587004	-62.635156808656
34.432998657227	-0.58279646998881	-60.677836482691
34.931999206543	-0.54164117606235	-58.764334536396
35.430999755859	-0.49524225762685	-56.893096791734
35.930000305176	-0.44422407654322	-55.062606622419
36.429000854492	-0.38919729787305	-53.271463354540
36.928001403809	-0.33069361042838	-51.518173980389
37.426998138428	-0.26925745953572	-49.801359414833
37.925998687744	-0.20538591090929	-48.119676998907
38.424999237061	-0.13951745014848	-46.471817993912
38.923999786377	-0.072110355515965	-44.856531090729
39.423000335693	-0.0035448438329455	-43.272510524182
39.922000885010	0.065809487671590	-41.718613431777
40.421001434326	0.13562048516448	-40.193624763187
40.919998168945	0.20557878397984	-38.696424322486
41.418998718262	0.27540928076340	-37.225898520931
41.917999267578	0.34485242195817	-35.781004091794
42.416999816895	0.41368790590436	-34.360705850400
42.916000366211	0.48171062143965	-32.963980595563
43.415000915527	0.54874908417261	-31.589891924727
43.914001464844	0.61463560123528	-30.237487795632
44.412998199463	0.67923292912274	-28.905851707300
44.911998748779	0.74243023100007	-27.594134754415
45.410999298096	0.80412618342591	-26.301481061604
45.909999847412	0.86423188575191	-25.027078553683
46.409000396729	0.92268286322512	-23.770122423029
46.908000946045	0.97942785047095	-22.529867903603
47.407001495361	1.0344344597891	-21.305574679489
47.905998229980	1.0876758654008	-20.096532596929
48.404998779297	1.1391341505752	-18.902056607430
48.903999328613	1.1888211827850	-17.721470479603
49.402999877930	1.2367405280268	-16.554159503572
49.902000427246	1.2829244216990	-15.399491108318
50.401000976563	1.3273926977466	-14.256857897047
50.900001525879	1.3702013174271	-13.125700718037
51.398998260498	1.4113912139018	-12.005461296130
51.897998809814	1.4510305713383	-10.895605512923
52.396999359131	1.4891870095746	-9.7956123094923
52.895999908447	1.5259311118813	-8.7049794044175
53.395000457764	1.5613574861024	-7.6232210085175
53.894001007080	1.5955504099786	-6.5498931340685
54.393001556396	1.6286159246787	-5.4845182700192
54.891998291016	1.6606544302302	-4.4266852101672
55.390998840332	1.6917824576452	-3.3759755729615
55.889999389648	1.7221212705786	-2.3319740189703
56.388999938965	1.7517889690102	-1.2943184581558
56.888000488281	1.7809260647044	-0.26262445388468
57.387001037598	1.8096659375374	0.76346619547325
57.886001586914	1.8381563621481	1.7842844866450
58.384998321533	1.8665469278500	2.8001493304348
58.883998870850	1.8949909436146	3.8113977245526
59.382999420166	1.9236452204519	4.8182989125695
59.881999969482	1.9526859226319	5.8211516853909
60.381000518799	1.9822723251959	6.8202301248935
60.880001068115	2.0125871329069	7.8157670275722
61.379001617432	2.0438043537679	8.8080140274821
61.877998352051	2.0761156897466	9.7972005126802
62.376998901367	2.1096979809327	10.783533756408
62.875999450684	2.1447470349332	11.767203428835
63.375000000000	2.1814544312850	12.748388051500
63.874000549316	2.2200187091245	13.727269311816
64.373001098633	2.2606326592691	14.703973862346
64.872001647949	2.3034939811388	15.678652936039
65.371002197266	2.3488059530620	16.651420050642
65.870002746582	2.3967637052102	17.622379545537
66.369003295898	2.4475738072626	18.591628267272
66.867996215820	2.5014188454824	19.559212713519
67.366996765137	2.5584946945651	20.525208257306
67.865997314453	2.6190033066141	21.489655202877
68.364997863770	2.6831175709597	22.452568741569
68.863998413086	2.7510248649192	23.413980349758
69.362998962402	2.8228929293891	24.373858955403
69.861999511719	2.8988901689132	25.332190500879
70.361000061035	2.9791734967494	26.288963974445
70.860000610352	3.0638854560745	27.244084999893
71.359001159668	3.1531678985955	28.197549698133
71.858001708984	3.2471395523017	29.149250901277
72.357002258301	3.3459122107079	30.099133622381
72.856002807617	3.4495792624553	31.047073402375
73.355003356934	3.5582278759656	31.992993976879
73.853996276855	3.6719201989102	32.936794166485
74.352996826172	3.7907044169602	33.878327623489
74.851997375488	3.9146072239334	34.817534327605
75.350997924805	4.0436543531619	35.754267530502
75.849998474121	4.1778291336872	36.688428933712
76.348999023438	4.3171190507996	37.619906227874
76.847999572754	4.4614843748343	38.548580964903
77.347000122070	4.6108698734439	39.474371875150
77.846000671387	4.7651982441639	40.397151079561
78.345001220703	4.9243923319081	41.316895621134
78.844001770020	5.0883508811608	42.233518727211
79.343002319336	5.2569512550611	43.146930053247
79.842002868652	5.4300860109869	44.057158389500
80.341003417969	5.6076128170555	44.964152217030
80.839996337891	5.7894071059614	45.867923209757
81.338996887207	5.9753188832872	46.768513901868
81.837997436523	6.1652130273918	47.665949650954
82.336997985840	6.3589412356978	48.560288464663
82.835998535156	6.5563767164156	49.451642826924
83.334999084473	6.7573954494342	50.340140150773
83.833999633789	6.9618698720816	51.225875126946
84.333000183105	7.1697034351195	52.109027713590
84.832000732422	7.3808166745412	52.989782403782
85.331001281738	7.5951296087850	53.868319306488
85.830001831055	7.8125972711086	54.744832836554
86.329002380371	8.0332017955740	55.619561906264
86.828002929688	8.2569500298726	56.492723582955
87.327003479004	8.4838704982605	57.364582800263
87.825996398926	8.7140198725964	58.235391638266
88.324996948242	8.9474942827467	59.105369234970
88.823997497559	9.1844202914140	59.974774130660
89.322998046875	9.4249465475319	60.843870202077
89.821998596191	9.6692721622501	61.712877335110
90.320999145508	9.9176044821096	62.582028845988
90.819999694824	10.170205752138	63.451509910345
91.319000244141	10.427351253819	64.321532102248
91.818000793457	10.689363926432	65.192270438629
92.317001342773	10.956565524980	66.063842161046
92.816001892090	11.229323026506	66.936371807541
93.315002441406	11.508026533792	67.809957716491
93.814002990723	11.793089122373	68.684610223397
94.313003540039	12.084931096399	69.560342621946
94.811996459961	12.383984283478	70.437138077670
95.310997009277	12.690686422520	71.314921051609
95.809997558594	13.005514088023	72.193569333671
96.308998107910	13.328906336572	73.072924275948
96.807998657227	13.661317406475	73.952756711963
97.306999206543	14.003191388266	74.832826606710
97.805999755859	14.354955164807	75.712839177984
98.305000305176	14.717040749471	76.592407063324
98.804000854492	15.089821037940	77.471170357995
99.303001403809	15.473669333745	78.348668447277
99.802001953125	15.868927887889	79.224403075592
100.30100250244	16.275885981054	80.097861663079
100.80000305176	16.694807664453	80.968513168631
101.29900360107	17.125904663870	81.835721520763
101.79799652100	17.569321899472	82.698856655688
102.29699707031	18.025180547997	83.557324865349
102.79599761963	18.493516207408	84.410371778942
103.29499816895	18.974329076876	85.257356633021
103.79399871826	19.467540380023	86.097597004245
104.29299926758	19.973008491810	86.930368813350
104.79199981689	20.490514564111	87.755019723188
105.29100036621	21.019790075325	88.570824980108
105.79000091553	21.560499691003	89.377193556979
106.28900146484	22.112232684097	90.173446158542
106.78800201416	22.674532653306	90.959029724984
107.28700256348	23.246846597822	91.733377268796
107.78600311279	23.828628338755	92.495998497982
108.28500366211	24.419224838407	93.246471140655
108.78399658203	25.017967809719	93.984413438331
109.28299713135	25.624149091134	94.709532621049
109.78199768066	26.237039597715	95.421596611643
110.28099822998	26.855872870512	96.120444724679
110.77999877930	27.479899792298	96.806010400514
111.27899932861	28.108340587538	97.478316097346
111.77799987793	28.740459258936	98.137461593700
112.27700042725	29.375500135019	98.783641853466
112.77600097656	30.012768950165	99.417070046362
113.27500152588	30.651576878764	100.03813357268
113.77400207520	31.291360677666	100.64724991659
114.27300262451	31.931504654578	101.24483445020
114.77200317383	32.571528961026	101.83144254582
115.27100372314	33.211049837376	102.40772105343
115.76999664307	33.849686559530	102.97422775160
116.26899719238	34.487202543671	103.53169002508
116.76799774170	35.123422579980	104.08077178453
117.26699829102	35.758296069178	104.62215536887
117.76599884033	36.391816103262	105.15658828462
118.26499938965	37.024111721679	105.68477608012
118.76399993896	37.655414703811	106.20734480737
119.26300048828	38.285984422254	106.72500398773
119.76200103760	38.916265704836	107.23834326357
120.26100158691	39.546705014122	107.74789285532
120.76000213623	40.177857075341	108.25424698857
121.25900268555	40.810381578703	108.75771080915
121.75800323486	41.444946957930	109.25875608373
122.25700378418	42.082374522376	109.75757062991
122.75599670410	42.723414193191	110.25433932796
123.25499725342	43.368940856179	110.74917771915
123.75399780273	44.019869929499	111.24204718930
124.25299835205	44.677059653893	111.73278157871
124.75199890137	45.341488000772	112.22116328637
125.25099945068	46.014039783196	112.70679126980
125.75000000000	46.695631006489	113.18916031133
126.24900054932	47.387154068818	113.66774133714
126.74800109863	48.089438710097	114.14177038214
127.24700164795	48.803323638715	114.61044202750
127.74600219727	49.529520034328	115.07273439396
128.24499511719	50.268730956591	115.52761585559
128.74400329590	51.021484537223	115.97395137815
129.24299621582	51.788316780322	116.41038345182
129.74200439453	52.569573394573	116.83562985489
130.24099731445	53.365513751110	117.24822850745
130.74000549316	54.176261171353	117.64661520201
131.23899841309	55.001794652830	118.02922822148
131.73800659180	55.841918589654	118.39443603895
132.23699951172	56.696303726094	118.74054610069
132.73599243164	57.564431917082	119.06588037921
133.23500061035	58.445618700378	119.36877193497
133.73399353027	59.338971799527	119.64750766075
134.23300170898	60.243465024269	119.90045401762
134.73199462891	61.157860461254	120.12599903689
135.23100280762	62.080724573609	120.32267887018
135.72999572754	63.010445705273	120.48901714606
136.22900390625	63.945271540970	120.62378338820
136.72799682617	64.883252226797	120.72577742372
137.22700500488	65.822322355762	120.79399517731
137.72599792480	66.760249411352	120.82764211554
138.22500610352	67.694710075997	120.82608444303
138.72399902344	68.623280845433	120.78891145876
139.22300720215	69.543433004425	120.71587980077
139.72200012207	70.452619939976	120.60713183385
140.22099304199	71.348262433559	120.46289487319
140.72000122070	72.227770135777	120.28371125397
141.21899414063	73.088638564986	120.07035545428
141.71800231934	73.928337345838	119.82390839769
142.21699523926	74.744499156408	119.54557653455
142.71600341797	75.534830151256	119.23692030239
143.21499633789	76.297159284728	118.89956319372
143.71400451660	77.029576051137	118.53547881283
144.21299743652	77.730202402781	118.14678050236
144.71200561523	78.397492482658	117.73561660115
145.21099853516	79.030059322296	117.30445753668
145.71000671387	79.626744942202	116.85573213181
146.20899963379	80.186645886146	116.39204487427
146.70799255371	80.709082864997	115.91592538255
147.20700073242	81.193651083854	115.43009867259
147.70599365234	81.640157756998	114.93710994012
148.20500183105	82.048618949801	114.43962189428
148.70399475098	82.419360202524	113.94022069400
149.20300292969	82.752825807772	113.44130035683
149.70199584961	83.049720471416	112.94532477782
150.20100402832	83.310922012862	112.45449877138
150.69999694824	83.537477265828	111.97103611816
151.19900512695	83.730590073159	111.49687856419
151.69799804688	83.891576043642	111.03397443214
152.19700622559	84.021860950270	110.58392670209
152.69599914551	84.123022517075	110.14833158491
153.19500732422	84.196643610967	109.72858601996
153.69400024414	84.244379177454	109.32582191624
154.19299316406	84.267967069347	108.94114328971
154.69200134277	84.269118113283	108.57539652202
155.19099426270	84.249598211753	108.22933999382
155.69000244141	84.211137397848	107.90350456640
156.18899536133	84.155439356530	107.59830657062
156.68800354004	84.084216095602	107.31409962546
157.18699645996	83.999101465730	107.05096513401
157.68600463867	83.901716098401	106.80897460063
158.18499755859	83.793572942603	106.58805451095
158.68400573730	83.676179862356	106.38796921796
159.18299865723	83.550955976772	106.20854180472
159.68200683594	83.419240310561	106.04930007668
160.18099975586	83.282291309603	105.90985600250
160.67999267578	83.141296566781	105.78974650061
161.17900085449	82.997393316961	105.68836168007
161.67799377441	82.851593327411	105.60510712417
162.17700195313	82.704862588541	105.53931700900
162.67599487305	82.558027137718	105.49033075734
163.17500305176	82.411910792097	105.45739239340
163.67399597168	82.267227325845	105.43978197621
164.17300415039	82.124580014293	105.43676342549
164.67199707031	81.984560769668	105.44750994136
165.17100524902	81.847623098734	105.47134242320
165.66999816895	81.714205502746	105.50745668501
166.16900634766	81.584666524534	105.55512959083
166.66799926758	81.459252847901	105.61356865880
167.16700744629	81.338220188611	105.68205819610
167.66600036621	81.221736434376	105.75991024813
168.16499328613	81.109891764865	105.84642651404
168.66400146484	81.002791586551	105.94096382899
169.16299438477	80.900412580161	106.04282572257
169.66200256348	80.802758626813	106.15150463071
170.16099548340	80.709752379688	106.26637545222
170.66000366211	80.621298943655	106.38687136427
171.15899658203	80.537245879818	106.51254302590
171.65800476074	80.457487860112	106.64289808497
172.15699768066	80.381801205131	106.77752082032
172.65600585938	80.310004025128	106.91605599897
173.15499877930	80.241884572531	107.05806766615
173.65400695801	80.177205718317	107.20327944482
174.15299987793	80.115729368324	107.35139667243
174.65199279785	80.057238851659	107.50222283547
175.15100097656	80.001458275690	107.65546762554
175.64999389648	79.948171128977	107.81105231118
176.14900207520	79.897113495205	107.96873259825
176.64799499512	79.848059807746	108.12846266727
177.14700317383	79.800800428482	108.29014029396
177.64599609375	79.755106944859	108.45369969320
178.14500427246	79.710764686262	108.61905358612
178.64399719238	79.667619903500	108.78631032646
179.14300537109	79.625468077403	108.95534344687
179.64199829102	79.584159699049	109.12624090647
180.14100646973	79.543560808124	109.29903507423
180.63999938965	79.503539611207	109.47377449967
181.13900756836	79.464056567816	109.65054373638
181.63800048828	79.424983939290	109.82937233416
182.13699340820	79.386173340258	110.01032723774
182.63600158691	79.347628176139	110.19345007833
183.13499450684	79.309361955653	110.37890331511
183.63400268555	79.271444414997	110.56677154660
184.13299560547	79.233654003922	110.75701083685
184.63200378418	79.196154661649	110.94981374323
185.13099670410	79.158925329048	111.14514047372
185.63000488281	79.122030615294	111.34311357466
186.12899780273	79.085454206443	111.54372843297
186.62800598145	79.049462427986	111.74711518649
187.12699890137	79.013789473562	111.95318424415
187.62600708008	78.978785342172	112.16203854416
188.12500000000	78.944449857252	112.37372764634
188.62399291992	78.910754268166	112.58809404948
189.12300109863	78.877761836388	112.80519663363
189.62199401855	78.845798406774	113.02507857994
190.12100219727	78.814782142590	113.24769787428
190.61999511719	78.784687649903	113.47289846921
191.11900329590	78.755713321526	113.70074383768
191.61799621582	78.727829449399	113.93109719277
192.11700439453	78.701232111438	114.16398936681
192.61599731445	78.676009605365	114.39935947624
193.11500549316	78.651905987917	114.63700906509
193.61399841309	78.629092749098	114.87688413593
194.11300659180	78.607751047775	115.11900266164
194.61199951172	78.587725804987	115.36324232405
195.11099243164	78.569043191656	115.60949528654
195.61000061035	78.551720414226	115.85772619620
196.10899353027	78.535743232494	116.10784906564
196.60800170898	78.521076941082	116.35974337724
197.10699462891	78.507712475852	116.61344740446
197.60600280762	78.495569865145	116.86882577425
198.10499572754	78.484644410427	117.12586118378
198.60400390625	78.474863936343	117.38448795724
199.10299682617	78.466150669724	117.64467612034
199.60200500488	78.458483949488	117.90642625115
200.10099792480	78.451800902948	118.16977874361
200.60000610352	78.445989898836	118.43463164132
201.09899902344	78.441038498881	118.70109281893
201.59800720215	78.436854210202	118.96907546519
202.09700012207	78.433381977569	119.23874546997
202.59599304199	78.430576525102	119.51004808679
203.09500122070	78.428359776692	119.78311432614
203.59399414063	78.426720477907	120.05799715354
