#Parameters = {C=5e-15; L=3e-08; a=4000; eps_eff=6; r_i=90; r_o=182; t=0.1}
#"Frequency / GHz"	"Z1,1 [Real/Imaginary Part] [Re]"	"Z1,1 [Real/Imaginary Part] [Im]"
#-------------------------------------------------------------------------------------
1.0000000000000	-1159.2036098821	-2172.0337437716
1.4989999532700	-582.74455098390	-1656.5556613425
1.9980000257492	-339.50874931892	-1308.3745798131
2.4969999790192	-217.92716501355	-1072.9768405089
2.9960000514984	-149.29428918626	-906.39947887666
3.4949998855591	-107.01428762186	-783.27673323301
3.9939999580383	-79.228567397923	-688.92551543673
4.4930000305176	-60.043963729283	-614.46826146887
4.9920001029968	-46.275463662151	-554.28372874472
5.4910001754761	-36.084909177097	-504.66093355168
5.9899997711182	-28.351007238376	-463.06100117888
6.4889998435974	-22.360153482236	-427.69163095876
6.9879999160767	-17.640514097826	-397.25360821482
7.4869999885559	-13.870232817119	-370.78318542828
7.9860000610352	-10.823058713584	-347.55066885605
8.4849996566772	-8.3371921066727	-326.99372203713
8.9840002059937	-6.2937768042098	-308.67239900059
9.4829998016357	-4.6044622863113	-292.23739722529
9.9820003509521	-3.2014316884776	-277.40781559651
10.480999946594	-2.0332246464049	-263.95552937045
10.979999542236	-1.0592016224029	-251.69308253674
11.479000091553	-0.24747231668041	-240.46521324497
11.977999687195	0.42771915935108	-230.14205660714
12.477000236511	0.98698687564824	-220.61425485363
12.975999832153	1.4472938644211	-211.78906685586
13.475000381470	1.8225779929544	-203.58726936458
13.973999977112	2.1244730450837	-195.94093838862
14.472999572754	2.3627884255888	-188.79124580267
14.972000122070	2.5458707616919	-182.08722016975
15.470999717712	2.6807925007357	-175.78440136530
15.970000267029	2.7737467749251	-169.84385582107
16.468999862671	2.8300275238482	-164.23130833551
16.968000411987	2.8544013543580	-158.91652099876
17.466999053955	2.8510057148653	-153.87282661215
17.965999603271	2.8235403285603	-149.07641538159
18.465000152588	2.7753572272499	-144.50612037589
18.964000701904	2.7094147473833	-140.14307401210
19.462999343872	2.6284503324238	-135.97043506534
19.961999893188	2.5349103921938	-131.97299840882
20.461000442505	2.4310898456566	-128.13722480880
20.959999084473	2.3189713898156	-124.45089215873
21.458999633789	2.2005061723685	-120.90299133762
21.958000183105	2.0773442781704	-117.48361859833
22.457000732422	1.9510795356425	-114.18383451451
22.955999374390	1.8231425596925	-110.99550136925
23.454999923706	1.6948030573870	-107.91138077875
23.954000473022	1.5672444803664	-104.92480827144
24.452999114990	1.4414923614354	-102.02977181520
24.951999664307	1.3184830408450	-99.220859435981
25.451000213623	1.1990620126430	-96.493112369140
25.950000762939	1.0839263894111	-93.841996483917
26.448999404907	0.97368154373369	-91.263401310769
26.947999954224	0.86886484736779	-88.753662206767
27.447000503540	0.76988978875270	-86.309205892916
27.945999145508	0.67711409401827	-83.927090846279
28.444999694824	0.59078556498984	-81.604221420181
28.944000244141	0.51111591349085	-79.338048108789
29.443000793457	0.43820910712906	-77.126103165118
29.941999435425	0.37212731846369	-74.966083374435
30.440999984741	0.31286666210555	-72.855876499065
30.940000534058	0.26037990648727	-70.793490856908
31.438999176025	0.21457295441153	-68.777049208887
31.937999725342	0.17529789774112	-66.804839073857
32.437000274658	0.14238462245356	-64.875161472242
32.936000823975	0.11562493338102	-62.986509342690
33.435001373291	0.094795557777018	-61.137360600200
33.933998107910	0.079635425382213	-59.326322550434
34.432998657227	0.069886370745013	-57.552053568672
34.931999206543	0.065261278029575	-55.813204055150
35.430999755859	0.065471864234866	-54.108579035250
35.930000305176	0.070224372082202	-52.436968684918
36.429000854492	0.079217293784493	-50.797222515701
36.928001403809	0.092156200151819	-49.188200323921
37.426998138428	0.10874347451260	-47.608841092167
37.925998687744	0.12869001782246	-46.058109283365
38.424999237061	0.15171360933416	-44.534974104667
38.923999786377	0.17753579687417	-43.038409331967
39.423000335693	0.20588429477297	-41.567520527755
39.922000885010	0.23650664510717	-40.121346701573
40.421001434326	0.26915764503915	-38.698971775785
40.919998168945	0.30360389020063	-37.299539335086
41.418998718262	0.33961819698360	-35.922172192645
41.917999267578	0.37699490518081	-34.566051280007
42.416999816895	0.41553822449204	-33.230326448314
42.916000366211	0.45506622001146	-31.914256663155
43.415000915527	0.49540766029116	-30.617046351843
43.914001464844	0.53639966435252	-29.337936052037
44.412998199463	0.57790573895406	-28.076217434421
44.911998748779	0.61979400011841	-26.831166005074
45.410999298096	0.66194439348874	-25.602108555503
45.909999847412	0.70425419501804	-24.388348142593
46.409000396729	0.74662334966190	-23.189256069053
46.908000946045	0.78897683259478	-22.004192345647
47.407001495361	0.83123137715600	-20.832514751092
47.905998229980	0.87333883879671	-19.673640906583
48.404998779297	0.91524554051398	-18.526993780745
48.903999328613	0.95691243755198	-17.391996540924
49.402999877930	0.99831182934206	-16.268087270152
49.902000427246	1.0394246402919	-15.154739624688
50.401000976563	1.0802353053616	-14.051422403403
50.900001525879	1.1207563951157	-12.957643506685
51.398998260498	1.1609844346413	-11.872895216712
51.897998809814	1.2009417336318	-10.796697250044
52.396999359131	1.2406577565815	-9.7285980964179
52.895999908447	1.2801565732683	-8.6681273405041
53.395000457764	1.3194858447243	-7.6148648827795
53.894001007080	1.3586976605287	-6.5683719523923
54.393001556396	1.3978437873176	-5.5282441188142
54.891998291016	1.4369876817833	-4.4940704947102
55.390998840332	1.4762005212644	-3.4654646258421
55.889999389648	1.5155629617823	-2.4420556229526
56.388999938965	1.5551545349544	-1.4234795698431
56.888000488281	1.5950705236709	-0.40937190185400
57.387001037598	1.6354037261766	0.60060224133999
57.886001586914	1.6762567463862	1.6067650549351
58.384998321533	1.7177380072811	2.6094477148736
58.883998870850	1.7599624835977	3.6089492764443
59.382999420166	1.8030480732965	4.6055700028707
59.881999969482	1.8471181403813	5.5995851464879
60.381000518799	1.8923016413213	6.5912888319335
60.880001068115	1.9387344188643	7.5809198569103
61.379001617432	1.9865450674600	8.5687418987964
61.877998352051	2.0358863689613	9.5549902382194
62.376998901367	2.0868925799724	10.539883430487
62.875999450684	2.1397137011880	11.523659679366
63.375000000000	2.1945062632890	12.506509693422
63.874000549316	2.2514126914931	13.488622713430
64.373001098633	2.3105884158768	14.470203249995
64.872001647949	2.3721913588730	15.451396932264
65.371002197266	2.4363773040567	16.432390208221
65.870002746582	2.5032981093985	17.413312835305
66.369003295898	2.5731103399725	18.394306564051
66.867996215820	2.6459732409513	19.375516454753
67.366996765137	2.7220296094899	20.357049663606
67.865997314453	2.8014313999892	21.339005323308
68.364997863770	2.8843324300655	22.321491486068
68.863998413086	2.9708677475174	23.304611620089
69.362998962402	3.0611798416001	24.288431884297
69.861999511719	3.1554005194815	25.273023452138
70.361000061035	3.2536602466990	26.258454161595
70.860000610352	3.3560832038252	27.244794684779
71.359001159668	3.4627803636312	28.232085198943
71.858001708984	3.5738716195542	29.220404461095
72.357002258301	3.6894505175221	30.209766083379
72.856002807617	3.8096154501148	31.200228695572
73.355003356934	3.9344565310618	32.191820009758
73.853996276855	4.0640521603351	33.184599842981
74.352996826172	4.1984779217317	34.178606096048
74.851997375488	4.3377991947210	35.173889057842
75.350997924805	4.4820792895210	36.170500071917
75.849998474121	4.6313666826538	37.168474692731
76.348999023438	4.7857125012559	38.167866664975
76.847999572754	4.9451641372620	39.168774822846
77.347000122070	5.1097630479909	40.171250081470
77.846000671387	5.2795501619921	41.175369282509
78.345001220703	5.4545571851185	42.181245447482
78.844001770020	5.6348265064993	43.188951547970
79.343002319336	5.8204070622225	44.198622232668
79.842002868652	6.0113338763117	45.210388982824
80.341003417969	6.2076613258869	46.224348701476
80.839996337891	6.4094536232360	47.240686805737
81.338996887207	6.6167682940729	48.259550382250
81.837997436523	6.8296942342488	49.281097558746
82.336997985840	7.0483134284453	50.305505926022
82.835998535156	7.2727334073561	51.332994272068
83.334999084473	7.5030844764725	52.363714974802
83.833999633789	7.7394970191492	53.397902982928
84.333000183105	7.9821324595534	54.435739777534
84.832000732422	8.2311785722403	55.477451673889
85.331001281738	8.4868247946666	56.523249337536
85.830001831055	8.7493142483986	57.573339607785
86.329002380371	9.0188777915026	58.627937713905
86.828002929688	9.2957971405343	59.687252016038
87.327003479004	9.5803573037785	60.751460665347
87.825996398926	9.8728925955145	61.820770965109
88.324996948242	10.173732651719	62.895329334314
88.823997497559	10.483268960877	63.975344134313
89.322998046875	10.801880873836	65.060921356330
89.821998596191	11.129974146702	66.152185721407
90.320999145508	11.467985013458	67.249262634277
90.819999694824	11.816375293227	68.352213154485
91.319000244141	12.175608865780	69.461109294026
91.818000793457	12.546162857108	70.575979606285
92.317001342773	12.928553551402	71.696798349163
92.816001892090	13.323272158924	72.823544312587
93.315002441406	13.730854403379	73.956165657260
93.814002990723	14.151812129286	75.094561353690
94.313003540039	14.586689244062	76.238587630754
94.811996459961	15.035998923605	77.388117830848
95.310997009277	15.500249712047	78.542936157506
95.809997558594	15.980000701175	79.702819801786
96.308998107910	16.475738104428	80.867513281272
96.807998657227	16.987975577267	82.036753055632
97.306999206543	17.517195202255	83.210159143169
97.805999755859	18.063876941390	84.387441016505
98.305000305176	18.628467997237	85.568196170822
98.804000854492	19.211413107274	86.752052996969
99.303001403809	19.813138213970	87.938570566455
99.802001953125	20.434011399975	89.127323362736
100.30100250244	21.074416291446	90.317868785494
100.80000305176	21.734708581831	91.509730052103
101.29900360107	22.415197816765	92.702421608539
101.79799652100	23.116207194109	93.895502873228
102.29699707031	23.837997990184	95.088434619965
102.79599761963	24.580825894850	96.280755391741
103.29499816895	25.344951179167	97.471981017865
103.79399871826	26.130597804639	98.661623356859
104.29299926758	26.937962100909	99.849186622295
104.79199981689	27.767251894631	101.03420591487
105.29100036621	28.618657673593	102.21622036254
105.79000091553	29.492362467027	103.39477936001
106.28900146484	30.388589331037	104.56939462674
106.78800201416	31.307483345563	105.73963711421
107.28700256348	32.249269151613	106.90507787600
107.78600311279	33.214174732285	108.06523237916
108.28500366211	34.202407269022	109.21970154631
108.78399658203	35.214220571243	110.36797336406
109.28299713135	36.249870716920	111.50965508489
109.78199768066	37.309647766293	112.64423288167
110.28099822998	38.393858648918	113.77119401834
110.77999877930	39.502836997938	114.89000366951
111.27899932861	40.636944351115	116.00016918699
111.77799987793	41.796536098002	117.10101834041
112.27700042725	42.981996873904	118.19192588299
112.77600097656	44.193777762311	119.27218582282
113.27500152588	45.432229889637	120.34106337219
113.77400207520	46.697856466035	121.39767910689
114.27300262451	47.990999650213	122.44114378517
114.77200317383	49.312111857821	123.47047349064
115.27100372314	50.661557023601	124.48464370139
115.76999664307	52.039712473623	125.48243802524
116.26899719238	53.446870413609	126.46262239050
116.76799774170	54.883291990733	127.42392827500
117.26699829102	56.349176688483	128.36484584448
117.76599884033	57.844639151066	129.28394654060
118.26499938965	59.369680090585	130.17959639963
118.76399993896	60.924265364697	131.05011977009
119.26300048828	62.508126892516	131.89378736257
119.76200103760	64.120990614932	132.70882535692
120.26100158691	65.762332655879	133.49336127455
120.76000213623	67.431522649839	134.24547077959
121.25900268555	69.127793264098	134.96329518492
121.75800323486	70.850135432826	135.64490705771
122.25700378418	72.597426360824	136.28845480665
122.75599670410	74.368302320335	136.89202189458
123.25499725342	76.161268815128	137.45385430038
123.75399780273	77.974626056733	137.97218626126
124.25299835205	79.806526228973	138.44538388109
124.75199890137	81.654857814354	138.87195753775
125.25099945068	83.517466885252	139.25050789645
125.75000000000	85.391982904397	139.57990753427
126.24900054932	87.275900515169	139.85908117937
126.74800109863	89.166638287228	140.08719910846
127.24700164795	91.061497858100	140.26364767247
127.74600219727	92.957737349657	140.38806838543
128.24499511719	94.852540537138	140.46027536191
128.74400329590	96.743108435494	140.48038291315
129.24299621582	98.626626165825	140.44864369044
129.74200439453	100.50034512499	140.36572215730
130.24099731445	102.36154395330	140.23227576830
130.74000549316	104.20764304957	140.04942480669
131.23899841309	106.03615485777	139.81829543423
131.73800659180	107.84469149864	139.54034916272
132.23699951172	109.63110830106	139.21715212883
132.73599243164	111.39333911171	138.85032662174
133.23500061035	113.12957470864	138.44184256149
133.73399353027	114.83816764252	137.99361106721
134.23300170898	116.51768878947	137.50762133430
134.73199462891	118.16689282399	136.98598877256
135.23100280762	119.78476061775	136.43076117392
135.72999572754	121.37043323285	135.84399854713
136.22900390625	122.92326768009	135.22786363566
136.72799682617	124.44281338860	134.58431741172
137.22700500488	125.92872654258	133.91532858152
137.72599792480	127.38086401921	133.22277663858
138.22500610352	128.79918443371	132.50843285894
138.72399902344	130.18374222597	131.77401168618
139.22300720215	131.53472394834	131.02114945697
139.72200012207	132.85235905220	130.25120104345
140.22099304199	134.13693005916	129.46554088636
140.72000122070	135.38880340911	128.66551759002
141.21899414063	136.60823017182	127.85213344355
141.71800231934	137.79557718478	127.02650317883
142.21699523926	138.95120189608	126.18957301563
142.71600341797	140.07535974501	125.34218762791
143.21499633789	141.16832973161	124.48517184155
143.71400451660	142.23030518761	123.61920830386
144.21299743652	143.26143969223	122.74509098188
144.71200561523	144.26183484040	121.86342548240
145.21099853516	145.23156934517	120.97499595165
145.71000671387	146.17058467212	120.08037267030
146.20899963379	147.07889043937	119.18030220722
146.70799255371	147.95631257996	118.27548762626
147.20700073242	148.80277111411	117.36673262053
147.70599365234	149.61808992389	116.45486597470
148.20500183105	150.40205655242	115.54067551865
148.70399475098	151.15457360174	114.62526398027
149.20300292969	151.87542041789	113.70956378511
149.70199584961	152.56445233465	112.79466450430
150.20100402832	153.22155676313	111.88172846730
150.69999694824	153.84670436615	110.97203444824
151.19900512695	154.43989896414	110.06681755545
151.69799804688	155.00123800406	109.16753439788
152.19700622559	155.53089709044	108.27552463354
152.69599914551	156.02912316634	107.39220325152
153.19500732422	156.49633711363	106.51914341524
153.69400024414	156.93301501309	105.65776098356
154.19299316406	157.33977380718	104.80956241189
154.69200134277	157.71733414810	103.97600712753
155.19099426270	158.06658744238	103.15861106510
155.69000244141	158.38848299745	102.35874295248
156.18899536133	158.68407926956	101.57769931461
156.68800354004	158.95462687752	100.81687759727
157.18699645996	159.20144866369	100.07745565748
157.68600463867	159.42588157195	99.360472752849
158.18499755859	159.62944354174	98.666978968647
158.68400573730	159.81370778247	97.997884950109
159.18299865723	159.98027583869	97.353939427978
159.68200683594	160.13083963490	96.735799777066
160.18099975586	160.26709674924	96.143976598234
160.67999267578	160.39082659812	95.578893929043
161.17900085449	160.50371042985	95.040750524842
161.67799377441	160.60751001932	94.529661220233
162.17700195313	160.70399744894	94.045677703126
162.67599487305	160.79480204714	93.588587938620
163.17500305176	160.88164759555	93.158175593466
163.67399597168	160.96611419680	92.754054101106
164.17300415039	161.04972130357	92.375681492586
164.67199707031	161.13399463461	92.022517688490
165.17100524902	161.22030170480	91.693836367906
165.66999816895	161.30995305770	91.388894588546
166.16900634766	161.40421879187	91.106834729900
166.66799926758	161.50413978474	90.846692362882
167.16700744629	161.61081576185	90.607562763235
167.66600036621	161.72511120703	90.388404148129
168.16499328613	161.84783885673	90.188127407834
168.66400146484	161.97975912727	90.005730181649
169.16299438477	162.12142468812	89.840053970655
169.66200256348	162.27335564337	89.690055800969
170.16099548340	162.43590429270	89.554632504055
170.66000366211	162.60936674427	89.432689184050
171.15899658203	162.79401054145	89.323290190262
171.65800476074	162.98980989219	89.225297252728
172.15699768066	163.19686221200	89.137805058146
172.65600585938	163.41512159751	89.059958918956
173.15499877930	163.64437653355	88.990796901119
173.65400695801	163.88451261581	88.929662317231
174.15299987793	164.13521020533	88.875739841628
174.65199279785	164.39618542847	88.828400676231
175.15100097656	164.66711751726	88.787140803045
175.64999389648	164.94757445540	88.751382557467
176.14900207520	165.23726351127	88.720815706556
176.64799499512	165.53567747522	88.695022960916
177.14700317383	165.84252383930	88.673873020097
177.64599609375	166.15734062465	88.657128243853
178.14500427246	166.47981279803	88.644724077854
178.64399719238	166.80955421958	88.636668177438
179.14300537109	167.14630954426	88.633022165509
179.64199829102	167.48975175626	88.633828333942
180.14100646973	167.83977560094	88.639374147786
180.63999938965	168.19618100166	88.649813059445
181.13900756836	168.55879826805	88.665460277766
181.63800048828	168.92772569412	88.686503222800
182.13699340820	169.30312639291	88.713355642842
182.63600158691	169.68484022571	88.746342389265
183.13499450684	170.07333501425	88.785771112229
183.63400268555	170.46875333361	88.832007462690
184.13299560547	170.87150810251	88.885340181385
184.63200378418	171.28207844112	88.946049248662
185.13099670410	171.70075970152	89.014471410024
185.63000488281	172.12834272175	89.090733292172
186.12899780273	172.56535858220	89.175000166064
186.62800598145	173.01250015501	89.267479879173
187.12699890137	173.47048514182	89.368170457022
187.62600708008	173.94009240153	89.477069868287
188.12500000000	174.42212401607	89.594066253861
188.62399291992	174.91740140467	89.718991473663
189.12300109863	175.42678441831	89.851600762616
189.62199401855	175.95109730846	89.991547989845
190.12100219727	176.49128147542	90.138479204883
190.61999511719	177.04808391152	90.291795313552
191.11900329590	177.62237241910	90.450984811389
191.61799621582	178.21497347074	90.615381930593
192.11700439453	178.82663433183	90.784201546750
192.61599731445	179.45812863521	90.956686188922
193.11500549316	180.11001028331	91.131835684472
193.61399841309	180.78300856095	91.308776836862
194.11300659180	181.47759783254	91.486420140926
194.61199951172	182.19430042637	91.663718726272
195.11099243164	182.93346485721	91.839523735578
195.61000061035	183.69544841575	92.012653879440
196.10899353027	184.48049224559	92.181971286483
196.60800170898	185.28869604045	92.346181075862
197.10699462891	186.12010004079	92.504012550186
197.60600280762	186.97471246562	92.654300236122
198.10499572754	187.85231862062	92.795733662099
198.60400390625	188.75263706320	92.927019547729
199.10299682617	189.67549942035	93.047090693733
199.60200500488	190.62028421272	93.154620007219
200.10099792480	191.58662444519	93.248581639924
200.60000610352	192.57381034324	93.327791965939
201.09899902344	193.58121630792	93.391265300176
201.59800720215	194.60803787916	93.437968421741
202.09700012207	195.65356363244	93.467126613616
202.59599304199	196.71688086725	93.477884398906
203.09500122070	197.79697797509	93.469432740310
203.59399414063	198.89307889180	93.441267221688
