#Parameters = {C=5e-15; L=3e-08; a=4000; eps_eff=6; r_i=90; r_o=182; t=0.1}
#"Frequency / GHz"	"Z1,1 [Real/Imaginary Part] [Re]"	"Z1,1 [Real/Imaginary Part] [Im]"
#-------------------------------------------------------------------------------------
1.0000000000000	-757.90494127353	-242.23341091694
2.4990000724792	-509.64659795157	-408.96612686012
3.9979999065399	-314.69698227299	-407.58195297292
5.4970002174377	-199.68925340007	-360.31182999336
6.9959998130798	-133.00305442013	-310.93504297962
8.4949998855591	-92.530739174193	-268.79286167629
9.9940004348755	-66.613397327857	-234.31984473229
11.493000030518	-49.189735747162	-206.18537952891
12.991999626160	-36.981112088502	-182.99630411609
14.491000175476	-28.124541032862	-163.62711928550
15.989999771118	-21.509718434409	-147.22529677798
17.489000320435	-16.446534778370	-133.15437111715
18.988000869751	-12.489724942447	-120.93770910944
20.486999511719	-9.3425433877625	-110.21477825712
21.986000061035	-6.8015291178110	-100.70956219245
23.485000610352	-4.7237368232066	-92.207885597897
24.983999252319	-3.0064545529778	-84.541461390932
26.482999801636	-1.5744971939734	-77.576412213014
27.982000350952	-0.37183493144546	-71.204981863150
29.481000900269	0.64397007734621	-65.339450340055
30.979999542236	1.5054509170039	-59.907767061886
32.479000091553	2.2379321812003	-54.850079904343
33.978000640869	2.8613323149688	-50.116277089862
35.477001190186	3.3915096858026	-45.664063836409
36.976001739502	3.8412075105716	-41.457387713723
38.474998474121	4.2207776836081	-37.465301094059
39.973999023438	4.5386883390781	-33.661051506272
41.472999572754	4.8019612797184	-30.021326374536
42.972000122070	5.0164482924402	-26.525701190370
44.471000671387	5.1870773548063	-23.156056759375
45.970001220703	5.3180485917912	-19.896285287968
47.469001770020	5.4129742131487	-16.731926852675
48.967998504639	5.4749992820584	-13.649883162314
50.466999053955	5.5068957978584	-10.638223018273
51.965999603271	5.5111694726008	-7.6859643456077
53.465000152588	5.4900992673894	-4.7829022582575
54.964000701904	5.4458217742185	-1.9194837167338
56.463001251221	5.3803897754574	0.91330308687453
57.962001800537	5.2958263873829	3.7240612120513
59.460998535156	5.1941788890946	6.5211045113570
60.959999084473	5.0775874507857	9.3124861985582
62.458999633789	4.9483356968219	12.106100696266
63.958000183105	4.8089235709745	14.909785289694
65.457000732422	4.6621414050996	17.731323984539
66.956001281738	4.5111655377405	20.578513006504
68.455001831055	4.3596402230537	23.459253171475
69.954002380371	4.2118071254328	26.381477086507
71.453002929688	4.0726194672099	29.353271565737
72.952003479004	3.9478948583329	32.382758366130
74.450996398926	3.8445012960502	35.478165655564
75.949996948242	3.7705176038213	38.647675220864
77.448997497559	3.7354743248633	41.899322270371
78.947998046875	3.7505677287842	45.240852199119
80.446998596191	3.8289042795840	48.679420226042
81.945999145508	3.9857384947406	52.221284220388
83.444999694824	4.2386637245171	55.871276110203
84.944000244141	4.6078013128002	59.632287324026
86.443000793457	5.1158154671431	63.504419940303
87.942001342773	5.7878037535758	67.484170094799
89.441001892090	6.6508837989449	71.563281915541
90.940002441406	7.7335310718407	75.727664559051
92.439002990723	9.0642687994477	79.956325304155
93.938003540039	10.670060943549	84.220217007085
95.436996459961	12.573895117512	88.481867415829
96.935997009277	14.791974521444	92.695473829929
98.434997558594	17.330609571251	96.807919400819
99.933998107910	20.183083718735	100.76142028515
101.43299865723	23.327187191240	104.49713807743
102.93199920654	26.724139512754	107.96034426072
104.43099975586	30.319294674372	111.10594504051
105.93000030518	34.045261811299	113.90411638926
107.42900085449	37.826967844574	116.34443924394
108.92800140381	41.588451725880	118.43814257301
110.42700195313	45.259998881835	120.21733246002
111.92600250244	48.784452363474	121.73186170146
113.42500305176	52.121818483557	123.04433326638
114.92400360107	55.251640427490	124.22356927670
116.42299652100	58.172893306303	125.33891279203
117.92199707031	60.902118423038	126.45474364590
119.42099761963	63.470579037073	127.62691637447
120.91999816895	65.920593496486	128.90009281655
122.41899871826	68.302246474705	130.30669800723
123.91799926758	70.670415042525	131.86652819363
125.41699981689	73.082323540264	133.58693938850
126.91600036621	75.595415552931	135.46314312427
128.41499328613	78.266066977503	137.47876911130
129.91400146484	81.147531299339	139.60567058570
131.41299438477	84.288894031888	141.80434980068
132.91200256348	87.732709445606	144.02370421313
134.41099548340	91.513073446654	146.20141919411
135.91000366211	95.651934337502	148.26413581935
137.40899658203	100.15638123365	150.12937365594
138.90800476074	105.01502491404	151.70785948750
140.40699768066	110.19387500447	152.90782555665
141.90600585938	115.63420983935	153.64064636122
143.40499877930	121.25176365800	153.82867986274
144.90400695801	126.93799132057	153.41313163411
146.40299987793	132.56632434969	152.36305157621
147.90199279785	137.99821143574	150.68124973477
149.40100097656	143.09703125271	148.40858137340
150.89999389648	147.73825241744	145.62267443812
152.39900207520	151.82168926477	142.43270043782
153.89799499512	155.28016617530	138.96988367893
155.39700317383	158.08382784132	135.37588992917
156.89599609375	160.24010408913	131.79048515911
158.39500427246	161.78928068253	128.34122031568
159.89399719238	162.79741207575	125.13576688033
161.39300537109	163.34795869469	122.25765838295
162.89199829102	163.53356559954	119.76542898506
164.39100646973	163.44896635792	117.69375535639
165.88999938965	163.18571068948	116.05673742809
167.38900756836	162.82865251888	114.85154842037
168.88800048828	162.45367352038	114.06186750522
170.38699340820	162.12713680633	113.66186291967
171.88600158691	161.90568394567	113.61857468600
173.38499450684	161.83692282959	113.89436185305
174.88400268555	161.95992116350	114.44847520757
176.38299560547	162.30634074222	115.23811880185
177.88200378418	162.90067665392	116.21926858481
179.38099670410	163.76111780378	117.34712896163
180.88000488281	164.89959885540	118.57645809354
182.37899780273	166.32197405687	119.86182974224
183.87800598145	168.02787860896	121.15818390193
185.37699890137	170.01058855750	122.42123105278
186.87600708008	172.25673799177	123.60831597931
188.37500000000	174.74617858840	124.67942185913
189.87399291992	177.45213658283	125.59838210853
191.37300109863	180.34135747618	126.33437629819
192.87199401855	183.37511179380	126.86344927466
194.37100219727	186.51031185591	127.16986913843
195.86999511719	189.70144331439	127.24749931738
197.36900329590	192.90264997124	127.10054755583
198.86799621582	196.07024788054	126.74344800050
200.36700439453	199.16540366010	126.20071349548
201.86599731445	202.15637992129	125.50520174551
203.36500549316	205.02070803733	124.69649156518
204.86399841309	207.74653346418	123.81832041306
206.36300659180	210.33307814816	122.91568017204
207.86199951172	212.79062979797	122.03216310415
209.36099243164	215.13987400815	121.20770669132
210.86000061035	217.41018842036	120.47608945787
212.35899353027	219.63816072476	119.86363849416
213.85800170898	221.86570056602	119.38810069072
215.35699462891	224.13796524235	119.05788705047
216.85600280762	226.50172867866	118.87207371852
218.35499572754	229.00372503636	118.82051723073
219.85400390625	231.68908954054	118.88380499093
221.35299682617	234.60011296724	119.03390705813
222.85200500488	237.77499715836	119.23445723292
224.35099792480	241.24680624285	119.44140591175
225.85000610352	245.04178873910	119.60297318567
227.34899902344	249.17855478857	119.66092769135
228.84800720215	253.66592891237	119.55075790751
230.34700012207	258.50194506474	119.20336544125
231.84599304199	263.67145534087	118.54617633360
233.34500122070	269.14527372071	117.50597758362
234.84399414063	274.87792501603	116.01103846741
236.34300231934	280.80761498555	113.99546684459
237.84199523926	286.85597484855	111.40321564910
239.34100341797	292.92950091882	108.19254737724
240.83999633789	298.92255358815	104.34106058391
242.33900451660	304.72172474880	99.849456902983
243.83799743652	310.21177658460	94.744342287344
245.33700561523	315.28316613287	89.079399965655
246.83599853516	319.83912262854	82.933671419678
248.33500671387	323.80321296390	76.408071338172
249.83399963379	327.12442465011	69.618817628423
251.33299255371	329.78105804692	62.690103374719
252.83200073242	331.78114745861	55.745558422614
254.33099365234	333.16051868450	48.900219285602
255.83000183105	333.97875821808	42.253944133863
257.32901000977	334.31347000782	35.886533478589
258.82800292969	334.25351075669	29.855034961268
260.32699584961	333.89291369010	24.193207374067
261.82598876953	333.32489958093	18.912598746473
263.32501220703	332.63742409585	14.004946054164
264.82400512695	331.90878374497	9.4452273772981
266.32299804688	331.20633821001	5.1952132457623
267.82199096680	330.58449077248	1.2068100861849
269.32101440430	330.08421986837	-2.5747195739292
270.82000732422	329.73288926830	-6.2078738230277
272.31900024414	329.54500960385	-9.7523791917013
273.81799316406	329.52227218905	-13.266937401167
275.31698608398	329.65527877518	-16.807296898297
276.81600952148	329.92386745774	-20.424442739574
278.31500244141	330.29804867989	-24.162905652108
279.81399536133	330.74064525568	-28.059444961865
281.31298828125	331.20736152100	-32.141494634249
282.81201171875	331.64957771673	-36.426195783204
284.31100463867	332.01634836318	-40.919545912806
285.80999755859	332.25663710021	-45.615984215312
287.30899047852	332.32193674741	-50.498525122334
288.80801391602	332.16909155947	-55.539587078390
290.30700683594	331.76241321839	-60.702345022134
291.80599975586	331.07546902332	-65.942608495995
293.30499267578	330.09389708013	-71.211946913650
294.80398559570	328.81432598569	-76.459878077040
296.30300903320	327.24552617794	-81.637403261881
297.80200195313	325.40771570855	-86.700032475362
299.30099487305	323.32972253559	-91.609642887312
300.79998779297	321.04816837987	-96.337260924288
302.29901123047	318.60400149633	-100.86367213596
303.79800415039	316.04028911654	-105.18029837920
305.29699707031	313.39936539816	-109.28882174752
306.79598999023	310.72066576366	-113.20055978868
308.29501342773	308.03869166270	-116.93508192366
309.79400634766	305.38134841584	-120.51865296642
311.29299926758	302.76925992830	-123.98272145631
312.79199218750	300.21444810124	-127.36155645049
314.29098510742	297.72069710197	-130.69105732790
315.79000854492	295.28325414855	-134.00652424840
317.28900146484	292.88923830094	-137.34121108127
318.78799438477	290.51825189331	-140.72465311650
320.28698730469	288.14326235730	-144.18129720790
321.78601074219	285.73165195715	-147.72906794649
323.28500366211	283.24652095052	-151.37848930481
324.78399658203	280.64822973365	-155.13132832769
326.28298950195	277.89646760613	-158.98073660402
327.78201293945	274.95176235828	-162.91007186965
329.28100585938	271.77785711860	-166.89364627095
330.77999877930	268.34406185625	-170.89754888221
332.27899169922	264.62649875293	-174.88008406594
333.77801513672	260.61073263920	-178.79447588738
335.27700805664	256.29232430184	-182.59021273688
336.77600097656	251.67788921095	-186.21607177764
338.27499389648	246.78503329149	-189.62287311497
339.77398681641	241.64138694102	-192.76535342848
341.27301025391	236.28354895685	-195.60525446369
342.77200317383	230.75489861758	-198.11290835157
344.27099609375	225.10333672685	-200.26831499952
345.76998901367	219.37866475999	-202.06140546269
347.26901245117	213.63035809727	-203.49266059928
348.76800537109	207.90507328920	-204.57135041760
350.26699829102	202.24512335528	-205.31492086622
351.76599121094	196.68689817367	-205.74726550793
353.26501464844	191.26015165118	-205.89706474687
354.76400756836	185.98758689288	-205.79545579982
356.26300048828	180.88495214173	-205.47550043461
357.76199340820	175.96138286078	-204.96959472421
359.26098632813	171.21992462993	-204.30905297322
360.76000976563	166.65865049448	-203.52277941844
362.25900268555	162.27108408591	-202.63665237908
363.75799560547	158.04756571478	-201.67297369315
365.25698852539	153.97590038992	-200.65028220833
366.75601196289	150.04231323857	-199.58329940827
368.25500488281	146.23230329382	-198.48277374692
369.75399780273	142.53131687873	-197.35590919116
371.25299072266	138.92541113782	-196.20638969455
372.75201416016	135.40178471177	-195.03531558516
374.25100708008	131.94927448420	-193.84096429493
375.75000000000	128.55878797210	-192.61966598011
377.24899291992	125.22332319957	-191.36638177612
378.74798583984	121.93823388451	-190.07513857117
380.24700927734	118.70124748261	-188.73946584371
381.74600219727	115.51224871185	-187.35341245166
383.24499511719	112.37326273040	-185.91120993578
384.74398803711	109.28795488891	-184.40842942573
386.24301147461	106.26142480198	-182.84201359018
387.74200439453	103.29973430755	-181.21023813523
389.24099731445	100.40947071425	-179.51326692506
390.73999023438	97.597441759322	-177.75288460586
392.23901367188	94.870129034785	-175.93242256292
393.73800659180	92.233499316302	-174.05682128363
395.23699951172	89.692543589206	-172.13225307199
396.73599243164	87.251218830003	-170.16565316294
398.23498535156	84.912208732838	-168.16493853945
399.73400878906	82.676935508980	-166.13830668858
401.23300170898	80.545428764362	-164.09408397116
402.73199462891	78.516503259667	-162.04042484850
404.23098754883	76.587753485286	-159.98518069030
405.73001098633	74.755709844387	-157.93561178061
407.22900390625	73.016070344042	-155.89825289154
408.72799682617	71.363752399948	-153.87875595573
410.22698974609	69.793162696328	-151.88198505157
411.72601318359	68.298273681664	-149.91171572300
413.22500610352	66.872977040922	-147.97080736392
414.72399902344	65.510992864284	-146.06120149098
416.22299194336	64.206259944874	-144.18385169917
417.72198486328	62.952981873295	-142.33892245166
419.22100830078	61.745660771207	-140.52584341069
420.72000122070	60.579352813903	-138.74327585403
422.21899414063	59.449606949688	-136.98943294721
423.71798706055	58.352630741231	-135.26207696489
425.21701049805	57.285274466475	-133.55857039428
426.71600341797	56.245033219273	-131.87615277696
428.21499633789	55.230097899069	-130.21195214363
429.71398925781	54.239274765477	-128.56316827903
431.21301269531	53.271993510165	-126.92708530629
432.71200561523	52.328184963027	-125.30134133482
434.21099853516	51.408294346131	-123.68376522635
435.70999145508	50.513058121598	-122.07265641228
437.20901489258	49.643584893899	-120.46661981997
438.70800781250	48.801115705516	-118.86480712411
440.20700073242	47.986996308067	-117.26679005311
441.70599365234	47.202612997048	-115.67254893391
443.20498657227	46.449256271095	-114.08251287338
444.70401000977	45.728011882187	-112.49745045410
446.20300292969	45.039888394243	-110.91844874617
447.70199584961	44.385537518449	-109.34684274735
449.20098876953	43.765373233857	-107.78414164828
450.70001220703	43.179500562897	-106.23203418549
452.19900512695	42.627701733508	-104.69224013237
453.69799804688	42.109462405860	-103.16652754636
455.19699096680	41.623990493077	-101.65648350040
456.69601440430	41.170211434601	-100.16377724264
458.19500732422	40.746838870819	-98.689810396520
459.69400024414	40.352375914737	-97.235822540226
461.19299316406	39.985146402004	-95.802897150063
462.69198608398	39.643358780299	-94.391818835239
464.19100952148	39.325179271892	-93.003224399079
465.69000244141	39.028666023436	-91.637428340488
467.18899536133	38.751958269977	-90.294578309241
468.68798828125	38.493171703932	-88.974564312721
470.18701171875	38.250508710049	-87.677007199711
471.68600463867	38.022293646430	-86.401436281777
473.18499755859	37.806968908268	-85.147116586546
474.68399047852	37.603134876090	-83.913196985073
476.18301391602	37.409562351199	-82.698724532309
477.68200683594	37.225235890852	-81.502623010905
479.18099975586	37.049252503429	-80.323721795245
480.67999267578	36.880963624595	-79.160885963717
482.17898559570	36.719935729547	-78.012986708629
483.67800903320	36.565912876053	-76.878943944863
485.17700195313	36.418693168637	-75.757603953449
486.67599487305	36.278392752559	-74.648077689379
488.17498779297	36.145180883391	-73.549458831849
489.67401123047	36.019376361043	-72.461066046853
491.17300415039	35.901320383219	-71.382208712014
492.67199707031	35.791472052471	-70.312489019936
494.17098999023	35.690260347286	-69.251513031784
495.67001342773	35.598245120644	-68.199193802831
497.16900634766	35.515878725412	-67.155457953236
498.66799926758	35.443568298223	-66.120390653278
500.16699218750	35.381748611221	-65.094271993620
501.66598510742	35.330677045834	-64.077357485840
503.16500854492	35.290564907561	-63.070043740415
504.66400146484	35.261600781403	-62.072880027643
506.16299438477	35.243734903773	-61.086322395377
507.66198730469	35.236892541055	-60.110956528553
509.16101074219	35.240868298519	-59.147336892798
510.66000366211	35.255379015273	-58.196063205013
512.15899658203	35.279988272004	-57.257645527280
513.65802001953	35.314173869873	-56.332550575111
515.15698242188	35.357364753664	-55.421281198307
516.65600585938	35.408843638357	-54.524136355868
518.15502929688	35.467940928656	-53.641493581206
519.65399169922	35.533779813623	-52.773472518885
521.15301513672	35.605624140147	-51.920287020634
522.65197753906	35.682568050303	-51.081891694011
524.15100097656	35.763775876236	-50.258239132773
525.65002441406	35.848407140487	-49.449127556514
527.14898681641	35.935633446916	-48.654332119516
528.64801025391	36.024715181535	-47.873500608693
530.14697265625	36.114882390826	-47.106184002381
531.64599609375	36.205478285271	-46.351908997839
533.14501953125	36.295886338338	-45.610081914311
534.64398193359	36.385624358336	-44.880150879594
536.14300537109	36.474200184328	-44.161424022178
537.64202880859	36.561319045501	-43.453296637456
539.14099121094	36.646641516098	-42.755057022324
540.64001464844	36.730023738452	-42.066088878541
542.13897705078	36.811360862521	-41.385761504115
543.63800048828	36.890593122025	-40.713458183777
545.13702392578	36.967756794635	-40.048644644091
546.63598632813	37.042928066232	-39.390817360354
548.13500976563	37.116228561920	-38.739540761429
549.63397216797	37.187796526488	-38.094423048079
551.13299560547	37.257792293621	-37.455167245875
552.63201904297	37.326377084118	-36.821512732095
554.13098144531	37.393698013372	-36.193284375949
555.63000488281	37.459902625813	-35.570362722732
557.12902832031	37.525060890576	-34.952652550980
558.62799072266	37.589232779243	-34.340114560429
560.12701416016	37.652423895638	-33.732749906174
561.62597656250	37.714589194616	-33.130564806330
563.12500000000	37.775600098178	-32.533565286472
564.62402343750	37.835298230952	-31.941752270983
566.12298583984	37.893464585375	-31.355115429480
567.62200927734	37.949818305409	-30.773609902445
569.12097167969	38.004037249598	-30.197142024014
570.61999511719	38.055767111320	-29.625559078221
572.11901855469	38.104620144179	-29.058660140713
573.61798095703	38.150203440347	-28.496164323264
575.11700439453	38.192109250446	-27.937708789503
576.61602783203	38.229956632754	-27.382876339160
578.11499023438	38.263370608599	-26.831155429991
579.61401367188	38.292036479777	-26.281977076629
581.11297607422	38.315687215990	-25.734697652659
582.61199951172	38.334106665456	-25.188602122703
584.11102294922	38.347173522147	-24.642949130966
585.60998535156	38.354844288933	-24.096945943107
587.10900878906	38.357171230102	-23.549780374018
588.60797119141	38.354292203915	-23.000628389443
590.10699462891	38.346459910391	-22.448677530975
591.60601806641	38.334004499828	-21.893120262381
593.10498046875	38.317367907725	-21.333205748167
594.60400390625	38.297064257315	-20.768213830905
596.10302734375	38.273704261642	-20.197499873852
597.60198974609	38.247951714125	-19.620483082531
599.10101318359	38.220536406293	-19.036665760603
600.59997558594	38.192223044152	-18.445637412402
602.09899902344	38.163826210521	-17.847082493832
603.59802246094	38.136156928479	-17.240773948571
605.09698486328	38.110041933780	-16.626579550571
606.59600830078	38.086292315770	-16.004461377896
