#Parameters = {C=5e-15; L=3e-08; a=4000; eps_eff=6; r_i=50; r_o=52.8; t=0.1}
#"Frequency / GHz"	"Z1,1 [Real/Imaginary Part] [Re]"	"Z1,1 [Real/Imaginary Part] [Im]"
#-------------------------------------------------------------------------------------
1.0000000000000	367.68285005093	-3052.4628562982
2.4990000724792	59.067478363400	-1236.1512110593
3.9979999065399	22.730828880906	-773.50939162058
5.4970002174377	11.738837863633	-562.54402184032
6.9959998130798	7.0169969461024	-441.80777022204
8.4949998855591	4.5689835661757	-363.59286782662
9.9940004348755	3.1415279253147	-308.78138964737
11.493000030518	2.2396876040331	-268.22136729353
12.991999626160	1.6361595993411	-236.98223554082
14.491000175476	1.2146172086052	-212.17260148601
15.989999771118	0.91054008903709	-191.98501693699
17.489000320435	0.68578046247353	-175.23147628343
18.988000869751	0.51655992596231	-161.09905680831
20.486999511719	0.38750893714019	-149.01272760603
21.986000061035	0.28821039590561	-138.55433022920
23.485000610352	0.21145084546982	-129.41233044297
24.983999252319	0.15217135860705	-121.35008298275
26.482999801636	0.10653395144669	-114.18446034538
27.982000350952	0.071807347417986	-107.77156226735
29.481000900269	0.045821574887801	-101.99681815777
30.979999542236	0.026938807999050	-96.767777696369
32.479000091553	0.013865312691763	-92.009041873924
33.978000640869	0.0055554168167296	-87.658570223388
35.477001190186	0.0011788916334263	-83.664734772212
36.976001739502	5.2644819714701e-08	-79.984341500940
38.474998474121	0.0014576688012072	-76.580848006924
39.973999023438	0.0050547666437117	-73.423238059778
41.472999572754	0.010353939557213	-70.484964985679
42.972000122070	0.017008363974322	-67.743109031290
44.471000671387	0.024694285611519	-65.177903136853
45.970001220703	0.033120082483215	-62.772101024552
47.469001770020	0.042049425970920	-60.510636101841
48.967998504639	0.051262203460845	-58.380269411366
50.466999053955	0.060577766171582	-56.369307765338
51.965999603271	0.069821005739502	-54.467433000933
53.465000152588	0.078843241624201	-52.665369611561
54.964000701904	0.087526347422076	-50.954944292684
56.463001251221	0.095754133517812	-49.328810400534
57.962001800537	0.10344712313141	-47.780340356316
59.460998535156	0.11051992910976	-46.303553882568
60.959999084473	0.11691814227052	-44.893122331433
62.458999633789	0.12260156242952	-43.544097018987
63.958000183105	0.12754552849517	-42.252064523965
65.457000732422	0.13173262198139	-41.013009903720
66.956001281738	0.13517094125205	-39.823241923087
68.455001831055	0.13785709270501	-38.679401686809
69.954002380371	0.13982217067789	-37.578395903944
71.453002929688	0.14110800351069	-36.517415447119
72.952003479004	0.14175184310527	-35.493858133103
74.450996398926	0.14180444546883	-34.505351721842
75.949996948242	0.14133256852427	-33.549703850271
77.448997497559	0.14039293613281	-32.624907158104
78.947998046875	0.13905931448512	-31.729084489795
80.446998596191	0.13740912749935	-30.860504809336
81.945999145508	0.13551149632031	-30.017630010855
83.444999694824	0.13344477262912	-29.198958712591
84.944000244141	0.13128537344108	-28.403147311878
86.443000793457	0.12910845512752	-27.628975588304
87.942001342773	0.12698608873944	-26.875254379010
89.441001892090	0.12498129160772	-26.140940832841
90.940002441406	0.12316091094910	-25.425022746767
92.439002990723	0.12157775038301	-24.726579637227
93.938003540039	0.12028604516811	-24.044771215327
95.436996459961	0.11932962952803	-23.378806248438
96.935997009277	0.11874676626684	-22.727934540901
98.434997558594	0.11856351210097	-22.091477783790
99.933998107910	0.11880218775722	-21.468788505231
101.43299865723	0.11948581220286	-20.859256671631
102.93199920654	0.12061163129661	-20.262328371276
104.43099975586	0.12218371156963	-19.677464965643
105.93000030518	0.12419569878642	-19.104167573211
107.42900085449	0.12663583043972	-18.541957566652
108.92800140381	0.12948264956063	-17.990384665336
110.42700195313	0.13272554021139	-17.449021749119
111.92600250244	0.13632356821142	-16.917459912221
113.42500305176	0.14025441473561	-16.395299425164
114.92400360107	0.14448093739746	-15.882168409675
116.42299652100	0.14897843756353	-15.377698072784
117.92199707031	0.15369783482963	-14.881544127840
119.42099761963	0.15862029411528	-14.393362959807
120.91999816895	0.16370040278370	-13.912820151232
122.41899871826	0.16891035563096	-13.439601925990
123.91799926758	0.17421989413151	-12.973405365474
125.41699981689	0.17960450419767	-12.513931776973
126.91600036621	0.18503590081820	-12.060863671761
128.41499328613	0.19049542238397	-11.613936413275
129.91400146484	0.19597399866407	-11.172871906458
131.41299438477	0.20145133160922	-10.737407460912
132.91200256348	0.20693091187522	-10.307275241230
134.41099548340	0.21240810493523	-9.8822368106599
135.91000366211	0.21788039690966	-9.4620313537706
137.40899658203	0.22336765557156	-9.0464389449126
138.90800476074	0.22887095648197	-8.6352429915931
140.40699768066	0.23441384207023	-8.2282105960210
141.90600585938	0.24001591050535	-7.8251569096908
143.40499877930	0.24570208700806	-7.4258720192870
144.90400695801	0.25149175695118	-7.0301728637315
146.40299987793	0.25742144013604	-6.6378845628051
147.90199279785	0.26351679182560	-6.2488317780899
149.40100097656	0.26980937894848	-5.8628673640773
150.89999389648	0.27633401183057	-5.4798354770449
152.39900207520	0.28311816934367	-5.0995884481503
153.89799499512	0.29019752878291	-4.7220059686827
155.39700317383	0.29759664501869	-4.3469386112870
156.89599609375	0.30535042792799	-3.9742822198635
158.39500427246	0.31348069653686	-3.6039168221005
159.89399719238	0.32201441396537	-3.2357466229437
161.39300537109	0.33097513684841	-2.8696552450258
162.89199829102	0.34038008804761	-2.5055502244544
164.39100646973	0.35024417744790	-2.1433356500311
165.88999938965	0.36058694417714	-1.7829166650701
167.38900756836	0.37141364048129	-1.4242116267553
168.88800048828	0.38273813335268	-1.0671338059270
170.38699340820	0.39456138273537	-0.71158564191018
171.88600158691	0.40688970289913	-0.35750082167029
173.38499450684	0.41972324159425	-0.0047777699785290
174.88400268555	0.43306350156219	0.34664830602287
176.38299560547	0.44690912181156	0.69688322636183
177.88200378418	0.46125262440061	1.0460081128459
179.38099670410	0.47609959483989	1.3940916588188
180.88000488281	0.49143951361823	1.7412499558842
182.37899780273	0.50727120999002	2.0875558318807
183.87800598145	0.52359317623670	2.4331067833151
185.37699890137	0.54040817582131	2.7779815623647
186.87600708008	0.55771251729222	3.1222999095922
188.37500000000	0.57550770017484	3.4661284883081
189.87399291992	0.59380407537019	3.8095933845560
191.37300109863	0.61260426622948	4.1527785317941
192.87199401855	0.63192429788435	4.4957799734341
194.37100219727	0.65176959322653	4.8387056596176
195.86999511719	0.67216016168659	5.1816330271511
197.36900329590	0.69311698060816	5.5246960227315
198.86799621582	0.71466079527377	5.8679731920185
200.36700439453	0.73681723954981	6.2115722444059
201.86599731445	0.75961521625685	6.5555747836030
203.36500549316	0.78308694209728	6.9001016356335
204.86399841309	0.80726912467302	7.2452338067579
206.36300659180	0.83219642369866	7.5910700472702
207.86199951172	0.85790608726029	7.9377040037541
209.36099243164	0.88444472615283	8.2852256888657
210.86000061035	0.91185160212594	8.6337329510281
212.35899353027	0.94017588359524	8.9833011544710
213.85800170898	0.96946686268177	9.3340322039765
215.35699462891	0.99976796938890	9.6860092795851
216.85600280762	1.0311257932533	10.039307182214
218.35499572754	1.0636006073143	10.394015016461
219.85400390625	1.0972358210092	10.750233022057
221.35299682617	1.1320776502811	11.108022776749
222.85200500488	1.1681911025002	11.467470843035
224.35099792480	1.2056167210967	11.828668069020
225.85000610352	1.2444062963996	12.191691173510
227.34899902344	1.2846188143074	12.556638756492
228.84800720215	1.3263069734954	12.923584815401
230.34700012207	1.3695226667275	13.292612438002
231.84599304199	1.4143199012807	13.663828448256
233.34500122070	1.4607512202921	14.037314539964
234.84399414063	1.5088779672806	14.413168513430
236.34300231934	1.5587543211813	14.791484496640
237.84199523926	1.6104471113004	15.172376159518
239.34100341797	1.6640085166291	15.555930252185
240.83999633789	1.7195133833037	15.942267125828
242.33900451660	1.7770333288321	16.331510912501
243.83799743652	1.8366286324083	16.723755223039
245.33700561523	1.8983841276078	17.119135183703
246.83599853516	1.9623777677247	17.517780642449
248.33500671387	2.0286988558243	17.919813286604
249.83399963379	2.0974322711794	18.325368270155
251.33299255371	2.1686908142483	18.734585879874
252.83200073242	2.2425645025032	19.147620358350
254.33099365234	2.3191667186557	19.564601169849
255.83000183105	2.3986232218460	19.985691323686
257.32901000977	2.4810648493076	20.411042730436
258.82800292969	2.5666134257242	20.840815214263
260.32699584961	2.6554208844509	21.275179361773
261.82598876953	2.7476442103624	21.714287280570
263.32501220703	2.8434455730285	22.158336791097
264.82400512695	2.9430007210434	22.607473076987
266.32299804688	3.0464918196345	23.061887914457
267.82199096680	3.1541119601493	23.521772194127
269.32101440430	3.2660688978521	23.987300396878
270.82000732422	3.3825870445941	24.458657788620
272.31900024414	3.5038969173190	24.936037421809
273.81799316406	3.6302449030329	25.419638113301
275.31698608398	3.7618823155820	25.909653019319
276.81600952148	3.8991005370195	26.406305120578
278.31500244141	4.0421675839804	26.909757806982
279.81399536133	4.1914078668351	27.420268173561
281.31298828125	4.3471250083206	27.938013582061
282.81201171875	4.5096688747366	28.463216610973
284.31100463867	4.6793948296656	28.996108618380
285.80999755859	4.8566895611934	29.536908366708
287.30899047852	5.0419536429440	30.085844891096
288.80801391602	5.2355942346068	30.643130227343
290.30700683594	5.4380809617423	31.209035588402
291.80599975586	5.6498748641811	31.783769732344
293.30499267578	5.8714888492469	32.367589539461
294.80398559570	6.1034510837450	32.960736060502
296.30300903320	6.3463373815385	33.563475265943
297.80200195313	6.6007393024188	34.176028523886
299.30099487305	6.8673134798141	34.798677677048
300.79998779297	7.1467279396171	35.431658446735
302.29901123047	7.4397168174211	36.075233268893
303.79800415039	7.7470469179412	36.729652731054
305.29699707031	8.0695636084955	37.395176628543
306.79598999023	8.4081314639188	38.072033386584
308.29501342773	8.7636995898805	38.760483701923
309.79400634766	9.1372786647652	39.460747023845
311.29299926758	9.5299391958377	40.173038572866
312.79199218750	9.9428345402231	40.897561456334
314.29098510742	10.377194126587	41.634502727365
315.79000854492	10.834340964887	42.384021178798
317.28900146484	11.315676067991	43.146244119591
318.78799438477	11.822714453708	43.921251466861
320.28698730469	12.357062529714	44.709100874119
321.78601074219	12.920455177222	45.509788889426
323.28500366211	13.514727612827	46.323249500812
324.78399658203	14.141859428100	47.149333502587
326.28298950195	14.803959654898	47.987824849275
327.78201293945	15.503272380381	48.838404327700
329.28100585938	16.242209925813	49.700612036713
330.77999877930	17.023321997263	50.573900749274
332.27899169922	17.849332412676	51.457508094681
333.77801513672	18.723154387815	52.350552862544
335.27700805664	19.647850946251	53.251906264633
336.77600097656	20.626675367445	54.160218584880
338.27499389648	21.663072412638	55.073849596975
339.77398681641	22.760679142045	55.990873476610
341.27301025391	23.923283015528	56.908980358507
342.77200317383	25.154868186739	57.825488277410
344.27099609375	26.459591330754	58.737269859655
345.76998901367	27.841735708256	59.640622615112
347.26901245117	29.305673251218	60.531295607973
348.76800537109	30.855921866312	61.404430073771
350.26699829102	32.496954887801	62.254381739291
351.76599121094	34.233278906700	63.074742517004
353.26501464844	36.069252544870	63.858211606413
354.76400756836	38.009028620942	64.596503643056
356.26300048828	40.056446795894	65.280312231914
357.76199340820	42.214822802517	65.899185435923
359.26098632813	44.486891719884	66.441523141487
360.76000976563	46.874444312594	66.894463847770
362.25900268555	49.378202092392	67.243874596113
363.75799560547	51.997489017665	67.474385999499
365.25698852539	54.729976443441	67.569449207514
366.75601196289	57.571257471933	67.511432516142
368.25500488281	60.514570813669	67.281785240989
369.75399780273	63.550390243845	66.861334939036
371.25299072266	66.666116488913	66.230696663363
372.75201416016	69.845682598068	65.370648009212
374.25100708008	73.069379048609	64.262835034025
375.75000000000	76.313603967653	62.890385962982
377.24899291992	79.550887381781	61.238770031478
378.74798583984	82.750055337397	59.296680812906
380.24700927734	85.876540933089	57.056910507590
381.74600219727	88.893008068520	54.517309792915
383.24499511719	91.760232229760	51.681546378922
384.74398803711	94.438157016312	48.559792056922
386.24301147461	96.887209972070	45.169136384709
387.74200439453	99.069768312522	41.533630510496
389.24099731445	100.95169066721	37.684085641057
390.73999023438	102.50370713643	33.657353148199
392.23901367188	103.70283556977	29.495333739812
393.73800659180	104.53327239611	25.243591714756
395.23699951172	104.98716223077	20.949784324118
396.73599243164	105.06479121243	16.661952813297
398.23498535156	104.77440536101	12.426805774009
399.73400878906	104.13160018758	8.2881538984425
401.23300170898	103.15838498529	4.2855870305037
402.73199462891	101.88200689147	0.45344535275589
404.23098754883	100.33358041082	-3.1798477076826
405.73001098633	98.546756029524	-6.5921011140672
407.22900390625	96.556330815653	-9.7673353639646
408.72799682617	94.397156069464	-12.695499943714
410.22698974609	92.103053334599	-15.371965980599
411.72601318359	89.706043597658	-17.796880410861
413.22500610352	87.235744979398	-19.974433621032
414.72399902344	84.719030494500	-21.912109893516
416.22299194336	82.179725375775	-23.619959889248
417.72198486328	79.638645375550	-25.109907384998
419.22100830078	77.113609440064	-26.395167688346
420.72000122070	74.619570311128	-27.489712629467
422.21899414063	72.168831826482	-28.407810154001
423.71798706055	69.771295865763	-29.163728436326
425.21701049805	67.434732804251	-29.771418239057
426.71600341797	65.165009344715	-30.244332638643
428.21499633789	62.966362616710	-30.595277744298
429.71398925781	60.841629213434	-30.836301795370
431.21301269531	58.792488277482	-30.978656800857
432.71200561523	56.819630020684	-31.032777727027
434.21099853516	54.922941634676	-31.008261233943
435.70999145508	53.101666401919	-30.913891509168
437.20901489258	51.354538788422	-30.757688939838
438.70800781250	49.679885654145	-30.546931796100
440.20700073242	48.075735882097	-30.288186854820
441.70599365234	46.539888044211	-29.987399575634
443.20498657227	45.069998268470	-29.649895919367
444.70401000977	43.663613725001	-29.280479953910
446.20300292969	42.318217792223	-28.883422539640
447.70199584961	41.031296348093	-28.462550791546
449.20098876953	39.800319832290	-28.021278004573
450.70001220703	38.622829204813	-27.562660023786
452.19900512695	37.496385418867	-27.089389289352
453.69799804688	36.418593580810	-26.603840324239
455.19699096680	35.387195668247	-26.108168996261
456.69601440430	34.399975672442	-25.604241652389
458.19500732422	33.454807495075	-25.093728148122
459.69400024414	32.549646665744	-24.578067524470
461.19299316406	31.682550299644	-24.058564255305
462.69198608398	30.851658671392	-23.536345364319
464.19100952148	30.055211595400	-23.012409770390
465.69000244141	29.291524766088	-22.487625996028
467.18899536133	28.558996614070	-21.962746484082
468.68798828125	27.856109741025	-21.438431231218
470.18701171875	27.181438285616	-20.915252255092
471.68600463867	26.533610059777	-20.393712950255
473.18499755859	25.911344239341	-19.874237509514
474.68399047852	25.313418766832	-19.357187561161
476.18301391602	24.738676993007	-18.842877463052
477.68200683594	24.186030337354	-18.331565971325
479.18099975586	23.654447006565	-17.823486067087
480.67999267578	23.142943820708	-17.318814183951
482.17898559570	22.650609821710	-16.817706813092
483.67800903320	22.176558919117	-16.320274928049
485.17700195313	21.719973740715	-15.826620333876
486.67599487305	21.280058737287	-15.336812032588
488.17498779297	20.856084584023	-14.850909581432
489.67401123047	20.447348394277	-14.368945117649
491.17300415039	20.053182550910	-13.890931571721
492.67199707031	19.672961696280	-13.416876983882
494.17098999023	19.306082990170	-12.946772304300
495.67001342773	18.951985003030	-12.480604801918
497.16900634766	18.610134276157	-12.018337635284
498.66799926758	18.280018732697	-11.559935710452
500.16699218750	17.961160634738	-11.105355618028
501.66598510742	17.653090052192	-10.654547981923
503.16500854492	17.355386891860	-10.207451568327
504.66400146484	17.067630555153	-9.7640110733105
506.16299438477	16.789430772392	-9.3241548159775
507.66198730469	16.520417690354	-8.8878115212407
509.16101074219	16.260227832398	-8.4549120557180
510.66000366211	16.008536784996	-8.0253822292328
512.15899658203	15.765019572872	-7.5991232629598
513.65802001953	15.529373766076	-7.1760812485023
515.15698242188	15.301311940272	-6.7561552502368
516.65600585938	15.080562758465	-6.3392672522497
518.15502929688	14.866860021074	-5.9253244240147
519.65399169922	14.659964140473	-5.5142496898112
521.15301513672	14.459635054097	-5.1059414392728
522.65197753906	14.265658183505	-4.7003243130623
524.15100097656	14.077811362801	-4.2973001797226
525.65002441406	13.895904925107	-3.8967923281393
527.14898681641	13.719747424201	-3.4986981640442
528.64801025391	13.549155688742	-3.1029424597551
530.14697265625	13.383960015316	-2.7094275355632
531.64599609375	13.224001807454	-2.3180697686593
533.14501953125	13.069118250509	-1.9287803253707
534.64398193359	12.919181593712	-1.5414733925056
536.14300537109	12.774046169012	-1.1560698056342
537.64202880859	12.633577565432	-0.77247635555080
539.14099121094	12.497657829963	-0.39061366460348
540.64001464844	12.366171724583	-0.010395073785995
542.13897705078	12.239010784581	0.36825618033726
543.63800048828	12.116064131599	0.74541477885278
545.13702392578	11.997240676578	1.1211709618630
546.63598632813	11.882443933635	1.4955997533998
548.13500976563	11.771587674035	1.8687789019981
549.63397216797	11.664589499624	2.2407760859932
551.13299560547	11.561372752350	2.6116841559790
552.63201904297	11.461858939663	2.9815637481008
554.13098144531	11.365982788737	3.3504876754483
555.63000488281	11.273675149734	3.7185428186282
557.12902832031	11.184875045182	4.0857831354725
558.62799072266	11.099528147897	4.4522988672475
560.12701416016	11.017577970119	4.8181571738342
561.62597656250	10.938973666655	5.1834168190207
563.12500000000	10.863666963868	5.5481592229987
564.62402343750	10.791616434997	5.9124588616007
566.12298583984	10.722776015906	6.2763746685983
567.62200927734	10.657114300395	6.6399896296482
569.12097167969	10.594592929789	7.0033606317340
570.61999511719	10.535184521735	7.3665717874826
572.11901855469	10.478856738324	7.7296837215553
573.61798095703	10.425583256036	8.0927737763795
575.11700439453	10.375352868581	8.4559086422412
576.61602783203	10.328134065655	8.8191650918605
578.11499023438	10.283923355900	9.1826056547073
579.61401367188	10.242697734972	9.5463070500366
581.11297607422	10.204454907668	9.9103412559463
582.61199951172	10.169189762439	10.274784192625
584.11102294922	10.136903269470	10.639696953994
585.60998535156	10.107588106119	11.005160109353
587.10900878906	10.081258373486	11.371255443394
588.60797119141	10.057918328542	11.738037604517
590.10699462891	10.037575832989	12.105591594571
591.60601806641	10.020250934310	12.473992443798
593.10498046875	10.005963157607	12.843308377652
594.60400390625	9.9947354100642	13.213614624893
596.10302734375	9.9865914429066	13.584982546693
597.60198974609	9.9815608139721	13.957495701864
599.10101318359	9.9796885567381	14.331230035124
600.59997558594	9.9809936172149	14.706232533247
602.09899902344	9.9855273339636	15.082610570831
603.59802246094	9.9933275494230	15.460418169021
