#Parameters = {C=5e-15; L=3e-08; a=4000; eps_eff=6; r_i=50; r_o=52.9; t=0.1}
#"Frequency / GHz"	"Z1,1 [Real/Imaginary Part] [Re]"	"Z1,1 [Real/Imaginary Part] [Im]"
#-------------------------------------------------------------------------------------
1.0000000000000	242.32256368061	-2988.8507219031
1.9989999532700	60.562235877186	-1502.4125353252
2.9979999065399	26.672213254974	-1002.5298467202
3.9969999790192	14.793104576485	-752.02951637093
4.9959998130798	9.2933141142575	-601.56622110675
5.9949998855591	6.3070645649677	-501.18210135253
6.9939999580383	4.5081007134158	-429.43326340511
7.9930000305176	3.3427730756924	-375.58838768897
8.9919996261597	2.5461152150495	-333.68256640864
9.9910001754761	1.9785328495073	-300.13563522079
10.989999771118	1.5607738930836	-272.66875587566
11.989000320435	1.2451941008772	-249.76238421994
12.987999916077	1.0017997740182	-230.36445831042
13.987000465393	0.81075537675228	-213.72338090014
14.986000061035	0.65878444803871	-199.28794228113
15.984999656677	0.53642018219754	-186.64471279487
16.983999252319	0.43696562597868	-175.47758295885
17.982999801636	0.35553344813528	-165.54064399204
18.982000350952	0.28849826224224	-156.63970223594
19.981000900269	0.23309265988447	-148.61948439204
20.979999542236	0.18717947437576	-141.35423786326
21.979000091553	0.14909590184820	-134.74112051067
22.978000640869	0.11753000669208	-128.69512756337
23.976999282837	0.091430842619661	-123.14543857984
24.975999832153	0.069951424735121	-118.03258594424
25.975000381470	0.052383944856205	-113.30620383495
26.974000930786	0.038150742566176	-108.92344468368
27.972999572754	0.026789567422759	-104.84752133701
28.972000122070	0.017894092259576	-101.04675292193
29.971000671387	0.011131764795205	-97.493666763081
30.969999313354	0.0061770912291970	-94.164366874962
31.968999862671	0.0028155926162415	-91.037915481914
32.967998504639	0.00082669036743315	-88.095880341513
33.966999053955	-2.5290254749325e-06	-85.322061315514
34.965999603271	0.00017686513541861	-82.702049843360
35.965000152588	0.0012223756730039	-80.223077916518
36.964000701904	0.0030032314952567	-77.873715031436
37.963001251221	0.0053825942103202	-75.643775677002
38.962001800537	0.0082803182738516	-73.524060609650
39.960998535156	0.011586858670997	-71.506345019826
40.959999084473	0.015229382565344	-69.583174369343
41.958999633789	0.019133036877287	-67.747755031200
42.958000183105	0.023217621059412	-65.994015747270
43.957000732422	0.027438012791489	-64.316384520182
44.956001281738	0.031715046904458	-62.709769263573
45.955001831055	0.036014833466808	-61.169540375242
46.953998565674	0.040290086234983	-59.691443311282
47.952999114990	0.044495992608626	-58.271589802708
48.951999664307	0.048600534473446	-56.906422298030
49.951000213623	0.052568662413766	-55.592568707375
50.950000762939	0.056376487821815	-54.327039124925
51.949001312256	0.060003662572257	-53.107028038362
52.948001861572	0.063421173901516	-51.929923737848
53.946998596191	0.066621284545713	-50.793292298432
54.945999145508	0.069585133065374	-49.694930027499
55.944999694824	0.072296623765394	-48.632748942708
56.944000244141	0.074765686387815	-47.604789448607
57.943000793457	0.076979846872624	-46.609276442708
58.942001342773	0.078934953608005	-45.644514325436
59.941001892090	0.080631465757783	-44.708923793397
60.939998626709	0.082081783639605	-43.801053145547
61.938999176025	0.083285896567110	-42.919523243291
62.937999725342	0.084256400702119	-42.063026452314
63.937000274658	0.084996360523097	-41.230378506551
64.935997009277	0.085527138192894	-40.420406720868
65.934997558594	0.085856175699177	-39.632128050624
66.933998107910	0.085999675895086	-38.864448614254
67.932998657227	0.085974615218210	-38.116485413494
68.931999206543	0.085793830942276	-37.387356965380
69.930999755859	0.085481993652302	-36.676186266344
70.930000305176	0.085054766469727	-35.982207489163
71.929000854492	0.084530081801539	-35.304692651126
72.928001403809	0.083931508551234	-34.642952281919
73.927001953125	0.083274067807064	-33.996285174408
74.926002502441	0.082578631194943	-33.364089241638
75.925003051758	0.081864457260040	-32.745798911307
76.924003601074	0.081149265497879	-32.140825566093
77.922996520996	0.080452698693539	-31.548651530693
78.921997070313	0.079790029992978	-30.968796405434
79.920997619629	0.079177523039824	-30.400760575893
80.919998168945	0.078633290125028	-29.844118502320
81.918998718262	0.078170394061562	-29.298437310145
82.917999267578	0.077799053501676	-28.763327338890
83.916999816895	0.077536380658523	-28.238387719448
84.916000366211	0.077386786116725	-27.723270484370
85.915000915527	0.077359395642134	-27.217625520375
86.914001464844	0.077474546110946	-26.721135921511
87.913002014160	0.077723248860209	-26.233472038980
88.912002563477	0.078118725961589	-25.754353807933
89.911003112793	0.078657036016993	-25.283481374211
90.910003662109	0.079351603678598	-24.820602667182
91.908996582031	0.080191918525033	-24.365442743558
92.907997131348	0.081185496625016	-23.917750994111
93.906997680664	0.082333197592436	-23.477316952618
94.905998229980	0.083618658426530	-23.043887043515
95.904998779297	0.085054601582088	-22.617252876499
96.903999328613	0.086621978254949	-22.197202478396
97.902999877930	0.088318946088779	-21.783530239642
98.902000427246	0.090142264678370	-21.376054807756
99.901000976563	0.092093740837718	-20.974578381527
100.90000152588	0.094149108319739	-20.578933677126
101.89900207520	0.096304791871823	-20.188930737459
102.89800262451	0.098557087696472	-19.804395649248
103.89700317383	0.10088877684106	-19.425182608394
104.89600372314	0.10330603982234	-19.051131686849
105.89499664307	0.10578756190747	-18.682074574969
106.89399719238	0.10832882710356	-18.317878230341
107.89299774170	0.11092140033189	-17.958387265064
108.89199829102	0.11355863186034	-17.603469118597
109.89099884033	0.11622668604940	-17.252979811159
110.88999938965	0.11892982015961	-16.906798939998
111.88899993896	0.12165776106560	-16.564786478030
112.88800048828	0.12439842655638	-16.226818351882
113.88700103760	0.12715381957471	-15.892784556558
114.88600158691	0.12991728519907	-15.562546057958
115.88500213623	0.13267978768374	-15.236006014315
116.88400268555	0.13545199592512	-14.913045858537
117.88300323486	0.13822211289391	-14.593554535930
118.88200378418	0.14098935640069	-14.277428842663
119.88099670410	0.14375715651768	-13.964568301174
120.87999725342	0.14652699018615	-13.654869236244
121.87899780273	0.14929830027859	-13.348234128480
122.87799835205	0.15207519748770	-13.044579641917
123.87699890137	0.15485875248496	-12.743807863520
124.87599945068	0.15765159419153	-12.445816640495
125.87500000000	0.16046262585579	-12.150551998767
126.87400054932	0.16329541354713	-11.857904304325
127.87300109863	0.16615149193354	-11.567811569178
128.87199401855	0.16904408008443	-11.280187363687
129.87100219727	0.17197472939693	-10.994964006789
130.86999511719	0.17494708258016	-10.712060703410
131.86900329590	0.17797638757922	-10.431418687057
132.86799621582	0.18106452398295	-10.152961313918
133.86700439453	0.18421931217404	-9.8766444113648
134.86599731445	0.18744177241821	-9.6023820204368
135.86500549316	0.19075375702749	-9.3301209983063
136.86399841309	0.19415074264729	-9.0598147213429
137.86300659180	0.19763818399894	-8.7914027022462
138.86199951172	0.20122872652928	-8.5248250150916
139.86099243164	0.20492937253916	-8.2600403288912
140.86000061035	0.20873809952652	-7.9969897024990
141.85899353027	0.21266717340128	-7.7356329913894
142.85800170898	0.21671868481623	-7.4759201442065
143.85699462891	0.22089626915922	-7.2177993098940
144.85600280762	0.22520777755922	-6.9612405950649
145.85499572754	0.22964956995461	-6.7061922401246
146.85400390625	0.23423144684493	-6.4526149405255
147.85299682617	0.23895141592037	-6.2004706610510
148.85200500488	0.24381407933625	-5.9497189290477
149.85099792480	0.24881885344671	-5.7003192908031
150.85000610352	0.25397260776918	-5.4522307866426
151.84899902344	0.25926796391178	-5.2054256765628
152.84800720215	0.26470476073155	-4.9598635520231
153.84700012207	0.27029337149337	-4.7155025896358
154.84599304199	0.27602168694218	-4.4723189484400
155.84500122070	0.28189420855573	-4.2302641856279
156.84399414063	0.28790839567466	-3.9893181558478
157.84300231934	0.29406395927201	-3.7494260194168
158.84199523926	0.30035821912788	-3.5105739166403
159.84100341797	0.30679018237925	-3.2727139703035
160.83999633789	0.31336040121357	-3.0358149718698
161.83900451660	0.32006720818479	-2.7998482029624
162.83799743652	0.32690550075396	-2.5647706340330
163.83700561523	0.33387898326280	-2.3305659765663
164.83599853516	0.34098142504176	-2.0971740214915
165.83500671387	0.34821849372787	-1.8645784156556
166.83399963379	0.35558605963062	-1.6327506657638
167.83299255371	0.36308212681196	-1.4016438892926
168.83200073242	0.37071181754465	-1.1712298806596
169.83099365234	0.37847397234353	-0.94147473737202
170.83000183105	0.38636813094344	-0.71235053710735
171.82899475098	0.39439525043897	-0.48381153355537
172.82800292969	0.40255948932057	-0.25583638062355
173.82699584961	0.41086783027599	-0.028397513997875
174.82600402832	0.41931299699670	0.19855616689855
175.82499694824	0.42790661748720	0.42504585291172
176.82400512695	0.43664783494635	0.65109854884571
177.82299804688	0.44554425998144	0.87674714540850
178.82200622559	0.45459806408408	1.1020304305099
179.82099914551	0.46381760453584	1.3269691564363
180.82000732422	0.47320424492825	1.5515958444618
181.81900024414	0.48277199596666	1.7759494178473
182.81799316406	0.49251924699484	2.0000441974933
183.81700134277	0.50245552382098	2.2239243679834
184.81599426270	0.51259069777063	2.4476047969020
185.81500244141	0.52292824124699	2.6711179659287
186.81399536133	0.53347795036306	2.8944897674892
187.81300354004	0.54424687448597	3.1177534403891
188.81199645996	0.55524484354129	3.3409286691743
189.81100463867	0.56647912518222	3.5640418965268
190.80999755859	0.57795357923577	3.7871195826563
191.80900573730	0.58968713964125	4.0101890807829
192.80799865723	0.60167661714599	4.2332691454928
193.80700683594	0.61393794600856	4.4563933944521
194.80599975586	0.62647572339885	4.6795700078494
195.80499267578	0.63930344983144	4.9028437924544
196.80400085449	0.65242052879283	5.1262167272085
197.80299377441	0.66584252336763	5.3497211959175
198.80200195313	0.67957794233771	5.5733913924291
199.80099487305	0.69363010094294	5.7972408053407
200.80000305176	0.70800698776859	6.0212776127724
201.79899597168	0.72272323115619	6.2455493955417
202.79800415039	0.73777944656209	6.4700679308076
203.79699707031	0.75318806436146	6.6948561071335
204.79600524902	0.76895081682035	6.9199346671337
205.79499816895	0.78508705814374	7.1453310824956
206.79400634766	0.80158589835704	7.3710645945497
207.79299926758	0.81847332983889	7.5971678087346
208.79200744629	0.83574914769779	7.8236570378900
209.79100036621	0.85341630321803	8.0505495364987
210.78999328613	0.87149189726038	8.2778806818780
211.78900146484	0.88997797602877	8.5056756530978
212.78799438477	0.90888238861416	8.7339525825766
213.78700256348	0.92821576676861	8.9627460936714
214.78599548340	0.94798434186065	9.1920702243468
215.78500366211	0.96819742751153	9.4219634183564
216.78399658203	0.98886584794708	9.6524464709087
217.78300476074	1.0099979018866	9.8835473417708
218.78199768066	1.0316075142038	10.115293289317
219.78100585938	1.0536958254022	10.347721718102
220.77999877930	1.0762769369238	10.580843450379
221.77900695801	1.0993666007558	10.814707605227
222.77799987793	1.1229690739619	11.049328910662
223.77699279785	1.1471087446370	11.284745862512
224.77600097656	1.1717889414644	11.520980950533
225.77499389648	1.1970248746005	11.758081800324
226.77400207520	1.2228270291753	11.996060882290
227.77299499512	1.2492200839077	12.234959272848
228.77200317383	1.2762146346628	12.474806488978
229.77099609375	1.3038237739939	12.715642419439
230.77000427246	1.3320727348342	12.957495489014
231.76899719238	1.3609736194199	13.200395487063
232.76800537109	1.3905443581574	13.444373187443
233.76699829102	1.4208094029158	13.689476529195
234.76600646973	1.4517879532528	13.935733272116
235.76499938965	1.4834954362363	14.183172579592
236.76400756836	1.5159641366604	14.431833478764
237.76300048828	1.5492082433884	14.681760270559
238.76199340820	1.5832579967074	14.932975958042
239.76100158691	1.6181298328308	15.185511757412
240.75999450684	1.6538566718716	15.439422750418
241.75900268555	1.6904579097005	15.694729687076
242.75799560547	1.7279739779851	15.951480542590
243.75700378418	1.7664203265582	16.209703436183
244.75599670410	1.8058279301570	16.469439943836
245.75500488281	1.8462291780444	16.730722960088
246.75399780273	1.8876523208105	16.993611805837
247.75300598145	1.9301315599251	17.258111915420
248.75199890137	1.9736969887785	17.524288196452
249.75100708008	2.0183828106784	17.792169759073
250.75000000000	2.0642251400928	18.061792261473
251.74899291992	2.1112640554895	18.333218568271
252.74800109863	2.1595254291280	18.606459438383
253.74699401855	2.2090524312464	18.881579779072
254.74600219727	2.2598797014210	19.158617534905
255.74499511719	2.3120528820544	19.437600982245
256.74398803711	2.3656075572720	19.718599270355
257.74301147461	2.4205902130063	20.001635340335
258.74200439453	2.4770432784200	20.286768772787
259.74099731445	2.5350107115457	20.574041221631
260.73999023438	2.5945394126072	20.863492128475
261.73901367188	2.6556774654346	21.155191352992
262.73800659180	2.7184801731874	21.449166233969
263.73699951172	2.7829795993107	21.745480392120
264.73599243164	2.8492503698719	22.044169096280
265.73498535156	2.9173362474542	22.345311508296
266.73400878906	2.9872997091417	22.648942180426
267.73300170898	3.0591917170892	22.955111398706
268.73199462891	3.1330786149999	23.263897545641
269.73098754883	3.2090294918220	23.575332303122
270.73001098633	3.2870998580838	23.889497385373
271.72900390625	3.3673617573879	24.206426168667
272.72799682617	3.4498911424079	24.526211126126
273.72698974609	3.5347556894189	24.848894649103
274.72601318359	3.6220354778161	25.174538312623
275.72500610352	3.7118170617435	25.503220423302
276.72399902344	3.8041711815682	25.834989065660
277.72299194336	3.8991915412127	26.169925583165
278.72198486328	3.9969746199285	26.508096549612
279.72100830078	4.0976036901544	26.849563254537
280.72000122070	4.2011878061566	27.194407579875
281.71899414063	4.3078276973156	27.542705562426
282.71798706055	4.4176290137134	27.894514374808
283.71701049805	4.5306965888825	28.249916317195
284.71600341797	4.6471587181268	28.608992445323
285.71499633789	4.7671341111932	28.971821751840
286.71398925781	4.8907444959961	29.338457975539
287.71301269531	5.0181327995119	29.709013433012
288.71200561523	5.1494282787018	30.083549614148
289.71099853516	5.2847756452317	30.462139473633
290.70999145508	5.4243339299091	30.844893231035
291.70901489258	5.5682508188314	31.231863651869
292.70800781250	5.7166955419744	31.623146460038
293.70700073242	5.8698327551473	32.018824924867
294.70599365234	6.0278521235331	32.418979245376
295.70498657227	6.1909359432183	32.823709061284
296.70401000977	6.3592818036050	33.233087055359
297.70300292969	6.5330881047102	33.647197463471
298.70199584961	6.7125679743494	34.066124203936
299.70098876953	6.8979444907201	34.489962847088
300.70001220703	7.0894487470802	34.918787730688
301.69900512695	7.2873224929988	35.352677027563
302.69799804688	7.4918270277337	35.791736057111
303.69699096680	7.7032127541085	36.236029317699
304.69601440430	7.9217678370491	36.685644944531
305.69500732422	8.1477729511757	37.140663846549
306.69400024414	8.3815304722071	37.601153484038
307.69299316406	8.6233524222602	38.067193143942
308.69198608398	8.8735805680899	38.538875956919
309.69100952148	9.1325490026430	39.016257525212
310.69000244141	9.4006187531348	39.499393805169
311.68899536133	9.6781659901227	39.988349150132
312.68798828125	9.9655899944195	40.483198457072
313.68701171875	10.263291338327	40.983987350900
314.68600463867	10.571714200791	41.490756362795
315.68499755859	10.891299045234	42.003555647243
316.68399047852	11.222518418613	42.522401460603
317.68301391602	11.565879416884	43.047340713260
318.68200683594	11.921878618399	43.578365383864
319.68099975586	12.291067713892	44.115488303830
320.67999267578	12.674011219637	44.658701107898
321.67898559570	13.071288082779	45.207985590786
322.67800903320	13.483543605714	45.763293766355
323.67700195313	13.911398711240	46.324575071836
324.67599487305	14.355544191393	46.891757500559
325.67498779297	14.816676249646	47.464743090404
326.67401123047	15.295544017487	48.043401222862
327.67300415039	15.792924879303	48.627623080351
328.67199707031	16.309613421809	49.217202514088
329.67098999023	16.846457310365	49.811941992558
330.67001342773	17.404347898867	50.411628958376
331.66900634766	17.984187016688	51.015944968920
332.66799926758	18.586940050595	51.624592465668
333.66699218750	19.213601441886	52.237215953493
334.66598510742	19.865205731997	52.853367233557
335.66500854492	20.542846786101	53.472594490695
336.66400146484	21.247617837525	54.094344596914
337.66299438477	21.980699979956	54.718030068826
338.66198730469	22.743280208911	55.342955208523
339.66101074219	23.536618070011	55.968370214971
340.66000366211	24.361981292087	56.593399751411
341.65899658203	25.220695969219	57.217130088143
342.65798950195	26.114117421712	57.838479887451
343.65701293945	27.043620298142	58.456285965945
344.65600585938	28.010630047208	59.069258448362
345.65499877930	29.016591561917	59.675951685146
346.65399169922	30.062947284158	60.274805792286
347.65301513672	31.151182870125	60.864085964210
348.65200805664	32.282753947919	61.441857596639
349.65100097656	33.459117628729	62.006080433828
350.64999389648	34.681724044815	62.554426467654
351.64898681641	35.951976919628	63.084403349660
352.64801025391	37.271227193235	63.593334278575
353.64700317383	38.640751802296	64.078248901881
354.64599609375	40.061739445176	64.535939899969
355.64498901367	41.535265328645	64.962972064698
356.64401245117	43.062268597419	65.355640830357
357.64300537109	44.643478456965	65.709914841015
358.64199829102	46.279448501226	66.021568294910
359.64099121094	47.970464854343	66.285995991008
360.64001464844	49.716555105528	66.498403157786
361.63900756836	51.517258592060	66.653592694657
362.63800048828	53.372003571571	66.746258531804
363.63699340820	55.279522592785	66.770700662202
364.63598632813	57.238230640348	66.721107755804
365.63500976563	59.245812375752	66.591333102044
366.63400268555	61.299537028936	66.375253764758
367.63299560547	63.395881396844	66.066487918312
368.63198852539	65.530608816177	65.658694337608
369.63101196289	67.698867013651	65.145575761225
370.63000488281	69.894769572655	64.520916360200
371.62899780273	72.111728223384	63.778776887921
372.62799072266	74.342227508646	62.913514079198
373.62701416016	76.577913127731	61.919992968054
374.62600708008	78.809525091213	60.793616607636
375.62500000000	81.027054263408	59.530571513492
376.62399291992	83.219450701158	58.127900275719
377.62298583984	85.375316329629	56.583678792437
378.62200927734	87.482349184220	54.897115130629
379.62100219727	89.527995863366	53.068715793285
380.61999511719	91.499146909167	51.100422996796
381.61898803711	93.382756975072	48.995618635524
382.61801147461	95.165777824047	46.759234611273
383.61700439453	96.835465840437	44.397838009950
384.61599731445	98.379600451405	41.919515917919
385.61499023438	99.786716840581	39.333901886062
386.61401367188	101.04635566593	36.652061387422
387.61300659180	102.14926308503	33.886364015056
388.61199951172	103.08760347371	31.050315485138
389.61099243164	103.85510236560	28.158335760455
390.60998535156	104.44720768431	25.225545474495
391.60900878906	104.86115036774	22.267505943266
392.60800170898	105.09602479495	19.299959246330
393.60699462891	105.15271746882	16.338529315779
394.60598754883	105.03391603673	13.398493754882
395.60501098633	104.74399647649	10.494533222205
396.60400390625	104.28888749732	7.6404956234970
397.60299682617	103.67589814997	4.8492248749079
398.60198974609	102.91355448409	2.1323924312151
399.60101318359	102.01137413965	-0.49961369158846
400.60000610352	100.97964876582	-3.0377668895306
