#Parameters = {C=5e-15; L=3e-08; a=4000; eps_eff=6; r_i=70; r_o=90; t=0.1}
#"Frequency / GHz"	"Z1,1 [Real/Imaginary Part] [Re]"	"Z1,1 [Real/Imaginary Part] [Im]"
#-------------------------------------------------------------------------------------
1.0000000000000	5.3369568809109	-3240.6137947301
2.4990000724792	1.2275820879913	-1296.1649166137
3.9979999065399	0.75169963272098	-809.48566848812
5.4970002174377	0.60724724302774	-588.00097920143
6.9959998130798	0.54456330546297	-461.24472588921
8.4949998855591	0.51152660880579	-379.07032465063
9.9940004348755	0.49160805463735	-321.41718168918
11.493000030518	0.47840350677680	-278.69039016690
12.991999626160	0.46892106086975	-245.72317837003
14.491000175476	0.46171515374308	-219.48668787040
15.989999771118	0.45588275269771	-198.08782281874
17.489000320435	0.45091007073104	-180.28246814591
18.988000869751	0.44659261884777	-165.21941451998
20.486999511719	0.44266121738387	-152.29644285978
21.986000061035	0.43900671393554	-141.07570136771
23.485000610352	0.43558540201096	-131.23101636493
24.983999252319	0.43229650470581	-122.51453760298
26.482999801636	0.42914843732209	-114.73450365249
27.982000350952	0.42609033060458	-107.74018774088
29.481000900269	0.42316232179910	-101.41156975693
30.979999542236	0.42027376469995	-95.651833966567
32.479000091553	0.41751239690297	-90.382012564494
33.978000640869	0.41483107183746	-85.537073335938
35.477001190186	0.41225440963525	-81.062967900941
36.976001739502	0.40979518564250	-76.914400606171
38.474998474121	0.40746447461696	-73.053122951884
39.973999023438	0.40526874768572	-69.446623343289
41.472999572754	0.40322707972440	-66.067087394621
42.972000122070	0.40136886060298	-62.890574639745
44.471000671387	0.39969690323818	-59.896323878926
45.970001220703	0.39823438471403	-57.066322537092
47.469001770020	0.39700201585273	-54.384855122851
48.967998504639	0.39602322164320	-51.838031543805
50.466999053955	0.39531656320571	-49.413629267092
51.965999603271	0.39490786713864	-47.100889475654
53.465000152588	0.39482345794664	-44.890244229083
54.964000701904	0.39507797559826	-42.773055601242
56.463001251221	0.39570911727633	-40.741772482510
57.962001800537	0.39674234535947	-38.789442680354
59.460998535156	0.39820772048603	-36.909882843408
60.959999084473	0.40013149056183	-35.097568846604
62.458999633789	0.40253994515967	-33.347411476225
63.958000183105	0.40547781140068	-31.654831105441
65.457000732422	0.40897220788434	-30.015668108042
66.956001281738	0.41306068352444	-28.426086058151
68.455001831055	0.41778192244200	-26.882632282602
69.954002380371	0.42317055524980	-25.382109314122
71.453002929688	0.42926850276877	-23.921577013094
72.952003479004	0.43611822369476	-22.498373623116
74.450996398926	0.44375875829010	-21.110003796790
75.949996948242	0.45224816073835	-19.754160749416
77.448997497559	0.46161692056036	-18.428742072105
78.947998046875	0.47192981661201	-17.131782599691
80.446998596191	0.48322551209281	-15.861438763024
81.945999145508	0.49556242300898	-14.616022118982
83.444999694824	0.50899420975284	-13.393947715205
84.944000244141	0.52357588707864	-12.193728991001
86.443000793457	0.53936672378743	-11.013991444612
87.942001342773	0.55643323079124	-9.8534447391207
89.441001892090	0.57483333598991	-8.7108586591127
90.940002441406	0.59463055579446	-7.5851014476202
92.439002990723	0.61589798146829	-6.4750936614122
93.938003540039	0.63869900245813	-5.3798349143760
95.436996459961	0.66311175370907	-4.2983533194044
96.935997009277	0.68921072310349	-3.2297490422386
98.434997558594	0.71707596500265	-2.1731673986632
99.933998107910	0.74678378660606	-1.1277989869768
101.43299865723	0.77842118025262	-0.092861696248022
102.93199920654	0.81207500070739	0.93236866569592
104.43099975586	0.84784148975195	1.9486084099976
105.93000030518	0.88580749748918	2.9565088565537
107.42900085449	0.92607496262883	3.9567300868484
108.92800140381	0.96874922667498	4.9498608946824
110.42700195313	1.0139367196935	5.9365216391504
111.92600250244	1.0617507722925	6.9172479915513
113.42500305176	1.1123059328421	7.8926028077681
114.92400360107	1.1657314804237	8.8631086912816
116.42299652100	1.2221513564735	9.8292820041678
117.92199707031	1.2817029285449	10.791598852355
119.42099761963	1.3445225737491	11.750543524221
120.91999816895	1.4107674447763	12.706582074950
122.41899871826	1.4805940233991	13.660157588748
123.91799926758	1.5541636495625	14.611719260723
125.41699981689	1.6316508361306	15.561680223174
126.91600036621	1.7132330219204	16.510463191392
128.41499328613	1.7991076339203	17.458481385564
129.91400146484	1.8894784787064	18.406121280731
131.41299438477	1.9845541305455	19.353792099664
132.91200256348	2.0845553775959	20.301849406598
134.41099548340	2.1897326706713	21.250695829913
135.91000366211	2.3003172408267	22.200690281010
137.40899658203	2.4165879080618	23.152190283390
138.90800476074	2.5388084001738	24.105549872770
140.40699768066	2.6672753356385	25.061129351389
141.90600585938	2.8022980227530	26.019278863810
143.40499877930	2.9441984332763	26.980331490421
144.90400695801	3.0933175930054	27.944614086528
146.40299987793	3.2500150904317	28.912454965721
147.90199279785	3.4146750271088	29.884195595532
149.40100097656	3.5876921890356	30.860116862649
150.89999389648	3.7694975644451	31.840591311927
152.39900207520	3.9605274862158	32.825867188209
153.89799499512	4.1612608574654	33.816286792163
155.39700317383	4.3721893755099	34.812133413634
156.89599609375	4.5938411769315	35.813678467062
158.39500427246	4.8267687790398	36.821222665454
159.89399719238	5.0715573074067	37.835026333676
161.39300537109	5.3288223609991	38.855348569275
162.89199829102	5.5992245376606	39.882444614363
164.39100646973	5.8834545044067	40.916576744272
165.88999938965	6.1822369761371	41.957934587075
167.38900756836	6.4963501385861	43.006733115523
168.88800048828	6.8266023917275	44.063172931410
170.38699340820	7.1738658802193	45.127432983962
171.88600158691	7.5390518166792	46.199676806435
173.38499450684	7.9231264117422	47.279996671465
174.88400268555	8.3271080043902	48.368505648661
176.38299560547	8.7520758345156	49.465262382961
177.88200378418	9.1991678927763	50.570268342190
179.38099670410	9.6695874579574	51.683533158773
180.88000488281	10.164611922836	52.804973949883
182.37899780273	10.685576953926	53.934510485137
183.87800598145	11.233882446341	55.071877362341
185.37699890137	11.811017206037	56.216846784354
186.87600708008	12.418551247415	57.369117909502
188.37500000000	13.058115863854	58.528233083633
189.87399291992	13.731436026938	59.693721751769
191.37300109863	14.440296761885	60.864845144991
192.87199401855	15.186602377416	62.040971703926
194.37100219727	15.972304499495	63.221149205835
195.86999511719	16.799440462517	64.404362597329
197.36900329590	17.670108239985	65.589352262025
198.86799621582	18.586511884478	66.774769970162
200.36700439453	19.550887916079	67.958978409687
201.86599731445	20.565568469077	69.140196662540
203.36500549316	21.632865764685	70.316303883119
204.86399841309	22.755189888212	71.484986798686
206.36300659180	23.934926500922	72.643594870940
207.86199951172	25.174491902436	73.789180425078
209.36099243164	26.476233137063	74.918438488148
210.86000061035	27.842457565647	76.027717685040
212.35899353027	29.275372945199	77.112953039407
213.85800170898	30.777077642719	78.169657312333
215.35699462891	32.349433402991	79.192897590760
216.85600280762	33.994118281458	80.177328775372
218.35499572754	35.712489141138	81.117085801729
219.85400390625	37.505538373994	82.005838863342
221.35299682617	39.373809640337	82.836773271248
222.85200500488	41.317303778458	83.602579663328
224.35099792480	43.335437490542	84.295512927443
225.85000610352	45.426883196465	84.907394637125
227.34899902344	47.589475354499	85.429670540136
228.84800720215	49.820165305461	85.853459188690
230.34700012207	52.114844934491	86.169737497094
231.84599304199	54.468269379718	86.369233214793
233.34500122070	56.874004028184	86.442838650335
234.84399414063	59.324284849577	86.381579207816
236.34300231934	61.810038255555	86.176818358990
237.84199523926	64.320756003562	85.820556667652
239.34100341797	66.844571849437	85.305548503380
240.83999633789	69.368298147494	84.625645475653
242.33900451660	71.877438223174	83.775992254392
243.83799743652	74.356444636671	82.753209076336
245.33700561523	76.788793915645	81.555795859917
246.83599853516	79.157277224101	80.184189262549
248.33500671387	81.444291621801	78.640968134263
249.83399963379	83.632168294959	76.931019896375
251.33299255371	85.703500960794	75.061625620664
252.83200073242	87.641569869809	73.042347615146
254.33099365234	89.430753618572	70.885069453181
255.83000183105	91.056838970440	68.603751848019
257.32901000977	92.507420561669	66.214258802584
258.82800292969	93.772181184508	63.734044730685
260.32699584961	94.843162354421	61.181767699182
261.82598876953	95.714886532970	58.576959029192
263.32501220703	96.384480852947	55.939536511481
264.82400512695	96.851656617123	53.289397507526
266.32299804688	97.118652285729	50.646038682183
267.82199096680	97.190084842521	48.028171800177
269.32101440430	97.072717604706	45.453350443458
270.82000732422	96.775212496938	42.937726323363
272.31900024414	96.307836928459	40.495821829732
273.81799316406	95.682102524102	38.140381425022
275.31698608398	94.910509427420	35.882278936039
276.81600952148	94.006191496046	33.730514128610
278.31500244141	92.982607779148	31.692208660530
279.81399536133	91.853302563425	29.772692841838
281.31298828125	90.631672649901	27.975633493329
282.81201171875	89.330707434398	26.303122155051
284.31100463867	87.962897626422	24.755885841276
285.80999755859	86.540080130774	23.333405970823
287.30899047852	85.073327379595	22.034123764484
288.80801391602	83.572899674545	20.855558925274
290.30700683594	82.048220693497	19.794514601428
291.80599975586	80.507849566966	18.847198099474
293.30499267578	78.959481315837	18.009351991467
294.80398559570	77.410003319543	17.276397197490
296.30300903320	75.865494489758	16.643514494417
297.80200195313	74.331291709106	16.105760099733
299.30099487305	72.812013798623	15.658123080835
300.79998779297	71.311649942663	15.295609953878
302.29901123047	69.833578527957	15.013285841307
303.79800415039	68.380643228407	14.806326782295
305.29699707031	66.955189060824	14.670044255202
306.79598999023	65.559134461817	14.599919851912
308.29501342773	64.193995399078	14.591623479638
309.79400634766	62.860963905599	14.641025152165
311.29299926758	61.560891508533	14.744194245382
312.79199218750	60.294405113535	14.897424001971
314.29098510742	59.061878171205	15.097207401451
315.79000854492	57.863487445964	15.340253276653
317.28900146484	56.699244282986	15.623476449535
318.78799438477	55.569014360765	15.943988330802
320.28698730469	54.472552364832	16.299096487386
321.78601074219	53.409497256868	16.686286764222
323.28500366211	52.379407807257	17.103226724245
324.78399658203	51.381780592892	17.547748291294
326.28298950195	50.416064699844	18.017845098036
327.78201293945	49.481654212993	18.511651342969
329.28100585938	48.577917940420	19.027445781621
330.77999877930	47.704211444524	19.563645221623
332.27899169922	46.859864870769	20.118777189685
333.77801513672	46.044201218133	20.691490583659
335.27700805664	45.256554062733	21.280540417295
336.77600097656	44.496253768442	21.884784539816
338.27499389648	43.762630552052	22.503166812011
339.77398681641	43.055039079491	23.134718511213
341.27301025391	42.372837145837	23.778549997904
342.77200317383	41.715407194428	24.433850444352
344.27099609375	41.082152559688	25.099877214580
345.76998901367	40.472484812561	25.775938052545
347.26901245117	39.885842221385	26.461413564865
348.76800537109	39.321685931823	27.155727574681
350.26699829102	38.779515175650	27.858358413999
351.76599121094	38.258825910063	28.568831305141
353.26501464844	37.759151707358	29.286706798748
354.76400756836	37.280056068642	30.011591767423
356.26300048828	36.821111593633	30.743114045591
357.76199340820	36.381937855881	31.480959359286
359.26098632813	35.962166180361	32.224816224630
360.76000976563	35.561439744792	32.974402344706
362.25900268555	35.179450840999	33.729484340467
363.75799560547	34.815899137646	34.489814008868
365.25698852539	34.470523431853	35.255206334160
366.75601196289	34.143065003415	36.025453901920
368.25500488281	33.833302428892	36.800387168873
369.75399780273	33.541036398374	37.579841379499
371.25299072266	33.266098202445	38.363680801040
372.75201416016	33.008317601787	39.151747149389
374.25100708008	32.767571654892	39.943928492784
375.75000000000	32.543752231057	40.740104718780
377.24899291992	32.336758999828	41.540150765320
378.74798583984	32.146546065440	42.343972187442
380.24700927734	31.973054086579	43.151456593572
381.74600219727	31.816258225325	43.962503522550
383.24499511719	31.676167804058	44.777012235381
384.74398803711	31.552792202201	45.594882111855
386.24301147461	31.446178566602	46.416010275625
387.74200439453	31.356381891619	47.240294706042
389.24099731445	31.283483059281	48.067625734160
390.73999023438	31.227579745160	48.897882652559
392.23901367188	31.188810838722	49.730960084355
393.73800659180	31.167291506544	50.566705600016
395.23699951172	31.163211870034	51.405009432638
396.73599243164	31.176722390412	52.245701199797
398.23498535156	31.208048922120	53.088626980238
399.73400878906	31.257391487714	53.933623148124
401.23300170898	31.325002892807	54.780490715828
402.73199462891	31.411135634594	55.629018219557
404.23098754883	31.516052944022	56.479003866940
405.73001098633	31.640053228633	57.330163423934
407.22900390625	31.783455830309	58.182263095594
408.72799682617	31.946563375904	59.034994353783
410.22698974609	32.129727066255	59.888056765734
411.72601318359	32.333299110465	60.741080924399
413.22500610352	32.557635613244	61.593684304772
414.72399902344	32.803135250819	62.445484181911
416.22299194336	33.070171410526	63.296036572719
417.72198486328	33.359136976923	64.144838054771
419.22100830078	33.670445587330	64.991363536637
420.72000122070	34.004504873073	65.835087777477
422.21899414063	34.361723963610	66.675367786608
423.71798706055	34.742512568088	67.511562872504
425.21701049805	35.147285864923	68.342990609453
426.71600341797	35.576457309353	69.168878807233
428.21499633789	36.030382532733	69.988431973520
429.71398925781	36.509488414718	70.800768597952
431.21301269531	37.014114493102	71.605005601313
432.71200561523	37.544592811246	72.400132459967
434.21099853516	38.101258362821	73.185122044601
435.70999145508	38.684379794146	73.958893669726
437.20901489258	39.294221854067	74.720258918322
438.70800781250	39.930977139572	75.468025989991
440.20700073242	40.594784820190	76.200834531754
441.70599365234	41.285748531185	76.917393583444
443.20498657227	42.003904201619	77.616249350316
444.70401000977	42.749203705225	78.295940632112
446.20300292969	43.521513861224	78.954900768428
447.70199584961	44.320644629368	79.591570890858
449.20098876953	45.146256049064	80.204232852353
450.70001220703	45.997940817747	80.791236964388
452.19900512695	46.875183600267	81.350816268843
453.69799804688	47.777305004212	81.881214253516
455.19699096680	48.703519321071	82.380585381559
456.69601440430	49.652911505466	82.847109497070
458.19500732422	50.624395780178	83.278987253882
459.69400024414	51.616712515555	83.674322784313
461.19299316406	52.628489567780	84.031356368105
462.69198608398	53.658156598183	84.348277173336
464.19100952148	54.703959298583	84.623345042368
465.69000244141	55.763995956598	84.854912605132
467.18899536133	56.836166635123	85.041365585941
468.68798828125	57.918214147885	85.181227429500
470.18701171875	59.007687809400	85.273156076812
471.68600463867	60.102011535969	85.315913794540
473.18499755859	61.198381846585	85.308424950529
474.68399047852	62.293905650845	85.249855277371
476.18301391602	63.385561960713	85.139499045875
477.68200683594	64.470148531426	84.976914175970
479.18099975586	65.544446729681	84.761886320548
480.67999267578	66.605086985938	84.494471703988
482.17898559570	67.648676859597	84.174946186739
483.67800903320	68.671806734885	83.803932101333
485.17700195313	69.671057225115	83.382289079420
486.67599487305	70.643024904816	82.911192481785
488.17498779297	71.584400232411	82.392083026355
489.67401123047	72.491905190840	81.826678270348
491.17300415039	73.362463687875	81.217057286112
492.67199707031	74.193081533174	80.565473870611
494.17098999023	74.980977659358	79.874525095717
495.67001342773	75.723595850367	79.146953773837
497.16900634766	76.418568349502	78.385799415606
498.66799926758	77.063822789080	77.594248023637
500.16699218750	77.657535632010	76.775643036019
501.66598510742	78.198191999719	75.933516696018
503.16500854492	78.684567999246	75.071409971598
504.66400146484	79.115752774584	74.193052153889
506.16299438477	79.491132051369	73.302106469445
507.66198730469	79.810432458512	72.402302590196
509.16101074219	80.073641184439	71.497306551242
510.66000366211	80.281104979286	70.590757314860
512.15899658203	80.433413096977	69.686197054555
513.65802001953	80.531419474126	68.787048053418
515.15698242188	80.576252770892	67.896588054432
516.65600585938	80.569263095975	67.017985922279
518.15502929688	80.512019406490	66.154178963814
519.65399169922	80.406263097096	65.307941180354
521.15301513672	80.253928947683	64.481858003274
522.65197753906	80.057055218442	63.678275288504
524.15100097656	79.817813354491	62.899336811065
525.65002441406	79.538495777999	62.147006636714
527.14898681641	79.221390316828	61.422941923383
528.64801025391	78.868920637312	60.728709149377
530.14697265625	78.483482873956	60.065544941828
531.64599609375	78.067476206594	59.434540862245
533.14501953125	77.623347520321	58.836602011815
534.64398193359	77.153458841870	58.272411370010
536.14300537109	76.660151885657	57.742495953804
537.64202880859	76.145754504436	57.247232003695
539.14099121094	75.612466550773	56.786798803063
540.64001464844	75.062493483679	56.361291617225
542.13897705078	74.497873448386	55.970604196368
543.63800048828	73.920676874381	55.614579169032
545.13702392578	73.332759274496	55.292911132093
546.63598632813	72.736046677318	55.005216282212
548.13500976563	72.132185470578	54.751035375398
549.63397216797	71.522784146079	54.529809488101
551.13299560547	70.909519222073	54.340931648589
552.63201904297	70.293785676537	54.183765566317
554.13098144531	69.676973046323	54.057585188886
555.63000488281	69.060325989351	53.961648770969
557.12902832031	68.445017442926	53.895194856315
558.62799072266	67.832237355233	53.857422706177
560.12701416016	67.222936824888	53.847519747278
561.62597656250	66.618092075589	53.864669655869
563.12500000000	66.018600462869	53.908045850370
564.62402343750	65.425267103637	53.976813387218
566.12298583984	64.838780005777	54.070152382059
567.62200927734	64.259849751333	54.187230922613
569.12097167969	63.689138150759	54.327252092354
570.61999511719	63.127147696655	54.489414718130
572.11901855469	62.574408203694	54.672909085940
573.61798095703	62.031433945376	54.877003476449
575.11700439453	61.498619056299	55.100910341894
576.61602783203	60.976325074809	55.343910657665
578.11499023438	60.464955495971	55.605287238386
579.61401367188	59.964730747550	55.884313884086
581.11297607422	59.476034234800	56.180346102068
582.61199951172	58.999028520834	56.492698278998
584.11102294922	58.534017144924	56.820756808924
585.60998535156	58.081142559802	57.163875211370
587.10900878906	57.640613911866	57.521471463082
588.60797119141	57.212628576213	57.892973708514
590.10699462891	56.797280333908	58.277800728747
591.60601806641	56.394727686765	58.675424615447
593.10498046875	56.005092006474	59.085315118812
594.60400390625	55.628426494589	59.506946671627
596.10302734375	55.264889978794	59.939849322224
597.60198974609	54.914572122860	60.383555112939
599.10101318359	54.577471345185	60.837566533339
600.59997558594	54.253779360919	61.301478004061
602.09899902344	53.943469114849	61.774832309996
603.59802246094	53.646635293293	62.257210530651
605.09698486328	53.363360927583	62.748225384555
606.59600830078	53.093671799168	63.247438403057
608.09497070313	52.837644644523	63.754497134777
609.59399414063	52.595311718789	64.269014810702
611.09301757813	52.366738278432	64.790602278165
