#Parameters = {Z=50; a=1000; d=160; eps_eff=6; l=410; t=0.1; w=25}
#"Frequency / GHz"	"Z1,1 [Real/Imaginary Part] [Re]"	"Z1,1 [Real/Imaginary Part] [Im]"
#-------------------------------------------------------------------------------------
1.0000000000000	341.13358610364	-1364.8698381118
1.4989999532700	156.27920340713	-941.05042930766
1.9980000257492	88.476326825989	-714.11614400794
2.4969999790192	56.514442213715	-574.18710133329
2.9960000514984	38.996190198010	-479.58059471692
3.4949998855591	28.381195116830	-411.42440053310
3.9939999580383	21.472281014180	-360.00526722167
4.4930000305176	16.728588237995	-319.83226326761
4.9920001029968	13.333293325355	-287.57376527483
5.4910001754761	10.821520226392	-261.09301491489
5.9899997711182	8.9125281230387	-238.95761575787
6.4889998435974	7.4287255913872	-220.17185429982
6.9879999160767	6.2535089935599	-204.02213917704
7.4869999885559	5.3076766975143	-189.98397502931
7.9860000610352	4.5358509510141	-177.66312108422
8.4849996566772	3.8983957975616	-166.75769623903
8.9840002059937	3.3664109618557	-157.03258843976
9.4829998016357	2.9182741923858	-148.30197610230
9.9820003509521	2.5377606278517	-140.41705757563
10.480999946594	2.2123289199882	-133.25724412625
10.979999542236	1.9322376837744	-126.72391916881
11.479000091553	1.6897898948223	-120.73543993975
11.977999687195	1.4789182352366	-115.22382555035
12.477000236511	1.2946809515296	-110.13193426105
12.975999832153	1.1330962067416	-105.41139448727
13.475000381470	0.99094673187979	-101.02095422979
13.973999977112	0.86550283991077	-96.925274741965
14.472999572754	0.75456645641005	-93.093874535578
14.972000122070	0.65628836058621	-89.500314433223
15.470999717712	0.56909313526994	-86.121596305319
15.970000267029	0.49164939068271	-82.937581067725
16.468999862671	0.42286787594584	-79.930510623624
16.968000411987	0.36176712058838	-77.084797040542
17.466999053955	0.30756390970927	-74.386564445425
17.965999603271	0.25950620733060	-71.823544539224
18.465000152588	0.21701119924060	-69.384706381666
18.964000701904	0.17955846247523	-67.060235643236
19.462999343872	0.14667733079761	-64.841347834957
19.961999893188	0.11796315977842	-62.720011752193
20.461000442505	0.093069150381926	-60.689133680519
20.959999084473	0.071684571933221	-58.742231954629
21.458999633789	0.053534849596240	-56.873373685633
21.958000183105	0.038391664461546	-55.077219396522
22.457000732422	0.026017751510594	-53.348928815002
22.955999374390	0.016243366385995	-51.684031453976
23.454999923706	0.0089000123869397	-50.078413749683
23.954000473022	0.0038279665621375	-48.528376244031
24.452999114990	0.00090340021388572	-47.030474507104
24.951999664307	-1.0159106487145e-06	-45.581563082644
25.451000213623	0.0010078968412771	-44.178720724047
25.950000762939	0.0038401386943269	-42.819252647800
26.448999404907	0.0084046352570339	-41.500686259024
26.947999954224	0.014620151129493	-40.220714510335
27.447000503540	0.022421448222837	-38.977179024524
27.945999145508	0.031745593763775	-37.768151148893
28.444999694824	0.042527043763684	-36.591745700851
28.944000244141	0.054720954409225	-35.446244810645
29.443000793457	0.068274468780259	-34.330064590684
29.941999435425	0.083153355029839	-33.241711828526
30.440999984741	0.099305014755487	-32.179759145034
30.940000534058	0.11670006704158	-31.142933877536
31.438999176025	0.13530550670288	-30.130000101638
31.937999725342	0.15508704181282	-29.139784993151
32.437000274658	0.17601857546819	-28.171247115818
32.936000823975	0.19806992311583	-27.223338874770
33.435001373291	0.22121894201480	-26.295131389424
33.933998107910	0.24543967377801	-25.385721950177
34.432998657227	0.27071514877525	-24.494236948119
34.931999206543	0.29701930276249	-23.619921751754
35.430999755859	0.32433296651583	-22.761981364446
35.930000305176	0.35263375291237	-21.919724818499
36.429000854492	0.38191245037838	-21.092463474575
36.928001403809	0.41213941389783	-20.279572910598
37.426998138428	0.44331031214601	-19.480430430502
37.925998687744	0.47539417866229	-18.694471984350
38.424999237061	0.50838213686391	-17.921139910942
38.923999786377	0.54225657062103	-17.159912490731
39.423000335693	0.57699578204369	-16.410296916536
39.922000885010	0.61258988395262	-15.671830454676
40.421001434326	0.64901533165030	-14.944044560709
40.919998168945	0.68625965111794	-14.226510152091
41.418998718262	0.72430024052915	-13.518822356013
41.917999267578	0.76312295438432	-12.820575207652
42.416999816895	0.80271337630531	-12.131393783925
42.916000366211	0.84305149407443	-11.450917897380
43.415000915527	0.88411944483573	-10.778788640924
43.914001464844	0.92589863162038	-10.114671337074
44.412998199463	0.96837175140307	-9.4582348670505
44.911998748779	1.0115278606065	-8.8091714574734
45.410999298096	1.0553427934886	-8.1671666916638
45.909999847412	1.0997988003029	-7.5319282756349
46.409000396729	1.1448855109797	-6.9031737708316
46.908000946045	1.1905789575506	-6.2806084430674
47.407001495361	1.2368709749276	-5.6639733385764
47.905998229980	1.2837407776768	-5.0529909755278
48.404998779297	1.3311770875334	-4.4474076245445
48.903999328613	1.3791631455936	-3.8469671141566
49.402999877930	1.4276967308359	-3.2514109470932
49.902000427246	1.4767559668969	-2.6604929452573
50.401000976563	1.5263406696708	-2.0739766299871
50.900001525879	1.5764394931558	-1.4916136522811
51.398998260498	1.6270516258236	-0.91316928073090
51.897998809814	1.6781678772941	-0.33842010811095
52.396999359131	1.7297973097530	0.23289223730874
52.895999908447	1.7819329823246	0.80097929497138
53.395000457764	1.8345918953027	1.3660839325822
53.894001007080	1.8877776655252	1.9284318696713
54.393001556396	1.9415027894873	2.4882449750413
54.891998291016	1.9957897628543	3.0457592376259
55.390998840332	2.0506555103248	3.6011950102405
55.889999389648	2.1061312123873	4.1547841356727
56.388999938965	2.1622485406908	4.7067581078855
56.888000488281	2.2190401882895	5.2573368998259
57.387001037598	2.2765498448724	5.8067497699557
57.886001586914	2.3348308079305	6.3552253994550
58.384998321533	2.3939283795733	6.9029893793888
58.883998870850	2.4539151392692	7.4502690891620
59.382999420166	2.5148611494115	7.9972983968343
59.881999969482	2.5768295710540	8.5442977988836
60.381000518799	2.6399176669464	9.0915098259736
60.880001068115	2.7042063051455	9.6391410340911
61.379001617432	2.7698011541005	10.187441770311
61.877998352051	2.8368123090321	10.736635353190
62.376998901367	2.9053597583352	11.286939150097
62.875999450684	2.9755646594919	11.838599679515
63.375000000000	3.0475698015133	12.391832130995
63.874000549316	3.1215212843884	12.946885071938
64.373001098633	3.1975790254604	13.503958096779
64.872001647949	3.2759123890271	14.063307831224
65.371002197266	3.3567037542162	14.625140999535
65.870002746582	3.4401388595619	15.189684854900
66.369003295898	3.5264365792536	15.757174630089
66.867996215820	3.6158075842895	16.327830026085
67.366996765137	3.7084800507257	16.901859246422
67.865997314453	3.8047016232964	17.479509459679
68.364997863770	3.9047415283431	18.060978349379
68.863998413086	4.0088702444924	18.646485463061
69.362998962402	4.1173770057773	19.236246577922
69.861999511719	4.2305753332704	19.830476586638
70.361000061035	4.3487782100884	20.429363613335
70.860000610352	4.4723402810871	21.033120108596
71.359001159668	4.6016246985758	21.641956692229
71.858001708984	4.7370045489164	22.256045505594
72.357002258301	4.8788884850320	22.875600122398
72.856002807617	5.0276972470494	23.500753057269
73.355003356934	5.1838807228554	24.131732927761
73.853996276855	5.3479061039160	24.768672876267
74.352996826172	5.5202741369487	25.411748771973
74.851997375488	5.7015022304617	26.061092136433
75.350997924805	5.8921411384882	26.716824170649
75.849998474121	6.0927744518866	27.379105464912
76.348999023438	6.3040010265084	28.047997958879
76.847999572754	6.5264728066856	28.723643763541
77.347000122070	6.7608546770134	29.406049809347
77.846000671387	7.0078660585900	30.095336886827
78.345001220703	7.2682402325363	30.791476640149
78.844001770020	7.5427714634703	31.494487255294
79.343002319336	7.8322744164295	32.204347447864
79.842002868652	8.1376259082125	32.921008039601
80.341003417969	8.4597179100777	33.644342437860
80.839996337891	8.7995085548446	34.374219429708
81.338996887207	9.1579998256107	35.110462739943
81.837997436523	9.5362258641637	35.852811084368
82.336997985840	9.9352839935526	36.600999351244
82.835998535156	10.356311104263	37.354655854696
83.334999084473	10.800496529390	38.113343374220
83.833999633789	11.269076500333	38.876551722331
84.333000183105	11.763329412850	39.643686440822
84.832000732422	12.284578563845	40.414051371959
85.331001281738	12.834208243470	41.186834845189
85.830001831055	13.413626243353	41.961141918759
86.329002380371	14.024282102433	42.735909352959
86.828002929688	14.667652379685	43.509945477474
87.327003479004	15.345240435583	44.281908149778
87.825996398926	16.058569015665	45.050294967438
88.324996948242	16.809157430545	45.813410088228
88.823997497559	17.598519445717	46.569357924667
89.322998046875	18.428139405645	47.316042928371
89.821998596191	19.299459526731	48.051141900949
90.320999145508	20.213865297901	48.772100307590
90.819999694824	21.172646898867	49.476086745238
91.319000244141	22.176956028358	50.160027018826
91.818000793457	23.227832752375	50.820583089308
92.317001342773	24.326094812820	51.454137380325
92.816001892090	25.472347179067	52.056747907537
93.315002441406	26.666904345281	52.624237024389
93.814002990723	27.909771118589	53.152150786950
94.313003540039	29.200575875157	53.635742838849
94.811996459961	30.538531261964	54.070076003775
95.310997009277	31.922334891688	54.449961925765
95.809997558594	33.350147496539	54.770063105829
96.308998107910	34.819546157296	55.024948820691
96.807998657227	36.327443743401	55.209094045650
97.306999206543	37.870050647467	55.317040442882
97.805999755859	39.442865341708	55.343443572508
98.305000305176	41.040587926914	55.283149826437
98.804000854492	42.657159143660	55.131412226882
99.303001403809	44.285744617110	54.883818509242
99.802001953125	45.918750997158	54.536676406195
100.30100250244	47.547904832277	54.086924981542
100.80000305176	49.164290335748	53.532370379717
101.29900360107	50.758464187707	52.871821844216
101.79799652100	52.320605726686	52.105127871272
102.29699707031	53.840608618126	51.233334991089
102.79599761963	55.308324231452	50.258734764213
103.29499816895	56.713681543666	49.184895543726
103.79399871826	58.046943510510	48.016661849817
104.29299926758	59.298859929775	46.760137142760
104.79199981689	60.460906172915	45.422613655739
105.29100036621	61.525446508404	44.012449503004
105.79000091553	62.485886197238	42.538920089604
106.28900146484	63.336864169104	41.012094204927
106.78800201416	64.074282190999	39.442585272097
107.28700256348	64.695413655050	37.841361312521
107.78600311279	65.198916986156	36.219531083197
108.28500366211	65.584834814428	34.588155613271
108.78399658203	65.854524738686	32.957992009974
109.28299713135	66.010563299048	31.339344505180
109.78199768066	66.056647784590	29.741903483819
110.28099822998	65.997486460412	28.174602801308
110.77999877930	65.838575438927	26.645517853177
111.27899932861	65.586107548816	25.161788527411
111.77799987793	65.246792941535	23.729597223282
112.27700042725	64.827676456665	22.354127346072
112.77600097656	64.336009044228	21.039593235261
113.27500152588	63.779128364847	19.789281624420
113.77400207520	63.164311461324	18.605574561915
114.27300262451	62.498685547041	17.490036298927
114.77200317383	61.789134749144	16.443480978488
115.27100372314	61.042249146056	15.466053861040
115.76999664307	60.264241657093	14.557302152993
116.26899719238	59.460939343324	13.716265236906
116.76799774170	58.637738884966	12.941552273737
117.26699829102	57.799611099462	12.231414371895
117.76599884033	56.951087587875	11.583818854673
118.26499938965	56.096262884757	10.996504020961
118.76399993896	55.238820624385	10.467047151999
119.26300048828	54.382034412093	9.9929041793876
119.76200103760	53.528800892259	9.5714586728316
120.26100158691	52.681661520527	9.2000636756582
120.76000213623	51.842818832070	8.8760642133544
121.25900268555	51.014168353188	8.5968343643132
121.75800323486	50.197328119668	8.3597911299618
122.25700378418	49.393654112643	8.1624138075192
122.75599670410	48.604271925300	8.0022599717777
123.25499725342	47.830095511925	7.8769760695210
123.75399780273	47.071853105275	7.7843015378242
124.25299835205	46.330106604915	7.7220757482172
124.75199890137	45.605268367502	7.6882440464103
125.25099945068	44.897621032664	7.6808551229071
125.75000000000	44.207332690887	7.6980617061516
126.24900054932	43.534473071064	7.7381245913519
126.74800109863	42.879018416828	7.7994000841213
127.24700164795	42.240883097313	7.8803491576736
127.74600219727	41.619905320845	7.9795304153285
128.24499511719	41.015875888879	8.0955857066728
128.74400329590	40.428539277652	8.2272590164639
129.24299621582	39.857604208124	8.3733722496070
129.74200439453	39.302738740127	8.5328284817577
130.24099731445	38.763592187040	8.7046059366654
130.74000549316	38.239800786078	8.8877617408139
131.23899841309	37.730971327003	9.0814144351968
131.73800659180	37.236711361020	9.2847584158071
132.23699951172	36.756618249623	9.4970413624218
132.73599243164	36.290277115386	9.7175663347995
133.23500061035	35.837287299906	9.9456997881841
133.73399353027	35.397230142853	10.180853418337
134.23300170898	34.969699614788	10.422484318316
134.73199462891	34.554297995503	10.670098492069
135.23100280762	34.150627082609	10.923245189195
135.72999572754	33.758297361143	11.181499473784
136.22900390625	33.376929112419	11.444498632502
136.72799682617	33.006145836117	11.711883744733
137.22700500488	32.645595606223	11.983348842383
137.72599792480	32.294919683044	12.258606926316
138.22500610352	31.953790697519	12.537413617816
138.72399902344	31.621865528758	12.819519145864
139.22300720215	31.298845093731	13.104730875794
139.72200012207	30.984412284188	13.392850753581
140.22099304199	30.678277526506	13.683718894978
140.72000122070	30.380179626005	13.977189402848
141.21899414063	30.089832562852	14.273125837770
141.71800231934	29.806994215422	14.571415446937
142.21699523926	29.531412947205	14.871950726588
142.71600341797	29.262878421645	15.174655635417
143.21499633789	29.001153902718	15.479441524454
143.71400451660	28.746050344728	15.786250739551
144.21299743652	28.497366624056	16.095016172570
144.71200561523	28.254918642810	16.405690577290
145.21099853516	28.018541282379	16.718241566943
145.71000671387	27.788074316410	17.032628022358
146.20899963379	27.563358440955	17.348815756923
146.70799255371	27.344269496249	17.666787420038
147.20700073242	27.130662619127	17.986522791832
147.70599365234	26.922432693300	18.308011126112
148.20500183105	26.719456157354	18.631235537993
148.70399475098	26.521627865894	18.956180636994
149.20300292969	26.328867878195	19.282843179439
149.70199584961	26.141073949503	19.611223881111
150.20100402832	25.958167569832	19.941297105433
150.69999694824	25.780082056563	20.273076569008
151.19900512695	25.606743936046	20.606547992373
151.69799804688	25.438104079523	20.941718701454
152.19700622559	25.274086604223	21.278561955188
152.69599914551	25.114659343264	21.617093173502
153.19500732422	24.959771268948	21.957300361516
153.69400024414	24.809371134279	22.299171771812
154.19299316406	24.663431665887	22.642705212383
154.69200134277	24.521919844306	22.987888968747
155.19099426270	24.384801062201	23.334710449895
155.69000244141	24.252042004722	23.683164473897
156.18899536133	24.123624888598	24.033234528883
156.68800354004	23.999527853699	24.384905360946
157.18699645996	23.879719919063	24.738163210058
157.68600463867	23.764189152236	25.092998518140
158.18499755859	23.652919328985	25.449390676651
158.68400573730	23.545874115883	25.807310640210
159.18299865723	23.443054855270	26.166752460519
159.68200683594	23.344425950482	26.527683024920
160.18099975586	23.249985936861	26.890099198653
160.67999267578	23.159717296065	27.253967787249
161.17900085449	23.073590887609	27.619273111093
161.67799377441	22.991597073612	27.985988746286
162.17700195313	22.913708442010	28.354097826993
162.67599487305	22.839923968050	28.723578810201
163.17500305176	22.770202895826	29.094413883993
163.67399597168	22.704535363651	29.466579262174
164.17300415039	22.642894869233	29.840060902023
164.67199707031	22.585261040209	30.214840605884
165.17100524902	22.531611067953	30.590913534711
165.66999816895	22.481919164959	30.968248078329
166.16900634766	22.436153208065	31.346842797724
166.66799926758	22.394298900447	31.726691111230
167.16700744629	22.356321278509	32.107791819834
167.66600036621	22.322188447979	32.490127587387
168.16499328613	22.291881764065	32.873709934728
168.66400146484	22.265361634839	33.258547494447
169.16299438477	22.242600072927	33.644636972541
169.66200256348	22.223578892681	34.032002245217
170.16099548340	22.208266244636	34.420661656512
170.66000366211	22.196627540100	34.810622671499
171.15899658203	22.188631720342	35.201907863478
171.65800476074	22.184267644156	35.594571315959
172.15699768066	22.183498336233	35.988640885572
172.65600585938	22.186301751128	36.384138145426
173.15499877930	22.192666881847	36.781139443591
173.65400695801	22.202577034431	37.179682876536
174.15299987793	22.216011234084	37.579835917614
174.65199279785	22.232954740913	37.981650321650
175.15100097656	22.253419145830	38.385204919645
175.64999389648	22.277381537818	38.790574608038
176.14900207520	22.304855448228	39.197842838145
176.64799499512	22.335850021506	39.607091382553
177.14700317383	22.370386552485	40.018418873346
177.64599609375	22.408482535903	40.431939953226
178.14500427246	22.450165066768	40.847737282086
178.64399719238	22.495483116612	41.265927681368
179.14300537109	22.544469868276	41.686642094595
179.64199829102	22.597180136344	42.109982559390
180.14100646973	22.653702125272	42.536082870670
180.63999938965	22.714091136511	42.965078927165
181.13900756836	22.778429720483	43.397094537093
181.63800048828	22.846842952303	43.832286470461
182.13699340820	22.919400472488	44.270752330432
182.63600158691	22.996260262311	44.712691422920
183.13499450684	23.077556379359	45.158228277808
183.63400268555	23.163420770013	45.607518871137
184.13299560547	23.254035279004	46.060676609050
184.63200378418	23.349576783702	46.517922372825
185.13099670410	23.450230052248	46.979333160631
185.63000488281	23.556226394432	47.445118621628
186.12899780273	23.667768574785	47.915385901078
186.62800598145	23.785128447342	48.390316543068
187.12699890137	23.908552862619	48.870009844322
187.62600708008	24.038324890844	49.354631234832
188.12500000000	24.174753300916	49.844316248351
188.62399291992	24.318162151542	50.339227604580
189.12300109863	24.468899276502	50.839471510281
189.62199401855	24.627294750767	51.345114254488
190.12100219727	24.793744630405	51.856301486989
190.61999511719	24.968688892200	52.373173022218
191.11900329590	25.152503299274	52.895762691571
191.61799621582	25.345652755241	53.424147874755
192.11700439453	25.548623349844	53.958404904046
192.61599731445	25.761912684939	54.498608209492
193.11500549316	25.986010994019	55.044718539141
193.61399841309	26.221504511595	55.596834308609
194.11300659180	26.468931365855	56.154864818684
194.61199951172	26.728901529343	56.718840421355
195.11099243164	27.002030414885	57.288660709249
195.61000061035	27.288993229395	57.864315158779
196.10899353027	27.590427339226	58.445628540876
196.60800170898	27.907041761526	59.032461503676
197.10699462891	28.239566289463	59.624670807221
197.60600280762	28.588774829157	60.222034876970
198.10499572754	28.955441863955	60.824322967149
198.60400390625	29.340363621619	61.431210627860
199.10299682617	29.744375312913	62.042355653770
199.60200500488	30.168342580159	62.657382035957
200.10099792480	30.613159035658	63.275836481677
200.60000610352	31.079726354852	63.897256421301
201.09899902344	31.568964615793	64.521023615703
201.59800720215	32.081821292634	65.146500024079
202.09700012207	32.619306105269	65.773033585675
202.59599304199	33.182359177287	66.399766687238
203.09500122070	33.771995612301	67.025885495398
203.59399414063	34.389199145908	67.650398916507
