#Parameters = {Z=50; a=1000; d=160; eps_eff=6; l=410; t=0.1; w=25}
#"Frequency / GHz"	"Z1,1 [Real/Imaginary Part] [Re]"	"Z1,1 [Real/Imaginary Part] [Im]"
#-------------------------------------------------------------------------------------
1.0000000000000	423.26403094955	-1316.5868996147
1.9989999532700	113.68615427548	-707.70756793065
2.9979999065399	51.082843684085	-477.79505049593
3.9969999790192	28.744135811612	-359.32794952275
4.9959998130798	18.330754642614	-287.27600971322
5.9949998855591	12.657110115635	-238.82039205380
6.9939999580383	9.2330279321226	-203.96364221635
7.9930000305176	7.0117678951077	-177.64831505029
8.9919996261597	5.4914095138787	-157.04488040710
9.9910001754761	4.4070538555633	-140.44790252513
10.989999771118	3.6080028297281	-126.76867243762
11.989000320435	3.0035549636238	-115.27964177767
12.987999916077	2.5363735692133	-105.47640757839
13.987000465393	2.1688262397356	-96.998068691711
14.986000061035	1.8753523073862	-89.579793449579
15.984999656677	1.6381260665972	-83.022742353273
16.983999252319	1.4444159263198	-77.174722727013
17.982999801636	1.2849130476156	-71.917328829819
18.982000350952	1.1527137564870	-67.156983635267
19.981000900269	1.0426064701540	-62.818809218631
20.979999542236	0.95059220862407	-58.842126653025
21.979000091553	0.87357864966477	-55.177275134267
22.978000640869	0.80913988210660	-51.783213083007
23.976999282837	0.75535758984189	-48.625646339714
24.975999832153	0.71071004340258	-45.675815703044
25.975000381470	0.67396590261347	-42.909304436828
26.974000930786	0.64413185759857	-40.305312492831
27.972999572754	0.62041472763043	-37.845982172517
28.972000122070	0.60215570671935	-35.515908568159
29.971000671387	0.58882015702982	-33.301648390885
30.969999313354	0.57997367910786	-31.191548272626
31.968999862671	0.57526803869097	-29.175325653295
32.967998504639	0.57441844315781	-27.243942743492
33.966999053955	0.57719537683980	-25.389395580340
34.965999603271	0.58342309882924	-23.604532282721
35.965000152588	0.59295182038779	-21.883017304150
36.964000701904	0.60570018840039	-20.219115725399
37.963001251221	0.62158498689781	-18.607697039634
38.962001800537	0.64058181894106	-17.044117652650
39.960998535156	0.66266756702710	-15.524136037722
40.959999084473	0.68785451925425	-14.043924111782
41.958999633789	0.71619660638406	-12.599955726306
42.958000183105	0.74774406473064	-11.188999705819
43.957000732422	0.78258490402428	-9.8080774649568
44.956001281738	0.82083231991721	-8.4544155475601
45.955001831055	0.86262215549890	-7.1254726861811
46.953998565674	0.90811448385526	-5.8188353816900
47.952999114990	0.95749797512797	-4.5322734891911
48.951999664307	1.0109895052421	-3.2636700357869
49.951000213623	1.0688391761090	-2.0110273136653
50.950000762939	1.1313251213360	-0.77245426445587
51.949001312256	1.1987724788108	0.45384133878060
52.948001861572	1.2715357388740	1.6695964863015
53.946998596191	1.3500181378948	2.8764617486995
54.945999145508	1.4346699262440	4.0760424161718
55.944999694824	1.5259961917321	5.2698824823495
56.944000244141	1.6245538175078	6.4594753941578
57.943000793457	1.7309617647428	7.6462872311770
58.942001342773	1.8459191249650	8.8317432527375
59.941001892090	1.9701920294532	10.017261342222
60.939998626709	2.1046281377976	11.204189844751
61.938999176025	2.2501802260173	12.393882548921
62.937999725342	2.4078899740836	13.587670398148
63.937000274658	2.5789201063573	14.786861038334
64.935997009277	2.7645566324191	15.992732176749
65.934997558594	2.9662191654615	17.206557247697
66.933998107910	3.1854838247634	18.429542457126
67.932998657227	3.4240862465998	19.662893335818
68.931999206543	3.6839610492864	20.907769894089
69.930999755859	3.9672208202903	22.165272195582
70.930000305176	4.2762316952322	23.436452297790
71.929000854492	4.6135887923152	24.722273034189
72.928001403809	4.9821622179485	26.023592492847
73.927001953125	5.3851132043865	27.341144341427
74.926002502441	5.8259380783991	28.675517912238
75.925003051758	6.3084855576863	30.027101063954
76.924003601074	6.8369725881294	31.396019836441
77.922996520996	7.4160634618315	32.782130501995
78.921997070313	8.0508283976138	34.184885755742
79.920997619629	8.7468314121460	35.603300641543
80.919998168945	9.5101022914534	37.035824308026
81.918998718262	10.347199233832	38.480244170671
82.917999267578	11.265169118688	39.933513047861
83.916999816895	12.271529679961	41.391621256008
84.916000366211	13.374234886535	42.849365268771
85.915000915527	14.581605090970	44.300181455491
86.914001464844	15.902215799764	45.735924305407
87.913002014160	17.344635758917	47.146475131019
88.912002563477	18.917239099255	48.519637319583
89.911003112793	20.627843331862	49.840820996033
90.910003662109	22.483226522104	51.092748801546
91.908996582031	24.488543048739	52.255334787206
92.907997131348	26.646574817481	53.305511292389
93.906997680664	28.956894435122	54.217340162727
94.905998229980	31.414894487988	54.962337349001
95.904998779297	34.010661660961	55.509907264076
96.903999328613	36.728009180206	55.828368651703
97.902999877930	39.543437890359	55.886240316360
98.902000427246	42.425477265805	55.653961939787
99.901000976563	45.334510866564	55.106170768474
100.90000152588	48.223179001777	54.224045610061
101.89900207520	51.037479651346	52.997792365745
102.89800262451	53.719112941156	51.428979605350
103.89700317383	56.208207629633	49.532097835834
104.89600372314	58.447075331650	47.335345190720
105.89499664307	60.383977428909	44.880090739727
106.89399719238	61.976965985616	42.219074308320
107.89299774170	63.196547358013	39.413436697683
108.89199829102	64.027704127987	36.528890942005
109.89099884033	64.470328948706	33.631578355859
110.88999938965	64.538323954175	30.784103721381
111.88899993896	64.257451469831	28.042237479529
112.88800048828	63.662736420159	25.452554605736
113.88700103760	62.795262046402	23.051185674410
114.88600158691	61.699058192222	20.863592067227
115.88500213623	60.418486964840	18.905170316272
116.88400268555	58.996109917413	17.182401491237
117.88300323486	57.471128489564	15.694384625312
118.88200378418	55.878478941567	14.434434961838
119.88099670410	54.248328219222	13.391633779038
120.87999725342	52.606092006840	12.552202460723
121.87899780273	50.972584929745	11.900672235701
122.87799835205	49.364450392584	11.420799370705
123.87699890137	47.794622582498	11.096277541760
124.87599945068	46.272836460578	10.911238847964
125.87500000000	44.806134591641	10.850589811413
126.87400054932	43.399350902549	10.900241586901
127.87300109863	42.055518759356	11.047211672968
128.87199401855	40.776215113793	11.279646836864
129.87100219727	39.561910860961	11.586846920334
130.86999511719	38.412201299819	11.959196000267
131.86900329590	37.326033729285	12.388105446618
132.86799621582	36.301854925762	12.865911138949
133.86700439453	35.337790586202	13.385843900882
134.86599731445	34.431709041932	13.941886351150
135.86500549316	33.581330942405	14.528724552132
136.86399841309	32.784283505421	15.141659948842
137.86300659180	32.038162658629	15.776572221987
138.86199951172	31.340552399531	16.429810502285
139.86099243164	30.689048014638	17.098140003803
140.86000061035	30.081306446217	17.778763863193
141.85899353027	29.515007791726	18.469159068274
142.85800170898	28.987917277369	19.167169925180
143.85699462891	28.497848037746	19.870868739948
144.85600280762	28.042675616930	20.578582771332
145.85499572754	27.620352313396	21.288871604257
146.85400390625	27.228878718645	22.000469543804
147.85299682617	26.866331204498	22.712315403116
148.85200500488	26.530838899529	23.423511562108
149.85099792480	26.220608015481	24.133330691208
150.85000610352	25.933885213314	24.841174224459
151.84899902344	25.668987452284	25.546599011764
152.84800720215	25.424298748416	26.249316431162
153.84700012207	25.198255309800	26.949129024290
154.84599304199	24.989374543354	27.646005161084
155.84500122070	24.796225444373	28.340005104399
156.84399414063	24.617465569501	29.031318456183
157.84300231934	24.451834766731	29.720276929140
158.84199523926	24.298131827310	30.407257023707
159.84100341797	24.155282785205	31.092807389077
160.83999633789	24.022277707524	31.777509936237
161.83900451660	23.898230193223	32.462101995027
162.83799743652	23.782349823353	33.147344192514
163.83700561523	23.673953588945	33.834112694832
164.83599853516	23.572501731591	34.523339347026
165.83500671387	23.477543189090	35.215998160201
166.83399963379	23.388766527219	35.913142180352
167.83299255371	23.306006571471	36.615835338084
168.83200073242	23.229195526099	37.325200006506
169.83099365234	23.158411250810	38.042352836951
170.83000183105	23.093883720308	38.768456424875
171.82899475098	23.035941315184	39.504633854330
172.82800292969	22.985065725491	40.252041636685
173.82699584961	22.941868413595	41.011795577265
174.82600402832	22.907083102816	41.785028815952
175.82499694824	22.881567677896	42.572794624390
176.82400512695	22.866338503571	43.376172862910
177.82299804688	22.862513266128	44.196166688984
178.82200622559	22.871337088383	45.033744473052
179.82099914551	22.894202213938	45.889854281598
180.82000732422	22.932613970758	46.765319589591
181.81900024414	22.988229033010	47.660999687290
182.81799316406	23.062821643823	48.577620368842
183.81700134277	23.158325341181	49.515884828014
184.81599426270	23.276813916075	50.476389509489
185.81500244141	23.420499953813	51.459640396033
186.81399536133	23.591798768071	52.466069921448
187.81300354004	23.793260623036	53.496027107254
188.81199645996	24.027622906155	54.549689876987
189.81100463867	24.297841371491	55.627114328807
190.80999755859	24.607050979716	56.728246951382
191.80900573730	24.958624298298	57.852791395886
192.80799865723	25.356139903243	59.000275616815
193.80700683594	25.803457646171	60.169987394723
194.80599975586	26.304656282487	61.360904232526
195.80499267578	26.864105351225	62.571705548822
196.80400085449	27.486409117021	63.800670851209
197.80299377441	28.176481902542	65.045658356462
198.80200195313	28.939493618171	66.304001946646
199.80099487305	29.780837346610	67.572385635347
200.80000305176	30.706175540930	68.846904534678
201.79899597168	31.721362431831	70.122820829095
202.79800415039	32.832356310903	71.394453905720
203.79699707031	34.045214758325	72.655189486300
204.79600524902	35.365929815467	73.897268933784
205.79499816895	36.800351398234	75.111605322124
206.79400634766	38.353934233713	76.287763961160
207.79299926758	40.031598926135	77.413796929618
208.79200744629	41.837429065419	78.476109724871
209.79100036621	43.774358989078	79.459477242529
210.78999328613	45.843799386085	80.346962669252
211.78900146484	48.045206767152	81.119963934531
212.78799438477	50.375605181803	81.758315153483
213.78700256348	52.829110183728	82.240662144490
214.78599548340	55.396338664774	82.544656567369
215.78500366211	58.063987544850	82.647659258670
216.78399658203	60.814362901712	82.527324689639
217.78300476074	63.625068056542	82.162551903749
218.78199768066	66.468891783300	81.534539714327
219.78100585938	69.313902399419	80.627866326940
220.77999877930	72.123903911966	79.431799665759
221.77900695801	74.859217111081	77.941489573847
222.77799987793	77.477765725094	76.158926519302
223.77699279785	79.936664995008	74.093865825647
224.77600097656	82.193857989336	71.764164792254
225.77499389648	84.210035268884	69.195657956662
226.77400207520	85.950576291852	66.421659931197
227.77299499512	87.387205060535	63.481828349154
228.77200317383	88.499323932713	60.420484931525
229.77099609375	89.274974552700	57.284873636341
230.77000427246	89.711128096025	54.122979476205
231.76899719238	89.813395743034	50.981534207039
232.76800537109	89.595364427190	47.904253241359
233.76699829102	89.077338582499	44.930225695087
234.76600646973	88.284960567547	42.092949722194
235.76499938965	87.247639924669	39.419657841546
236.76400756836	85.997011286297	36.931123035790
237.76300048828	84.565494684999	34.641849807369
238.76199340820	82.985100033935	32.560541760029
239.76100158691	81.286489831037	30.690735938984
240.75999450684	79.498205813577	29.031604747655
241.75900268555	77.646226874936	27.578741697458
242.75799560547	75.753705677557	26.324952379977
243.75700378418	73.840886963388	25.261001029984
244.75599670410	71.925125558651	24.376226782176
245.75500488281	70.021061081674	23.659104648761
246.75399780273	68.140806653267	23.097705241793
247.75300598145	66.294190929563	22.680020094695
248.75199890137	64.489028276028	22.394261720299
249.75100708008	62.731373379374	22.229048669225
250.75000000000	61.025761372641	22.173549098650
251.74899291992	59.375453054859	22.217573005452
252.74800109863	57.782629385010	22.351606312880
253.74699401855	56.248584152523	22.566856286552
254.74600219727	54.773902105153	22.855225775619
255.74499511719	53.358559130310	23.209306523284
256.74398803711	52.002095515074	23.622348828072
257.74301147461	50.703662483776	24.088214411254
258.74200439453	49.462163766066	24.601355789255
259.74099731445	48.276274127324	25.156745641527
260.73999023438	47.144514526511	25.749854171760
261.73901367188	46.065331057464	26.376602853249
262.73800659180	45.037071474192	27.033310941550
263.73699951172	44.058082551610	27.716678756999
264.73599243164	43.126656625965	28.423720778126
265.73498535156	42.241127132440	29.151777979816
266.73400878906	41.399840581687	29.898450747110
267.73300170898	40.601148739855	30.661564730045
268.73199462891	39.843478184750	31.439192053467
269.73098754883	39.125265332597	32.229587427713
270.73001098633	38.444991688143	33.031183768041
271.72900390625	37.801210760006	33.842579397981
272.72799682617	37.192485288529	34.662513239657
273.72698974609	36.617448599189	35.489866350705
274.72601318359	36.074760527257	36.323632624475
275.72500610352	35.563132693822	37.162931000023
276.72399902344	35.081312961259	38.006973042013
277.72299194336	34.628102624632	38.855100882733
278.72198486328	34.202311006398	39.706702393774
279.72100830078	33.802811049380	40.561299890826
280.72000122070	33.428501195026	41.418494606223
281.71899414063	33.078324639385	42.277963347244
282.71798706055	32.751239511237	43.139467535003
283.71701049805	32.446279115162	44.002886465900
284.71600341797	32.162492406251	44.868137201301
285.71499633789	31.898977725927	45.735245671980
286.71398925781	31.654893746453	46.604320924295
287.71301269531	31.429425728215	47.475542389304
288.71200561523	31.221851940281	48.349181333678
289.71099853516	31.031494503071	49.225605090307
290.70999145508	30.857743722633	50.105232234923
291.70901489258	30.700076900054	50.988551700609
292.70800781250	30.558041564783	51.876172197653
293.70700073242	30.431293641990	52.768717902916
294.70599365234	30.319572304897	53.666914138028
295.70498657227	30.222742246489	54.571545809386
296.70401000977	30.140776659883	55.483415668724
297.70300292969	30.073765427403	56.403439692463
298.70199584961	30.021925626510	57.332507812277
299.70098876953	29.985632717827	58.271560827015
300.70001220703	29.965398224943	59.221573241597
301.69900512695	29.961884082092	60.183523359932
302.69799804688	29.975905921264	61.158394086595
303.69699096680	30.008472099407	62.147159043267
304.69601440430	30.060726140043	63.150742960972
305.69500732422	30.134008954748	64.170046116167
306.69400024414	30.229861085559	65.205920705605
307.69299316406	30.349999320093	66.259164822523
308.69198608398	30.496311291286	67.330432528444
309.69100952148	30.670924640854	68.420337251026
310.69000244141	30.876148841493	69.529336134555
311.68899536133	31.114504324197	70.657749914631
312.68798828125	31.388729916956	71.805729563974
313.68701171875	31.701767963791	72.973200766110
314.68600463867	32.056778389287	74.159874692449
315.68499755859	32.457132324974	75.365236532654
316.68399047852	32.906429719750	76.588412416116
317.68301391602	33.408438488215	77.828272249486
318.68200683594	33.967140059024	79.083162854357
319.68099975586	34.586678806992	80.351160390414
320.67999267578	35.271363220232	81.629765518110
321.67898559570	36.025627597836	82.915936642146
322.67800903320	36.853946339604	84.206064789978
323.67700195313	37.760883402512	85.495853486305
324.67599487305	38.750905627191	86.780300003606
325.67498779297	39.828389392714	88.053613514326
326.67401123047	40.997473331540	89.309078473013
327.67300415039	42.261992729077	90.539187084972
328.67199707031	43.625225293912	91.735454115650
329.67098999023	45.089888287429	92.888401819008
330.67001342773	46.657832837910	93.987592341704
331.66900634766	48.329857153606	95.021661645521
332.66799926758	50.105528549933	95.978364534122
333.66699218750	51.982927645784	96.844719274336
334.66598510742	53.958376827252	97.607125653464
335.66500854492	56.026312229742	98.251612228706
336.66400146484	58.178954837313	98.764144761371
337.66299438477	60.406225345248	99.130910660285
338.66198730469	62.695664773500	99.338849834443
339.66101074219	65.032307421342	99.376001502539
340.66000366211	67.398878279712	99.232139706563
341.65899658203	69.775894694607	98.899067880302
342.65798950195	72.142007306790	98.371404046741
343.65701293945	74.474475202409	97.646740765789
344.65600585938	76.749696089678	96.726294172954
345.65499877930	78.943846929940	95.614871357521
346.65399169922	81.033618298290	94.321102703522
347.65301513672	82.996998869812	92.857404917182
348.65200805664	84.813971934295	91.239579885832
349.65100097656	86.467168771587	89.486472231854
350.64999389648	87.942458069586	87.619449329350
351.64898681641	89.229314974370	85.661658851725
352.64801025391	90.320993135997	83.637166216992
353.64700317383	91.214715236012	81.570460852199
354.64599609375	91.911398499240	79.485495047535
355.64498901367	92.415471079635	77.405061234188
356.64401245117	92.734463863860	75.350406630970
357.64300537109	92.878483592036	73.340541474811
358.64199829102	92.859708570670	71.392117630898
359.64099121094	92.691860898800	69.519235419403
360.64001464844	92.389650895529	67.733284628310
361.63900756836	91.968313500851	66.043198783215
362.63800048828	91.443183458892	64.455379333755
363.63699340820	90.829265088129	62.974034543530
364.63598632813	90.141073568932	61.601338829115
365.63500976563	89.392298649980	60.337751974430
366.63400268555	88.595798241901	59.182172827722
367.63299560547	87.763227652949	58.132312843134
368.63198852539	86.905298301714	57.184864616559
369.63101196289	86.031583663837	56.335720005476
370.63000488281	85.150413910685	55.580239200288
371.62899780273	84.269376602510	54.913286355034
372.62799072266	83.394866788155	54.329490032501
373.62701416016	82.532393214307	53.823338261700
374.62600708008	81.686639494635	53.389238534168
375.62500000000	80.861499753094	53.021653245078
376.62399291992	80.060164883185	52.715125315520
377.62298583984	79.285172487759	52.464320718303
378.62200927734	78.538629244523	52.264097295894
379.62100219727	77.821896122532	52.109533094111
380.61999511719	77.136106395124	51.995904192651
381.61898803711	76.481880350828	51.918729199489
382.61801147461	75.859534467366	51.873786527239
383.61700439453	75.269072275821	51.857085183941
384.61599731445	74.710251824789	51.864878033492
385.61499023438	74.182576368307	51.893682333466
386.61401367188	73.685387612354	51.940224656627
387.61300659180	73.217777621475	52.001508955032
388.61199951172	72.778850520433	52.074718769238
389.61099243164	72.367355755362	52.157307389445
390.60998535156	71.982193428961	52.246929215478
391.60900878906	71.621994015504	52.341434555071
392.60800170898	71.285410589773	52.438890481274
393.60699462891	70.971033818318	52.537548709084
394.60598754883	70.677406029560	52.635865463764
395.60501098633	70.403004416336	52.732452440914
396.60400390625	70.146418456104	52.826103691566
397.60299682617	69.906135128735	52.915772231067
398.60198974609	69.680681733964	53.000568961778
399.60101318359	69.468625187782	53.079714346577
400.60000610352	69.268547681894	53.152623254508
401.59899902344	69.079066474901	53.218772257341
402.59799194336	68.898851435326	53.277769807696
403.59698486328	68.726601023133	53.329334094019
404.59600830078	68.561086761488	53.373278725561
405.59500122070	68.401131071466	53.409484238442
406.59399414063	68.245593782761	53.437916386656
407.59298706055	68.093412175935	53.458590685904
408.59201049805	67.943552321198	53.471595437005
