#Parameters = {Z=50; a=1000; d=202; eps_eff=6; l=252; t=0.1; w=24}
#"Frequency / GHz"	"Z1,1 [Real/Imaginary Part] [Re]"	"Z1,1 [Real/Imaginary Part] [Im]"
#-------------------------------------------------------------------------------------
1.0000000000000	841.09600074161	-549.87963026581
2.4990000724792	326.87699796198	-533.89011598738
3.9979999065399	152.89216751919	-399.28945774119
5.4970002174377	85.856469289834	-308.01284256474
6.9959998130798	54.349882475663	-247.82210368112
8.4949998855591	37.285683115920	-206.05552300327
9.9940004348755	27.074605710674	-175.58202623363
11.493000030518	20.504013268965	-152.40838324757
12.991999626160	16.037450804551	-134.18683223388
14.491000175476	12.868413647301	-119.46399734039
15.989999771118	10.541660722833	-107.29785240786
17.489000320435	8.7847452703713	-97.053298215097
18.988000869751	7.4266936824170	-88.287704794503
20.486999511719	6.3559333926004	-80.683458475935
21.986000061035	5.4970985740068	-74.007061489388
23.485000610352	4.7978830845903	-68.083162092633
24.983999252319	4.2210792436659	-62.777466134330
26.482999801636	3.7396252933694	-57.985541888109
27.982000350952	3.3335013129244	-53.624883958306
29.481000900269	2.9876536532175	-49.629447279274
30.979999542236	2.6905898484432	-45.945810918282
32.479000091553	2.4334398840148	-42.530199183221
33.978000640869	2.2092728397559	-39.346409295124
35.477001190186	2.0126256539923	-36.364277962230
36.976001739502	1.8391693045145	-33.558394703554
38.474998474121	1.6854311824482	-30.907219556981
39.973999023438	1.5486337092188	-28.392371610133
41.472999572754	1.4265281392459	-25.998012842517
42.972000122070	1.3172979657556	-23.710450119314
44.471000671387	1.2194832295505	-21.517754461790
45.970001220703	1.1319119807004	-19.409469371222
47.469001770020	1.0536487439887	-17.376386782379
48.967998504639	0.98394629020194	-15.410329709733
50.466999053955	0.92224646211721	-13.504031645316
51.965999603271	0.86811540383922	-11.650969765877
53.465000152588	0.82126556639458	-9.8452709118388
54.964000701904	0.78150881726489	-8.0816231402850
56.463001251221	0.74877968844311	-6.3552051718141
57.962001800537	0.72308450446294	-4.6615825814203
59.460998535156	0.70453559853192	-2.9967065222504
60.959999084473	0.69332366751737	-1.3568192570619
62.458999633789	0.68972089545341	0.26155519492355
63.958000183105	0.69408943883721	1.8616783973692
65.457000732422	0.70687455956390	3.4465991581754
66.956001281738	0.72859562330732	5.0191749045515
68.455001831055	0.75987399917375	6.5821272761641
69.954002380371	0.80142286131842	8.1380544369870
71.453002929688	0.85404336756644	9.6894058194525
72.952003479004	0.91865375033027	11.238575171124
74.450996398926	0.99628380545247	12.787827775993
75.949996948242	1.0880772509711	14.339368445418
77.448997497559	1.1953173910370	15.895334926241
78.947998046875	1.3194357898703	17.457804200347
80.446998596191	1.4620101102982	19.028769759940
81.945999145508	1.6248110998923	20.610221262315
83.444999694824	1.8097879534993	22.204042791914
84.944000244141	2.0190979657928	23.812096623904
86.443000793457	2.2551415573118	25.436177505674
87.942001342773	2.5205603514411	27.077987088458
89.441001892090	2.8182794420416	28.739179816398
90.940002441406	3.1515495649795	30.421287713372
92.439002990723	3.5239451397792	32.125755842751
93.938003540039	3.9394108355147	33.853838394405
95.436996459961	4.4023152534953	35.606666257735
96.935997009277	4.9174566453430	37.385092942039
98.434997558594	5.4901413403662	39.189750904197
99.933998107910	6.1261917834491	41.020900856107
101.43299865723	6.8319968805783	42.878391425948
102.93199920654	7.6145632076790	44.761552829025
104.43099975586	8.4815235918771	46.669099886457
105.93000030518	9.4411921896780	48.598979439842
107.42900085449	10.502555554388	50.548183916974
108.92800140381	11.675297553227	52.512624652712
110.42700195313	12.969731095104	54.486829910639
111.92600250244	14.396759735989	56.463757347229
113.42500305176	15.967768693753	58.434453214775
114.92400360107	17.694439238332	60.387777878780
116.42299652100	19.588459057730	62.310051971469
117.92199707031	21.661238643850	64.184684239543
119.42099761963	23.923343704577	65.991779663182
120.91999816895	26.383867521320	67.707941245124
122.41899871826	29.049715021813	69.305953972895
123.91799926758	31.924510578865	70.754707901266
125.41699981689	35.007505594429	72.019300805668
126.91600036621	38.292290317627	73.061469904704
128.41499328613	41.765364771407	73.840370969651
129.91400146484	45.404708336521	74.313728829601
131.41299438477	49.178859725283	74.439959125211
132.91200256348	53.045716122310	74.180059058793
134.41099548340	56.952682396258	73.500853126752
135.91000366211	60.837027599159	72.377872616493
137.40899658203	64.627866901803	70.798671293074
138.90800476074	68.248716594089	68.765578828552
140.40699768066	71.621641211588	66.297741979909
141.90600585938	74.671479793837	63.431865930692
143.40499877930	77.331251534933	60.221479419641
144.90400695801	79.546074318188	56.734517471035
146.40299987793	81.277544321996	53.049527337500
147.90199279785	82.505438093184	49.250851298225
149.40100097656	83.228226576208	45.423448140661
150.89999389648	83.462350852575	41.647873743767
152.39900207520	83.239321621153	37.996275239059
153.89799499512	82.602303947985	34.529406641465
155.39700317383	81.602487908857	31.295023432979
156.89599609375	80.295075539694	28.327565985021
158.39500427246	78.736072995434	25.648770966559
159.89399719238	76.979557750016	23.269146341800
161.39300537109	75.075719734881	21.189735188705
162.89199829102	73.069630993244	19.404071445985
164.39100646973	71.000641800066	17.900117675130
165.88999938965	68.902197927456	16.661956119074
167.38900756836	66.802071871670	15.671268362252
168.88800048828	64.722778337102	14.908499669692
170.38699340820	62.682156127024	14.353796950274
171.88600158691	60.693956792418	13.987657283277
173.38499450684	58.768470491051	13.791407792019
174.88400268555	56.913123584775	13.747497207486
176.38299560547	55.132941810471	13.839690050935
177.88200378418	53.431129552357	14.053100894967
179.38099670410	51.809317233360	14.374260917197
180.88000488281	50.268048682344	14.791035346216
182.37899780273	48.806936673733	15.292569865035
183.87800598145	47.424973815487	15.869203983660
185.37699890137	46.120694878174	16.512363940547
186.87600708008	44.892329042693	17.214478950186
188.37500000000	43.737902078307	17.968851579819
189.87399291992	42.655376026053	18.769601588409
191.37300109863	41.642645464135	19.611516104825
192.87199401855	40.697689721957	20.490038903694
194.37100219727	39.818553511361	21.401137305697
195.86999511719	39.003392169982	22.341241584947
197.36900329590	38.250499306188	23.307200383475
198.86799621582	37.558325185607	24.296192207076
200.36700439453	36.925474463344	25.305678228722
201.86599731445	36.350768829462	26.333404417877
203.36500549316	35.833148228883	27.377251220911
204.86399841309	35.371780170735	28.435292708356
206.36300659180	34.965975952082	29.505695517513
207.86199951172	34.615267089573	30.586719538217
209.36099243164	34.319293133200	31.676645641943
210.86000061035	34.077914223762	32.773785009844
212.35899353027	33.891106142232	33.876401573138
213.85800170898	33.759009551881	34.982726717622
215.35699462891	33.681855780044	36.090864696706
216.85600280762	33.660039372194	37.198845203884
218.35499572754	33.694006010384	38.304528828648
219.85400390625	33.784316258430	39.405632561246
221.35299682617	33.931517855844	40.499619687403
222.85200500488	34.136213093001	41.583751350347
224.35099792480	34.398964290414	42.655032159691
225.85000610352	34.720271717115	43.710198466636
227.34899902344	35.100539607905	44.745677900591
228.84800720215	35.539985446961	45.757595517018
230.34700012207	36.038637630121	46.741758656288
231.84599304199	36.596207932088	47.693657419597
233.34500122070	37.212060453360	48.608472982897
234.84399414063	37.885151199174	49.481093075333
236.34300231934	38.613909976277	50.306166377468
237.84199523926	39.396185570020	51.078110647165
239.34100341797	40.229168320304	51.791197740845
240.83999633789	41.109316430686	52.439688738312
242.33900451660	42.032281771124	53.017834218743
243.83799743652	42.992896292078	53.520066598828
245.33700561523	43.985090876318	53.941127489958
246.83599853516	45.001906283029	54.276187597974
248.33500671387	46.035550127649	54.521062903152
249.83399963379	47.077394865035	54.672356203563
251.33299255371	48.118089998121	54.727594988179
252.83200073242	49.147714170456	54.685454543557
254.33099365234	50.155873187297	54.545826269018
255.83000183105	51.131963787420	54.309980061245
257.32901000977	52.065380330072	53.980644160626
258.82800292969	52.945714439439	53.561950195612
260.32699584961	53.763072101643	53.059512117403
261.82598876953	54.508287328095	52.480302462634
263.32501220703	55.173136996457	51.832508482474
264.82400512695	55.750608603783	51.125401701701
266.32299804688	56.235002285125	50.369093902250
267.82199096680	56.622074163251	49.574316144385
269.32101440430	56.909121322980	48.752120536774
270.82000732422	57.094959154528	47.913670809697
272.31900024414	57.179898120870	47.069939496418
273.81799316406	57.165646168787	46.231515663158
275.31698608398	57.055207386819	45.408367258973
276.81600952148	56.852677934576	44.609697524884
278.31500244141	56.563089101832	43.843792061510
279.81399536133	56.192243240477	43.117970002016
281.31298828125	55.746480868580	42.438498328229
282.81201171875	55.232530074904	41.810625657370
284.31100463867	54.657299318620	41.238555502153
285.80999755859	54.027756735033	40.725515677271
287.30899047852	53.350809391088	40.273845494602
288.80801391602	52.633158912338	39.885057399713
290.30700683594	51.881220332132	39.559894870098
291.80599975586	51.101101029059	39.298498114570
293.30499267578	50.298499910791	39.100428494533
294.80398559570	49.478701293118	38.964789227711
296.30300903320	48.646567662375	38.890306428145
297.80200195313	47.806545105667	38.875440317693
299.30099487305	46.962632997687	38.918362631029
300.79998779297	46.118435103535	39.017130729474
302.29901123047	45.277172245588	39.169648571846
303.79800415039	44.441688410357	39.373787895770
305.29699707031	43.614512626500	39.627365697180
306.79598999023	42.797876359596	39.928217520553
308.29501342773	41.993685906152	40.274194978085
309.79400634766	41.203653651884	40.663209495536
311.29299926758	40.429247565158	41.093231539174
312.79199218750	39.671726932074	41.562298777397
314.29098510742	38.932206474092	42.068539146945
315.79000854492	38.211629833773	42.610167979969
317.28900146484	37.510831020484	43.185492301005
318.78799438477	36.830517780163	43.792886957036
320.28698730469	36.171329579015	44.430862208073
321.78601074219	35.533789907769	45.097947709489
323.28500366211	34.918411917743	45.792821153946
324.78399658203	34.325621420422	46.514192294122
326.28298950195	33.755831482592	47.260865537346
327.78201293945	33.209397680945	48.031696289382
329.28100585938	32.686673671147	48.825596988131
330.77999877930	32.188002606237	49.641580634512
332.27899169922	31.713720750510	50.478645044761
333.77801513672	31.264141962402	51.335861922884
335.27700805664	30.839605944962	52.212326547755
336.77600097656	30.440437031172	53.107162605731
338.27499389648	30.066986240657	54.019530442757
339.77398681641	29.719594358623	54.948567757831
341.27301025391	29.398625648043	55.893496416288
342.77200317383	29.104454535460	56.853447423693
344.27099609375	28.837441477650	57.827606717891
345.76998901367	28.597984325439	58.815125800706
347.26901245117	28.386463004424	59.815181582307
348.76800537109	28.203270093283	60.826876065740
350.26699829102	28.048788462931	61.849359814777
351.76599121094	27.923401932552	62.881689543641
353.26501464844	27.827474657373	63.922920215115
354.76400756836	27.761368734857	64.972080273423
356.26300048828	27.725420673217	66.028194649577
357.76199340820	27.719942468362	67.090215186558
359.26098632813	27.745190211278	68.157051854875
360.76000976563	27.801435080338	69.227654155718
362.25900268555	27.888849093966	70.300864715592
363.75799560547	28.007587493638	71.375553597423
365.25698852539	28.157727928239	72.450555487859
366.75601196289	28.339332816930	73.524688158094
368.25500488281	28.552369643874	74.596770977662
369.75399780273	28.796737281361	75.665641322712
371.25299072266	29.072301100076	76.730112489399
372.75201416016	29.378850314372	77.789029455363
374.25100708008	29.716093828698	78.841258194616
375.75000000000	30.083720216397	79.885717422008
377.24899291992	30.481341624441	80.921343860025
378.74798583984	30.908529956365	81.947143664518
380.24700927734	31.364819122993	82.962158441438
381.74600219727	31.849734723283	83.965497746145
383.24499511719	32.362778957890	84.956353385331
384.74398803711	32.903442986569	85.933972225298
386.24301147461	33.471240435367	86.897643203179
387.74200439453	34.065726197889	87.846747658174
389.24099731445	34.686470150907	88.780676930957
390.73999023438	35.333123407439	89.698898587450
392.23901367188	36.005385280830	90.600921415656
393.73800659180	36.703026369536	91.486219278916
395.23699951172	37.425934563531	92.354315325495
396.73599243164	38.174038755527	93.204670628601
398.23498535156	38.947417268003	94.036684665353
399.73400878906	39.746191008059	94.849733461139
401.23300170898	40.570564979604	95.643111064121
402.73199462891	41.420886867337	96.415906722325
404.23098754883	42.297482335053	97.167113765255
405.73001098633	43.200742268206	97.895590834363
407.22900390625	44.131080101244	98.599884147986
408.72799682617	45.088907043670	99.278456549343
410.22698974609	46.074569104507	99.929481649174
411.72601318359	47.088287180724	100.55085851256
413.22500610352	48.130195583851	101.14028775561
414.72399902344	49.200257704245	101.69520812975
416.22299194336	50.298114651085	102.21280343221
417.72198486328	51.423206043590	102.68996568181
419.22100830078	52.574591069143	103.12354069424
420.72000122070	53.750948914649	103.51001728793
422.21899414063	54.950476212345	103.84589259807
423.71798706055	56.170905052530	104.12757510376
425.21701049805	57.409410441270	104.35140308957
426.71600341797	58.662597656127	104.51389923373
428.21499633789	59.926473291544	104.61160985400
429.71398925781	61.196479048076	104.64152814955
431.21301269531	62.467394359925	104.60088168498
432.71200561523	63.733486435087	104.48741548213
434.21099853516	64.988490470364	104.29941203917
435.70999145508	66.225671348800	104.03593514689
437.20901489258	67.437944621517	103.69673429843
438.70800781250	68.617984996069	103.28250180995
440.20700073242	69.758325295878	102.79477076184
441.70599365234	70.851499415798	102.23607152626
443.20498657227	71.890215622411	101.61000930796
444.70401000977	72.867511045992	100.92101687621
446.20300292969	73.776904851950	100.17453792472
447.70199584961	74.612529980274	99.376904188306
449.20098876953	75.369263084475	98.535124850650
450.70001220703	76.042921947325	97.656930404740
452.19900512695	76.630233548707	96.750557319895
453.69799804688	77.128962446156	95.824510389923
455.19699096680	77.537982265031	94.887576623926
456.69601440430	77.857197090817	93.948524560727
458.19500732422	78.087594650068	93.015986729986
459.69400024414	78.231147049665	92.098283608244
461.19299316406	78.290727579952	91.203366457969
462.69198608398	78.270060010352	90.338630777802
464.19100952148	78.173597830331	89.510873580271
465.69000244141	78.006369406972	88.726160898319
467.18899536133	77.773927253644	87.989850767619
468.68798828125	77.482156912632	87.306549580298
470.18701171875	77.137227685408	86.680091083487
471.68600463867	76.745420840988	86.113520595744
473.18499755859	76.313112660512	85.609232263045
474.68399047852	75.846617986081	85.168856899572
476.18301391602	75.352153064661	84.793452419047
477.68200683594	74.835768376024	84.483414111594
479.18099975586	74.303271087515	84.238689531581
480.67999267578	73.760292918667	84.058699800103
482.17898559570	73.212099385791	83.942452839724
483.67800903320	72.663730460906	83.888620255358
485.17700195313	72.119873499653	83.895529041863
486.67599487305	71.584972064294	83.961239681942
488.17498779297	71.063115488662	84.083622431442
489.67401123047	70.558093185042	84.260313252588
491.17300415039	70.073441348273	84.488769940808
492.67199707031	69.612396004085	84.766406639511
494.17098999023	69.177947847866	85.090456530860
495.67001342773	68.772827889239	85.458057302686
497.16900634766	68.399531288645	85.866339897720
498.66799926758	68.060334486710	86.312263734347
500.16699218750	67.757262192320	86.792857765592
501.66598510742	67.492196223279	87.305007932018
503.16500854492	67.266776251033	87.845587389530
504.66400146484	67.082446267561	88.411435151131
506.16299438477	66.940474811828	88.999354437466
507.66198730469	66.841944005509	89.606091387356
509.16101074219	66.787741915904	90.228397940117
510.66000366211	66.778569207768	90.862923231370
512.15899658203	66.814920142425	91.506387250433
513.65802001953	66.897112008755	92.155394786508
515.15698242188	67.025211734960	92.806579510927
516.65600585938	67.199133026745	93.456562468438
518.15502929688	67.418531393076	94.101990236599
519.65399169922	67.682829541265	94.739476753332
521.15301513672	67.991236469458	95.365676357786
522.65197753906	68.342714585736	95.977327327800
524.15100097656	68.735959185445	96.571199457941
525.65002441406	69.169448696694	97.144137159562
527.14898681641	69.641373451875	97.693099551891
528.64801025391	70.149738893164	98.215243714624
530.14697265625	70.692247077383	98.707790108849
531.64599609375	71.266401747648	99.168224940875
533.14501953125	71.869495142443	99.594180890740
534.64398193359	72.498614121669	99.983613140611
536.14300537109	73.150635840721	100.33468206054
537.64202880859	73.822357950236	100.64584976368
539.14099121094	74.510437276882	100.91586571079
540.64001464844	75.211378378414	101.14383466000
542.13897705078	75.921791171470	101.32914856499
543.63800048828	76.638008168186	101.47153624601
545.13702392578	77.356642787543	101.57108251428
546.63598632813	78.074283207532	101.62822504176
548.13500976563	78.787613502472	101.64366739992
549.63397216797	79.493403690618	101.61841396939
551.13299560547	80.188811537647	101.55380923797
552.63201904297	80.870790712253	101.45139251244
554.13098144531	81.536841192581	101.31293208823
555.63000488281	82.184589164012	101.14037756506
557.12902832031	82.812073465119	100.93595110465
558.62799072266	83.417292368386	100.70181837402
560.12701416016	83.998835776806	100.44038437961
561.62597656250	84.555450880636	100.15405641322
563.12500000000	85.086024556742	99.845184397082
564.62402343750	85.589912301487	99.516244845474
566.12298583984	86.066587685538	99.169579915736
567.62200927734	86.515763606550	98.807468343084
569.12097167969	86.937380013713	98.432132063617
570.61999511719	87.331732727583	98.045713520425
572.11901855469	87.698828375590	97.650123757395
573.61798095703	88.039416749654	97.247341278922
575.11700439453	88.353887269957	96.838937709211
576.61602783203	88.643003084194	96.426568918114
578.11499023438	88.907531618204	96.011683382534
579.61401367188	89.148172936777	95.595453864077
581.11297607422	89.365927734537	95.179141599373
582.61199951172	89.561616496568	94.763730033387
584.11102294922	89.736169456091	94.350084172451
585.60998535156	89.890455491981	93.938924620993
587.10900878906	90.025393553370	93.531001575804
588.60797119141	90.141856870648	93.126803994830
590.10699462891	90.240650514255	92.726807691586
591.60601806641	90.322627279894	92.331408979210
593.10498046875	90.388529656500	91.940864246462
594.60400390625	90.439120786543	91.555473364039
596.10302734375	90.475081415409	91.175369136990
597.60198974609	90.497051682977	90.800702387783
599.10101318359	90.505659612163	90.431584623185
600.59997558594	90.501470296210	90.068020797246
602.09899902344	90.484993946295	89.710090402832
603.59802246094	90.456726300598	89.357738398375
605.09698486328	90.417109642333	89.010931561731
606.59600830078	90.366563741460	88.669627034227
608.09497070313	90.305478484660	88.333776732812
609.59399414063	90.234131129841	88.003250364817
611.09301757813	90.152899880204	87.677997500136
612.59197998047	90.061981441866	87.357894075901
614.09100341797	89.961649339952	87.042827265404
