#Parameters = {a=1000; t=0.1}
#"Frequency / GHz"	"Z1,1 [Real/Imaginary Part] [Re]"	"Z1,1 [Real/Imaginary Part] [Im]"
#-------------------------------------------------------------------------------------
1.0000000000000	604.70304410087	-3796.8855104107
1.9989999532700	149.43077134508	-1935.1678623421
2.9979999065399	63.202190995902	-1293.9875801820
3.9969999790192	32.981795082098	-970.79277569633
4.9959998130798	19.093797803827	-776.12493428373
5.9949998855591	11.670946424520	-646.01254553209
6.9939999580383	7.3191884777313	-552.88732569602
7.9930000305176	4.6162515307960	-482.92465501507
8.9919996261597	2.8780997300960	-428.43104475173
9.9910001754761	1.7424187661139	-384.78480741011
10.989999771118	1.0011496234933	-349.04242744229
11.989000320435	0.52630227121931	-319.23976744008
12.987999916077	0.23639710738452	-294.01573842958
13.987000465393	0.076055447581821	-272.39685674856
14.986000061035	0.0065443798327961	-253.66832956544
15.984999656677	-2.0097808231714e-06	-237.29288424935
16.983999252319	0.036003395871820	-222.85857157093
17.982999801636	0.099027001158600	-210.04414401980
18.982000350952	0.17728429790769	-198.59497234987
19.981000900269	0.26190175416254	-188.30649828765
20.979999542236	0.34599176787618	-179.01242966024
21.979000091553	0.42447768725071	-170.57583549033
22.978000640869	0.49352390227750	-162.88321245984
23.976999282837	0.55068056020807	-155.83918326046
24.975999832153	0.59420979530233	-149.36339470086
25.975000381470	0.62340681028560	-143.38745646998
26.974000930786	0.63816401692738	-137.85289544633
27.972999572754	0.63896957505946	-132.70947903938
28.972000122070	0.62681986932851	-127.91390605578
29.971000671387	0.60318175959038	-123.42861194765
30.969999313354	0.56967091600094	-119.22116640644
31.968999862671	0.52822400571364	-115.26331760718
32.967998504639	0.48087436951010	-111.53061773534
33.966999053955	0.42964777289189	-108.00175314349
34.965999603271	0.37661845668934	-104.65824679071
35.965000152588	0.32363902639891	-101.48407102246
36.964000701904	0.27246418953477	-98.465220359372
37.963001251221	0.22461479120494	-95.589555989843
38.962001800537	0.18131105896198	-92.846523125754
39.960998535156	0.14355678390389	-90.226857909415
40.959999084473	0.11196848668170	-87.722424842257
41.958999633789	0.086986123148904	-85.326026032278
42.958000183105	0.068697435688305	-83.031258618406
43.957000732422	0.056908376759918	-80.832349431635
44.956001281738	0.051290427794350	-78.724072287435
45.955001831055	0.051245183154700	-76.701571268756
46.953998565674	0.056028716902520	-74.760345480188
47.952999114990	0.064818256626750	-72.896083832886
48.951999664307	0.076673024150904	-71.104816927676
49.951000213623	0.090660953067451	-69.382636355820
50.950000762939	0.10581884448810	-67.725752779049
51.949001312256	0.12126337997842	-66.130566203624
52.948001861572	0.13615997294221	-64.593476788694
53.946998596191	0.14979737698444	-63.111099164407
54.945999145508	0.16156888191170	-61.680074846235
55.944999694824	0.17102167554558	-60.297189092729
56.944000244141	0.17783985900504	-58.959333932446
57.943000793457	0.18188241795590	-57.663562263961
58.942001342773	0.18312971567278	-56.407117043484
59.941001892090	0.18171206727479	-55.187345502623
60.939998626709	0.17789040521655	-54.001891285125
61.938999176025	0.17201791631447	-52.848565177892
62.937999725342	0.16453107886674	-51.725280833887
63.937000274658	0.15593618697017	-50.630361041237
64.935997009277	0.14674137368181	-49.562189269537
65.934997558594	0.13748422203172	-48.519437126094
66.933998107910	0.12864572567056	-47.500947481238
67.932998657227	0.12068533367002	-46.505696048676
68.931999206543	0.11399263443024	-45.532845919376
69.930999755859	0.10885776661283	-44.581775780450
70.930000305176	0.10550687986393	-43.651828161642
71.929000854492	0.10404857397093	-42.742520405929
72.928001403809	0.10449384425585	-41.853393044808
73.927001953125	0.10676898906078	-40.984000497699
74.926002502441	0.11070104392548	-40.133962890368
75.925003051758	0.11605491976916	-39.302833404673
76.924003601074	0.12252932104511	-38.490172557565
77.922996520996	0.12977637178306	-37.695442708681
78.921997070313	0.13743187443090	-36.918124884682
79.920997619629	0.14511425319340	-36.157632349437
80.919998168945	0.15246687110827	-35.413301623958
81.918998718262	0.15915138366776	-34.684419128161
82.917999267578	0.16488224546916	-33.970268962674
83.916999816895	0.16942834803554	-33.270071066646
84.916000366211	0.17263062108600	-32.583036857532
85.915000915527	0.17439621291995	-31.908376417302
86.914001464844	0.17471441385498	-31.245326676437
87.913002014160	0.17364923615003	-30.593120354306
88.912002563477	0.17132912271090	-29.951080405587
89.911003112793	0.16795207664095	-29.318555297531
90.910003662109	0.16375574483385	-28.694982332956
91.908996582031	0.15902200795956	-28.079854861816
92.907997131348	0.15404811036740	-27.472781320180
93.906997680664	0.14911937191025	-26.873410849325
94.905998229980	0.14454749329860	-26.281503570386
95.904998779297	0.14058844298079	-25.696888927808
96.903999328613	0.13746590888053	-25.119453782506
97.902999877930	0.13535159678657	-24.549125640230
98.902000427246	0.13438212557857	-23.985914606779
99.901000976563	0.13460317167863	-23.429818128684
100.90000152588	0.13601725868927	-22.880854349906
101.89900207520	0.13856069248351	-22.339041985917
102.89800262451	0.14211798581691	-21.804389057911
103.89700317383	0.14652054685830	-21.276851786852
104.89600372314	0.15157537099424	-20.756389771675
105.89499664307	0.15704437807263	-20.242864716568
106.89399719238	0.16269878000996	-19.736128677001
107.89299774170	0.16829486712993	-19.235947282061
108.89199829102	0.17361407217853	-18.742078317039
109.89099884033	0.17846651012041	-18.254197948436
110.88999938965	0.18268862793731	-17.771969442730
111.88899993896	0.18618277721388	-17.295001886705
112.88800048828	0.18889764014396	-16.822924560218
113.88700103760	0.19082965124115	-16.355327564934
114.88600158691	0.19204337234835	-15.891838730555
115.88500213623	0.19265701191257	-15.432111459052
116.88400268555	0.19283628762108	-14.975810303248
117.88300323486	0.19279332060604	-14.522670606146
118.88200378418	0.19275596451278	-14.072472068585
119.88099670410	0.19297711673810	-13.625048065183
120.87999725342	0.19371891984589	-13.180304226120
121.87899780273	0.19522520299934	-12.738217889778
122.87799835205	0.19771296458702	-12.298799065019
123.87699890137	0.20138008877712	-11.862127496576
124.87599945068	0.20636821907526	-11.428313614783
125.87500000000	0.21276880108394	-10.997510954701
126.87400054932	0.22060561066333	-10.569885688731
127.87300109863	0.22986649059856	-10.145609975989
128.87199401855	0.24045451708085	-9.7248393098881
129.87100219727	0.25222915654505	-9.3077210021680
130.86999511719	0.26499670977032	-8.8943594173368
131.86900329590	0.27852929803083	-8.4848223111417
132.86799621582	0.29256023207125	-8.0791077916402
133.86700439453	0.30681369706609	-7.6771881739204
134.86599731445	0.32100369762037	-7.2789378424354
135.86500549316	0.33486768606308	-6.8842113687755
136.86399841309	0.34815521330984	-6.4927518824044
137.86300659180	0.36065860699809	-6.1043085897320
138.86199951172	0.37221858282278	-5.7185566378551
139.86099243164	0.38273140859685	-5.3351598409956
140.86000061035	0.39215421911957	-4.9537533259195
141.85899353027	0.40051394372612	-4.5739837551193
142.85800170898	0.40788558030260	-4.1954958323803
143.85699462891	0.41442638301640	-3.8179738411324
144.85600280762	0.42032508171835	-3.4411319916080
145.85499572754	0.42581161754202	-3.0647519626165
146.85400390625	0.43116514214224	-2.6886539868674
147.85299682617	0.43665967093850	-2.3127227766289
148.85200500488	0.44258124135241	-1.9369164575708
149.85099792480	0.44919894640304	-1.5612460167537
150.85000610352	0.45676020236574	-1.1857887537082
151.84899902344	0.46546865798125	-0.81066364826095
152.84800720215	0.47548531742501	-0.43602509361147
153.84700012207	0.48691356427482	-0.062082113406958
154.84599304199	0.49979495173499	0.31098022527373
155.84500122070	0.51412078709561	0.68295229723831
156.84399414063	0.52980581458580	1.0536413379000
157.84300231934	0.54672760602522	1.4228896451366
158.84199523926	0.56470454619861	1.7905741699758
159.84100341797	0.58353268823140	2.1566117540595
160.83999633789	0.60297322273403	2.5209963337453
161.83900451660	0.62278979389178	2.8837753738710
162.83799743652	0.64273872413202	3.2450412879064
163.83700561523	0.66261444721778	3.6049544769946
164.83599853516	0.68222482114159	3.9637319742183
165.83500671387	0.70143818220425	4.3216417586362
166.83399963379	0.72017796320263	4.6789512389649
167.83299255371	0.73842108504311	5.0359812890278
168.83200073242	0.75622001296740	5.3930380590980
169.83099365234	0.77367866791631	5.7504141084199
170.83000183105	0.79098055835322	6.1083768924192
171.82899475098	0.80834550163325	6.4671541721679
172.82800292969	0.82604480285472	6.8269189864089
173.82699584961	0.84438064372298	7.1877634232564
174.82600402832	0.86366355904163	7.5497481969219
175.82499694824	0.88420951435974	7.9128285669125
176.82400512695	0.90631598454055	8.2768947717923
177.82299804688	0.93024375260648	8.6417878637468
178.82200622559	0.95620531286508	9.0072720313353
179.82099914551	0.98436241909888	9.3730936326938
180.82000732422	1.0147960648000	9.7389310120157
181.81900024414	1.0475200656154	10.104470912095
182.81799316406	1.0824678710730	10.469398872477
183.81700134277	1.1194939378385	10.833412007252
184.81599426270	1.1583968310101	11.196248643062
185.81500244141	1.1988953073653	11.557696941525
186.81399536133	1.2406682975157	11.917607880056
187.81300354004	1.2833689150393	12.275919579328
188.81199645996	1.3266269212444	12.632635278176
189.81100463867	1.3700763309229	12.987818529202
190.80999755859	1.4133840185423	13.341660639678
191.80900573730	1.4562517924667	13.694384546724
192.80799865723	1.4984393403757	14.046287941551
193.80700683594	1.5397849996569	14.397703486610
194.80599975586	1.5801988543996	14.748984086882
195.80499267578	1.6196810286957	15.100494213898
196.80400085449	1.6583171527721	15.452575852539
197.80299377441	1.6962666840360	15.805521036710
198.80200195313	1.7337517403103	16.159559661379
199.80099487305	1.7710359056862	16.514842573843
200.80000305176	1.8084299224368	16.871428294339
201.79899597168	1.8462259074469	17.229268458018
202.79800415039	1.8847006160318	17.588216580483
203.79699707031	1.9240740054621	17.948034605930
204.79600524902	1.9644851705478	18.308363378864
205.79499816895	2.0059639691650	18.668785087621
206.79400634766	2.0484084996532	19.028843197641
207.79299926758	2.0915861893644	19.388048108923
208.79200744629	2.1350723414752	19.745905756330
209.79100036621	2.1783064244453	20.101988974677
210.78999328613	2.2205458351099	20.455949735568
211.78900146484	2.2609109099530	20.807578996898
212.78799438477	2.2983691288616	21.156799707463
213.78700256348	2.3318126307463	21.503793440217
214.78599548340	2.3600481099728	21.848894653075
215.78500366211	2.3818638265200	22.192748950335
216.78399658203	2.3961007247869	22.536249872488
217.78300476074	2.4016512061644	22.880526621910
218.78199768066	2.3975594511218	23.226989033208
219.78100585938	2.3830714424611	23.577291379944
220.77999877930	2.3576376836196	23.933243897093
221.77900695801	2.3210158431319	24.296854242621
222.77799987793	2.2732469790002	24.670234971929
223.77699279785	2.2146972572150	25.055506227029
224.77600097656	2.1460803157323	25.454858411716
225.77499389648	2.0684090326194	25.870346070495
226.77400207520	1.9830355884286	26.303972653279
227.77299499512	1.8915867732960	26.757573525309
228.77200317383	1.7959510697350	27.232760699734
229.77099609375	1.6982540786856	27.730940285127
230.77000427246	1.6007858094933	28.253248859447
231.76899719238	1.5060074431611	28.800547272571
232.76800537109	1.4165050142906	29.373464353275
233.76699829102	1.3349156970578	29.972254391262
234.76600646973	1.2639537143469	30.596956242104
235.76499938965	1.2063444236876	31.247303035423
236.76400756836	1.1648108020357	31.922702872637
237.76300048828	1.1420534926336	32.622316518847
238.76199340820	1.1407358433291	33.345003798501
239.76100158691	1.1634480657121	34.089346150059
240.75999450684	1.2126875055377	34.853601462473
241.75900268555	1.2908503226129	35.635756636215
242.75799560547	1.4001988868339	36.433479178200
243.75700378418	1.5428019373720	37.244126438183
244.75599670410	1.7205338621066	38.064736068183
245.75500488281	1.9349854658259	38.891985894047
246.75399780273	2.1874525509079	39.722291520396
247.75300598145	2.4788297500377	40.551702658992
248.75199890137	2.8095519341579	41.375977189665
249.75100708008	3.1795346644657	42.190657899973
250.75000000000	3.5880671217379	42.991076221614
251.74899291992	4.0337382332701	43.772411387066
252.74800109863	4.5143868784968	44.529876665170
253.74699401855	5.0270041493011	45.258781257065
254.74600219727	5.5677244039916	45.954649307412
255.74499511719	6.1318136413711	46.613520533579
256.74398803711	6.7136904885944	47.231997149065
257.74301147461	7.3070049222153	47.807500734308
258.74200439453	7.9047656857050	48.338462971877
259.74099731445	8.4994863887209	48.824468827325
260.73999023438	9.0834380825147	49.266395037341
261.73901367188	9.6488722071624	49.666476405662
262.73800659180	10.188304651037	50.028361766751
263.73699951172	10.694802015758	50.357010658172
264.73599243164	11.162215534904	50.658650174067
265.73498535156	11.585464377539	50.940545045555
266.73400878906	11.960699975390	51.210802109397
267.73300170898	12.285420271792	51.478154291580
268.73199462891	12.558533488393	51.751566655438
269.73098754883	12.780379536738	52.040096665267
270.73001098633	12.952636111267	52.352529739231
271.72900390625	13.078224546275	52.697262755600
272.72799682617	13.161135475540	53.082056446495
273.72698974609	13.206275756930	53.513950609354
274.72601318359	13.219281126312	53.999146816001
275.72500610352	13.206356337393	54.543007249242
276.72399902344	13.174078901721	55.150019900953
277.72299194336	13.129294700606	55.823883924334
278.72198486328	13.078980570069	56.567525234322
279.72100830078	13.030152310631	57.383115849706
280.72000122070	12.989817937173	58.272254137365
281.71899414063	12.964890830628	59.235916337849
282.71798706055	12.962222460273	60.274647043670
283.71701049805	12.988526267197	61.388487700883
284.71600341797	13.050420770840	62.577095419107
285.71499633789	13.154418531408	63.839798070368
286.71398925781	13.306915496599	65.175582781123
287.71301269531	13.514255543141	66.583135900708
288.71200561523	13.782664563568	68.060848139321
289.71099853516	14.118347563345	69.606888712479
290.70999145508	14.527363718488	71.219116750577
291.70901489258	15.015761108688	72.895148030209
292.70800781250	15.589515666110	74.632399070478
293.70700073242	16.254521703770	76.428056632776
294.70599365234	17.016620884955	78.279169018800
295.70498657227	17.881614069216	80.182615651710
296.70401000977	18.855300476160	82.135170190660
297.70300292969	19.943539340596	84.133575733209
298.70199584961	21.152262044699	86.174586485147
299.70098876953	22.487704607812	88.254928775875
300.70001220703	23.956409890729	90.371431920777
301.69900512695	25.565453881069	92.520862061499
302.69799804688	27.322664000212	94.700033863234
303.69699096680	29.236748071743	96.905533619234
304.69601440430	31.317607466481	99.133617077120
305.69500732422	33.576512179021	101.38001724001
306.69400024414	36.026318000147	103.63948222650
307.69299316406	38.681616154950	105.90536546493
308.69198608398	41.558849413091	108.16918231217
309.69100952148	44.676306485138	110.41990777100
310.69000244141	48.054084029938	112.64320755536
311.68899536133	51.713672652701	114.82068417291
312.68798828125	55.677633327947	116.92903643053
313.68701171875	59.968822554197	118.93909523640
314.68600463867	64.609368971931	120.81494644462
315.68499755859	69.619355257692	122.51305454802
316.68399047852	75.015076483464	123.98182775817
317.68301391602	80.807050632870	125.16104394738
318.68200683594	86.997375206440	125.98221755733
319.68099975586	93.577125771801	126.36902722653
320.67999267578	100.52332195785	126.23929904819
321.67898559570	107.79615449285	125.50716551877
322.67800903320	115.33648177805	124.08677308202
323.67700195313	123.06410821953	121.89696829279
324.67599487305	130.87743926378	118.86683985765
325.67498779297	138.65447708902	114.94158283351
326.67401123047	146.25595070570	110.08880085902
327.67300415039	153.53043995315	104.30383902452
328.67199707031	160.32108254021	97.613577961933
329.67098999023	166.47390473518	90.078437101280
330.67001342773	171.84636383955	81.791692356743
331.66900634766	176.31570489633	72.876121919992
332.66799926758	179.78597512289	63.478454638758
333.66699218750	182.19307191296	53.761811800670
334.66598510742	183.50726852684	43.897431667032
335.66500854492	183.73349623334	34.056062054288
336.66400146484	182.90896609443	24.400060920484
337.66299438477	181.09934175289	15.076831703726
338.66198730469	178.39350299508	6.2137049930549
339.66101074219	174.89754535140	-2.0853819839395
340.66000366211	170.72859349742	-9.7415410968808
341.65899658203	166.00899205649	-16.701033723573
342.65798950195	160.86095480147	-22.934105447679
343.65701293945	155.40210038594	-28.432829016768
344.65600585938	149.74172877296	-33.208161399286
345.65499877930	143.97837533491	-37.286717489700
346.65399169922	138.19803819469	-40.707237652610
347.65301513672	132.47339866979	-43.517221505584
348.65200805664	126.86382793240	-45.769725443707
349.65100097656	121.41572123679	-47.520831008438
350.64999389648	116.16397596868	-48.826759707450
351.64898681641	111.13257280208	-49.742759638683
352.64801025391	106.33661164158	-50.321089916725
353.64700317383	101.78347666669	-50.610265762999
354.64599609375	97.474348849321	-50.654526561526
355.64498901367	93.405272508162	-50.493482899591
356.64401245117	89.568938013154	-50.161876062622
357.64300537109	85.955131174010	-49.689876974072
358.64199829102	82.551824538432	-49.103250748653
359.64099121094	79.346252067331	-48.423601878746
360.64001464844	76.324973966936	-47.668870188669
361.63900756836	73.474712421753	-46.853692250158
362.63800048828	70.782661030003	-45.989764271600
363.63699340820	68.236741844940	-45.086323552976
364.63598632813	65.825830685349	-44.150551934525
365.63500976563	63.539830083465	-43.187891267897
366.63400268555	61.369791421335	-42.202500532246
367.63299560547	59.307861846507	-41.197492712750
368.63198852539	57.347258189936	-40.175274330661
369.63101196289	55.482191257762	-39.137779479345
370.63000488281	53.707748224847	-38.086671259011
371.62899780273	52.019748263228	-37.023503389016
372.62799072266	50.414608709687	-35.949829305947
373.62701416016	48.889211755138	-34.867325444650
374.62600708008	47.440750630495	-33.777752465568
375.62500000000	46.066608560240	-32.683047065095
376.62399291992	44.764231360256	-31.585222176255
377.62298583984	43.531084973390	-30.486407580257
378.62200927734	42.364521233808	-29.388721681973
379.62100219727	41.261762034452	-28.294235756651
380.61999511719	40.219907824142	-27.204923604183
381.61898803711	39.235856010519	-26.122548416789
382.61801147461	38.306384975757	-25.048623704032
383.61700439453	37.428141850175	-23.984342017861
384.61599731445	36.597731543581	-22.930516803482
385.61499023438	35.811725790887	-21.887567189588
386.61401367188	35.066759199768	-20.855447518288
387.61300659180	34.359621510173	-19.833676463119
388.61199951172	33.687293795885	-18.821314095394
389.61099243164	33.047070315654	-17.816992811938
390.60998535156	32.436621418456	-16.818960975030
391.60900878906	31.854054013288	-15.825108982379
392.60800170898	31.298014032595	-14.833078909689
393.60699462891	30.767684477276	-13.840314260584
394.60598754883	30.262857261275	-12.844164498711
395.60501098633	29.783937313636	-11.841985337105
396.60400390625	29.331939635233	-10.831225157575
397.60299682617	28.908467920415	-9.8095133420640
398.60198974609	28.515692066908	-8.7747752172942
399.60101318359	28.156292298962	-7.7252905599710
400.60000610352	27.833400691371	-6.6597240708581
401.59899902344	27.550563576062	-5.5772403735280
402.59799194336	27.311673051328	-4.4775000679816
