#Parameters = {w=5; s=24; i_y=110; i_x=110; eps_eff=6; a=2000; t=0.1}
#"Frequency / GHz"	"Z1,1 [Real/Imaginary Part] [Re]"	"Z1,1 [Real/Imaginary Part] [Im]"
#-------------------------------------------------------------------------------------
92.000000000000	0.080198336502266	-24.790339148340
92.508003234863	0.079979424566997	-24.496849886077
93.015998840332	0.079721076407390	-24.205463394196
93.524002075195	0.079431097538185	-23.916138039464
94.031997680664	0.079111327004466	-23.628837795126
94.540000915527	0.078767081041028	-23.343531874792
95.047996520996	0.078401623105613	-23.060151602269
95.555999755859	0.078015089913229	-22.778693651555
96.064002990723	0.077619047389675	-22.499109997393
96.571998596191	0.077213713000723	-22.221363063112
97.080001831055	0.076801741477650	-21.945413916514
97.587997436523	0.076392383750372	-21.671244904645
98.096000671387	0.075985747733397	-21.398816033683
98.603996276855	0.075589048642185	-21.128090956700
99.111999511719	0.075204179745630	-20.859041471294
99.620002746582	0.074841719036411	-20.591641339098
100.12799835205	0.074494754478084	-20.325850215350
100.63600158691	0.074179960510266	-20.061654210337
101.14399719238	0.073890327072580	-19.799016970937
101.65200042725	0.073637249477669	-19.537911072187
102.16000366211	0.073414331489298	-19.278321274919
102.66799926758	0.073240955303590	-19.020209851506
103.17600250244	0.073109880023539	-18.763548305096
103.68399810791	0.073030660316173	-18.508323508913
104.19200134277	0.072999802212173	-18.254506863718
104.69999694824	0.073032135064896	-18.002074870649
105.20800018311	0.073116816875477	-17.751011614931
105.71600341797	0.073270135661076	-17.501284771676
106.22399902344	0.073486434473389	-17.252881498841
106.73200225830	0.073772304085713	-17.005779784317
107.23999786377	0.074133008538874	-16.759948685847
107.74800109863	0.074562746607443	-16.515389007443
108.25599670410	0.075067537367511	-16.272058947700
108.76399993896	0.075657485184642	-16.029967308909
109.27200317383	0.076320927065205	-15.789060707864
109.77999877930	0.077075304547389	-15.549347525496
110.28800201416	0.077906456865088	-15.310802044878
110.79599761963	0.078830582353776	-15.073415824796
111.30400085449	0.079837284727822	-14.837158952901
111.81199645996	0.080934248908907	-14.602016084743
112.31999969482	0.082118114576453	-14.367974658864
112.82800292969	0.083399584579304	-14.135031114042
113.33599853516	0.084767218218276	-13.903147609044
113.84400177002	0.086226136521745	-13.672321696391
114.35199737549	0.087783381682939	-13.442551894954
114.86000061035	0.089424172373282	-13.213791956827
115.36799621582	0.091165554889218	-12.986059744153
115.87599945068	0.092990683517730	-12.759323713920
116.38400268555	0.094911584805010	-12.533566355037
116.89199829102	0.096925264561591	-12.308791934258
117.40000152588	0.099025915020396	-12.084973911798
117.90799713135	0.10122124686924	-11.862094268162
118.41600036621	0.10350068771155	-11.640154351452
118.92400360107	0.10586488560074	-11.419130656156
119.43199920654	0.10831752372649	-11.199019048803
119.94000244141	0.11085290415146	-10.979795576399
120.44799804688	0.11347485935162	-10.761461094493
120.95600128174	0.11617451289627	-10.543996283408
121.46399688721	0.11895389624275	-10.327384730320
121.97200012207	0.12180744672041	-10.111628326968
122.48000335693	0.12473801146863	-9.8966981660541
122.98799896240	0.12774361015163	-9.6825891006616
123.49600219727	0.13081304852752	-9.4692909754462
124.00399780273	0.13395519788168	-9.2567944924248
124.51200103760	0.13716071368875	-9.0450687239041
125.01999664307	0.14042899434655	-8.8341304454069
125.52799987793	0.14375535774406	-8.6239555624889
126.03600311279	0.14714309455722	-8.4145201638446
126.54399871826	0.15058216095769	-8.2058295737137
127.05200195313	0.15407245917917	-7.9978563470878
127.55999755859	0.15761434705978	-7.7906059918836
128.06799316406	0.16119889046365	-7.5840539070298
128.57600402832	0.16483014637730	-7.3782009894599
129.08399963379	0.16849932522724	-7.1730117219426
129.59199523926	0.17220332622097	-6.9684960277275
130.10000610352	0.17594637216885	-6.7646342859700
130.60800170898	0.17972012301915	-6.5614117204978
131.11599731445	0.18351959835401	-6.3588252652827
131.62399291992	0.18734404618377	-6.1568501080847
132.13200378418	0.19119575875903	-5.9554798753454
132.63999938965	0.19506607822996	-5.7547023072266
133.14799499512	0.19895399013016	-5.5545062588031
133.65600585938	0.20285588884501	-5.3548784033856
134.16400146484	0.20677466573449	-5.1558114437820
134.67199707031	0.21069899865811	-4.9572845745872
135.17999267578	0.21463171530121	-4.7592908271767
135.68800354004	0.21857411528326	-4.5618069222895
136.19599914551	0.22251982695856	-4.3648423891793
136.70399475098	0.22646621658504	-4.1683608633718
137.21200561523	0.23041253690022	-3.9723670226704
137.72000122070	0.23435689799132	-3.7768357029152
138.22799682617	0.23829872205294	-3.5817614130989
138.73599243164	0.24223555596699	-3.3871310014616
139.24400329590	0.24616550143734	-3.1929381791694
139.75199890137	0.25008815508141	-2.9991523766063
140.25999450684	0.25400662014649	-2.8057737535027
140.76800537109	0.25791043955927	-2.6127895472199
141.27600097656	0.26180869035904	-2.4201880885829
141.78399658203	0.26569324884325	-2.2279453152999
142.29200744629	0.26956978402957	-2.0360669630026
142.80000305176	0.27343490197849	-1.8445230871940
143.30799865723	0.27728897982032	-1.6533085170374
143.81599426270	0.28113522770995	-1.4624229276638
144.32400512695	0.28496711241889	-1.2718244060433
144.83200073242	0.28879108826624	-1.0815315436968
145.33999633789	0.29260575988340	-0.89150881448921
145.84800720215	0.29641393136403	-0.70175662814990
146.35600280762	0.30021298596393	-0.51225742198156
146.86399841309	0.30401041557957	-0.32300581759693
147.37199401855	0.30779876145932	-0.13398429248543
147.88000488281	0.31158687581204	0.054818471402054
148.38800048828	0.31537444961091	0.24341384643608
148.89599609375	0.31915955305949	0.43181308579602
149.40400695801	0.32295221944929	0.62002759129201
149.91200256348	0.32674709893728	0.80807422987134
150.41999816895	0.33055108796576	0.99595869609574
150.92799377441	0.33436484641307	1.1836921140632
151.43600463867	0.33819078607830	1.3712792927426
151.94400024414	0.34203707003123	1.5587558502755
152.45199584961	0.34589667440305	1.7461024824396
152.96000671387	0.34978086026864	1.9333484214085
153.46800231934	0.35368914775490	2.1204928980864
153.97599792480	0.35762768640742	2.3075649948346
154.48399353027	0.36159767640051	2.4945455339759
154.99200439453	0.36560378955952	2.6814759575657
155.50000000000	0.36964833539664	2.8683430899148
156.00799560547	0.37373827405445	3.0551760663206
156.51600646973	0.37787170505609	3.2419614048381
157.02400207520	0.38205828952912	3.4287289468256
157.53199768066	0.38629865267436	3.6154712891450
158.03999328613	0.39059999148206	3.8022117065673
158.54800415039	0.39496683717407	3.9889490191018
159.05599975586	0.39939643116903	4.1756997689939
159.56399536133	0.40390145621669	4.3624703502514
160.07200622559	0.40848431533771	4.5492648127498
160.58000183105	0.41314312669927	4.7360941549971
161.08799743652	0.41789130859295	4.9229703665438
161.59599304199	0.42272653284506	5.1098908664771
162.10400390625	0.42765796583674	5.2968740977018
162.61199951172	0.43268201686595	5.4839242346630
163.11999511719	0.43781352749308	5.6710478882313
163.62800598145	0.44305100760839	5.8582481849506
164.13600158691	0.44839888492700	6.0455370690429
164.64399719238	0.45386479194076	6.2329262213814
165.15199279785	0.45944867034835	6.4204139981955
165.66000366211	0.46515525854227	6.6080058618215
166.16799926758	0.47099287882062	6.7957123181594
166.67599487305	0.47695827731992	6.9835452459883
167.18400573730	0.48306776897490	7.1714987162846
167.69200134277	0.48931253944152	7.3595935306655
168.19999694824	0.49570299835585	7.5478180709554
168.70799255371	0.50224114627099	7.7361898358646
169.21600341797	0.50893091603053	7.9247197204431
169.72399902344	0.51577590658194	8.1133947878650
170.23199462891	0.52278124215125	8.3022386228949
170.74000549316	0.52994874355202	8.4912499846991
171.24800109863	0.53728143236926	8.6804345529526
171.75599670410	0.54478274200858	8.8697973065375
172.26400756836	0.55245430887173	9.0593349960507
172.77200317383	0.56030755633087	9.2490773298978
173.27999877930	0.56833674855016	9.4390057194147
173.78799438477	0.57654204646727	9.6291269989039
174.29600524902	0.58493455010804	9.8194591564126
174.80400085449	0.59351391591538	10.010002157373
175.31199645996	0.60228179812253	10.200760021481
175.82000732422	0.61124088255076	10.391738835574
176.32800292969	0.62039399975888	10.582944707199
176.83599853516	0.62974040127901	10.774380358616
177.34399414063	0.63928703923511	10.966047413241
177.85200500488	0.64903197125499	11.157963656887
178.36000061035	0.65897528318468	11.350119489433
178.86799621582	0.66912633587816	11.542531632806
179.37600708008	0.67947661755263	11.735205707339
179.88400268555	0.69003212931748	11.928132546286
180.39199829102	0.70079744902729	12.121342795129
180.89999389648	0.71176489527568	12.314819302643
181.40800476074	0.72294861503440	12.508581241809
181.91600036621	0.73433550794047	12.702626347982
182.42399597168	0.74593935492259	12.896964450503
182.93200683594	0.75775094035148	13.091606981132
183.44000244141	0.76977373228432	13.286559091851
183.94799804688	0.78201016332498	13.481814835874
184.45599365234	0.79446564793440	13.677393437494
184.96400451660	0.80712690132275	13.873303402457
185.47200012207	0.82000814697494	14.069542291025
185.97999572754	0.83310343820705	14.266132280882
186.48800659180	0.84641265329196	14.463060128960
186.99600219727	0.85993731612492	14.660348441304
187.50399780273	0.87367686491368	14.858000953981
188.01199340820	0.88763614992300	15.056028678315
188.52000427246	0.90180885862939	15.254441407251
189.02799987793	0.91619615817090	15.453231418945
189.53599548340	0.93080549797017	15.652433566378
190.04400634766	0.94562517157138	15.852035329875
190.55200195313	0.96066869728792	16.052059546409
191.05999755859	0.97592692394041	16.252505218102
191.56799316406	0.99140537773591	16.453391889314
192.07600402832	1.0071044042351	16.654722930783
192.58399963379	1.0230232837667	16.856517812815
193.09199523926	1.0391566227412	17.058764652859
193.60000610352	1.0555140540965	17.261503555296
194.10800170898	1.0720923926554	17.464728499186
194.61599731445	1.0888921361732	17.668460074557
195.12399291992	1.1059203255026	17.872702069902
195.63200378418	1.1231643281686	18.077458009375
196.13999938965	1.1406422300113	18.282762917129
196.64799499512	1.1583404860401	18.488612915623
197.15600585938	1.1762738055897	18.695022535476
197.66400146484	1.1944292876957	18.902006416917
198.17199707031	1.2128268130234	19.109581594997
198.67999267578	1.2314564951161	19.317753742320
199.18800354004	1.2503157786429	19.526544288533
199.69599914551	1.2694192253404	19.735966224945
200.20399475098	1.2887645049316	19.946022237643
200.71200561523	1.3083586266357	20.156752966175
201.22000122070	1.3281919949085	20.368139711520
201.72799682617	1.3482857320346	20.580232097108
202.23599243164	1.3686320465628	20.793017914651
202.74400329590	1.3892357915625	21.006521998771
203.25199890137	1.4101028654044	21.220763016095
203.75999450684	1.4312365356549	21.435752070175
204.26800537109	1.4526466324456	21.651512276423
204.77600097656	1.4743326279344	21.868051219589
205.28399658203	1.4962939799281	22.085384384405
205.79200744629	1.5185521355027	22.303545311694
206.30000305176	1.5411053983412	22.522540931147
206.80799865723	1.5639600586327	22.742383807844
207.31599426270	1.5871169342916	22.963091821322
207.82400512695	1.6105923197305	23.184694739855
208.33200073242	1.6343915582943	23.407202029744
208.83999633789	1.6585148422886	23.630622915585
209.34800720215	1.6829807103769	23.854996840449
209.85600280762	1.7077863338203	24.080321135438
210.36399841309	1.7329500035361	24.306623825480
210.87199401855	1.7584802514118	24.533934155300
211.38000488281	1.7843785844409	24.762254665054
211.88800048828	1.8106629245342	24.991607884188
212.39599609375	1.8373350351247	25.222012252545
212.90400695801	1.8644148287728	25.453500063345
213.41200256348	1.8919107609128	25.686073062154
213.91999816895	1.9198303586511	25.919764390499
214.42799377441	1.9481838507909	26.154588054642
214.93600463867	1.9769898724420	26.390562553726
215.44400024414	2.0062618463967	26.627723615710
215.95199584961	2.0360008151962	26.866058802700
216.46000671387	2.0662330027847	27.105618524589
216.96800231934	2.0969675710665	27.346408537416
217.47599792480	2.1282187032037	27.588474370541
217.98399353027	2.1599954130079	27.831784295364
218.49200439453	2.1923177921298	28.076415178031
219.00000000000	2.2252035700446	28.322351128451
219.50799560547	2.2586690545550	28.569638289056
220.01600646973	2.2927225257149	28.818279779996
220.52400207520	2.3273796776886	29.068293458527
221.03199768066	2.3626658167389	29.319724836332
221.53999328613	2.3985957391997	29.572574145388
222.04800415039	2.4351895958651	29.826874464329
222.55599975586	2.4724542437786	30.082632335132
223.06399536133	2.5104202401268	30.339894164996
223.57200622559	2.5491044775701	30.598661176578
224.08000183105	2.5885215912816	30.858969585005
224.58799743652	2.6286915551136	31.120824287954
225.09599304199	2.6696422806670	31.384271315502
225.60400390625	2.7113862394618	31.649319148675
226.11199951172	2.7539465750347	31.915985299396
226.61999511719	2.7973439061413	32.184301142065
227.12800598145	2.8416043840675	32.454288576048
227.63600158691	2.8867426623624	32.725966086783
228.14399719238	2.9327890721190	32.999361927221
228.65199279785	2.9797680419803	33.274502077604
229.16000366211	3.0276928885595	33.551404593220
229.66799926758	3.0765979908232	33.830097820235
230.17599487305	3.1265064346367	34.110612826960
230.68400573730	3.1774360387226	34.392956591180
231.19200134277	3.2294133419168	34.677159073441
231.69999694824	3.2824758352228	34.963243987701
232.20799255371	3.3366400221719	35.251252061961
232.71600341797	3.3919354054696	35.541191568059
233.22399902344	3.4483891050862	35.833093982303
233.73199462891	3.5060295553955	36.126986007617
234.24000549316	3.5648820763885	36.422891267002
234.74800109863	3.6249791157851	36.720835547267
235.25599670410	3.6863527549976	37.020855414317
235.76400756836	3.7490299424678	37.322964765024
236.27200317383	3.8130452388181	37.627202070838
236.77999877930	3.8784261362771	37.933584275197
237.28799438477	3.9452008295179	38.242150162830
237.79600524902	4.0134120415452	38.552914497020
238.30400085449	4.0830852569434	38.865918477033
238.81199645996	4.1542589391297	39.181198612251
239.32000732422	4.2269692909168	39.498763874928
239.82800292969	4.3012420990751	39.818646980063
240.33599853516	4.3771282060882	40.140903559236
240.84399414063	4.4546491151974	40.465537125805
241.35200500488	4.5338584522022	40.792604976406
241.86000061035	4.6147842609618	41.122113040182
242.36799621582	4.6974658743858	41.454110748835
242.87600708008	4.7819557939213	41.788628454943
243.38400268555	4.8682776681068	42.125681206082
243.89199829102	4.9564868799054	42.465342549619
244.39999389648	5.0466208242823	42.807625015965
244.90800476074	5.1387359077884	43.152560723572
245.41600036621	5.2328558329076	43.500188696519
245.92399597168	5.3290480209272	43.850561324661
246.43200683594	5.4273486216435	44.203694148431
246.94000244141	5.5278144222447	44.559644546334
247.44799804688	5.6304929288209	44.918449534766
247.95599365234	5.7354290236977	45.280125158622
248.46400451660	5.8426860236826	45.644751032046
248.97200012207	5.9523158857500	46.012344174073
249.47999572754	6.0643731967830	46.382955420001
249.98800659180	6.1789163374154	46.756612064857
250.49600219727	6.2960078513886	47.133387102810
251.00399780273	6.4157106467190	47.513309877646
251.51199340820	6.5380778906218	47.896434750638
252.02000427246	6.6631803900622	48.282790772662
252.52799987793	6.7910957602365	48.672453392745
253.03599548340	6.9218685510287	49.065446030096
253.54400634766	7.0555875165369	49.461821008948
254.05200195313	7.1923274378708	49.861658050200
254.55999755859	7.3321557337008	50.264967259894
255.06799316406	7.4751607468543	50.671840720594
255.57600402832	7.6214138909072	51.082301780999
256.08401489258	7.7710003256038	51.496433058137
256.59201049805	7.9240059212036	51.914269908311
257.10000610352	8.0805227036208	52.335872349116
257.60800170898	8.2406385730353	52.761301233440
258.11599731445	8.4044509097171	53.190606486617
258.62399291992	8.5720651483532	53.623887231321
259.13198852539	8.7435662408569	54.061145493306
259.64001464844	8.9190704038289	54.502480755435
260.14801025391	9.0986909028786	54.947959710319
260.65600585938	9.2825313196781	55.397620637772
261.16400146484	9.4707148983685	55.851556559325
261.67199707031	9.6633592122363	56.309834194951
262.17999267578	9.8605880284328	56.772479883965
262.68798828125	10.062530515252	57.239604726381
263.19601440430	10.269325393317	57.711260639048
263.70401000977	10.481117033043	58.187502332157
264.21200561523	10.698035823620	58.668430060735
264.72000122070	10.920240791679	59.154100191240
265.22799682617	11.147893583238	59.644593392442
265.73599243164	11.381143543712	60.139956805924
266.24398803711	11.620160441911	60.640302356815
266.75201416016	11.865123502657	61.145671301804
267.26000976563	12.116206026501	61.656139535335
267.76800537109	12.373601792234	62.171804285762
268.27600097656	12.637497745406	62.692723618301
268.78399658203	12.908088216786	63.218968131648
269.29199218750	13.185608523174	63.750627984573
269.79998779297	13.470255130436	64.287755307688
270.30801391602	13.762261008999	64.830453116450
270.81600952148	14.061854009034	65.378775883804
271.32400512695	14.369281004556	65.932791009842
271.83200073242	14.684793162527	66.492584477620
272.33999633789	15.008647346470	67.058207336560
272.84799194336	15.341135032356	67.629774269947
273.35598754883	15.682514966556	68.207295932893
273.86401367188	16.033101646850	68.790873734279
274.37200927734	16.393191165738	69.380564634066
274.88000488281	16.763080320040	69.976425685139
275.38800048828	17.143144091372	70.578543116280
275.89599609375	17.533675868177	71.186888675436
276.40399169922	17.935069169189	71.801626181955
276.91198730469	18.347684243321	72.422745988250
277.42001342773	18.771893906179	73.050276215903
277.92800903320	19.208094612035	73.684301460671
278.43600463867	19.656728402851	74.324829031686
278.94400024414	20.118186227002	74.971873902873
279.45199584961	20.592944014981	75.625455372817
279.95999145508	21.081450495016	76.285615576618
280.46798706055	21.584196846868	76.952326966672
280.97601318359	22.101684376957	77.625604837109
281.48400878906	22.634411439154	78.305407380672
281.99200439453	23.182966297596	78.991766068527
282.50000000000	23.747870307368	79.684620851067
283.00799560547	24.329715731878	80.383894735991
283.51599121094	24.929089915413	81.089500699931
284.02398681641	25.546629676159	81.801382193157
284.53201293945	26.183030588266	82.519531391705
285.04000854492	26.838870613590	83.243656622472
285.54800415039	27.514937617959	83.973797311589
286.05599975586	28.211890370110	84.709641671860
286.56399536133	28.930534964817	85.451120898653
287.07199096680	29.671594013874	86.197963172900
287.57998657227	30.435893194551	86.949950742746
288.08801269531	31.224265095819	87.706835755770
288.59600830078	32.037576398251	88.468305137393
289.10400390625	32.876682001836	89.234006714383
289.61199951172	33.742552073235	90.003614445691
290.11999511719	34.636056054945	90.776630794227
290.62799072266	35.558226962976	91.552695846584
291.13598632813	36.510051122908	92.331250681355
291.64401245117	37.492551046833	93.111754364582
292.15200805664	38.506867061061	93.893676693985
292.66000366211	39.553922521708	94.676130023499
293.16799926758	40.635012249003	95.458651946732
293.67599487305	41.751157022251	96.240224558680
294.18399047852	42.903573777180	97.020049455586
294.69198608398	44.093449047660	97.797208118923
295.20001220703	45.321997858179	98.570644169224
295.70800781250	46.590470289602	99.339214790918
296.21600341797	47.900079478088	100.10171800218
