#Parameters = {a=1500; t=0.1}
#"Frequency / GHz"	"Z1,1 [Real/Imaginary Part] [Re]"	"Z1,1 [Real/Imaginary Part] [Im]"
#-------------------------------------------------------------------------------------
1.0000000000000	221.79907191079	-1590.1201393993
1.9989999532700	54.993803779668	-806.05533781130
2.9979999065399	23.550046468248	-537.67937209661
3.9969999790192	12.523309446443	-402.36641371380
4.9959998130798	7.4367174322956	-320.70387712880
5.9949998855591	4.6975235218830	-265.95745798962
6.9939999580383	3.0713808068119	-226.62013386814
7.9930000305176	2.0416208101139	-196.92526890552
8.9919996261597	1.3608493516220	-173.66473690282
9.9910001754761	0.89823122072106	-154.91200462787
10.989999771118	0.57929537430391	-139.44020275894
11.989000320435	0.35891887191523	-126.43097940477
12.987999916077	0.20832836979603	-115.31752285033
13.987000465393	0.10850293787190	-105.69474101313
14.986000061035	0.046279231081238	-97.265375448648
15.984999656677	0.012369950964535	-89.806297530748
16.983999252319	-4.8664397223675e-07	-83.146741227822
17.982999801636	0.0041303472337141	-77.153726276160
18.982000350952	0.020932484777133	-71.722125613998
19.981000900269	0.047483208904534	-66.767686598779
20.979999542236	0.081490070387412	-62.222106308749
21.979000091553	0.12114295466641	-58.029349563668
22.978000640869	0.16501730686285	-54.143016999784
23.976999282837	0.21197209884508	-50.524319881039
24.975999832153	0.26111622022716	-47.140614848645
25.975000381470	0.31172998527583	-43.964130077577
26.974000930786	0.36325346001492	-40.971141507981
27.972999572754	0.41525555966106	-38.141176188483
28.972000122070	0.46740942684395	-35.456535852395
29.971000671387	0.51948085008411	-32.901773958718
30.969999313354	0.57131677167131	-30.463347213913
31.968999862671	0.62284062343841	-28.129308972153
32.967998504639	0.67403249000940	-25.889074896960
33.966999053955	0.72494269550610	-23.733184722861
34.965999603271	0.77567670967218	-21.653204390999
35.965000152588	0.82639713393146	-19.641511547955
36.964000701904	0.87734031307481	-17.691225981772
37.963001251221	0.92879292508084	-15.796068533122
38.962001800537	0.98111269522543	-13.950329922443
39.960998535156	1.0347212908962	-12.148746317762
40.959999084473	1.0901243495288	-10.386472838514
41.958999633789	1.1479002897624	-8.6590146911485
42.958000183105	1.2087336178581	-6.9622201815181
43.957000732422	1.2733857322942	-5.2921666804376
44.956001281738	1.3427453963713	-3.6452221895824
45.955001831055	1.4177965728369	-2.0179596622422
46.953998565674	1.4996686544211	-0.40714962315311
47.952999114990	1.5896271988567	1.1902364921106
48.951999664307	1.6890877427441	2.7770625491941
49.951000213623	1.7996317011052	4.3560119447735
50.950000762939	1.9230275716808	5.9296335713602
51.949001312256	2.0612389247926	7.5002579683771
52.948001861572	2.2164561356148	9.0701001928899
53.946998596191	2.3910853517914	10.641138683108
54.945999145508	2.5878055226007	12.215196917832
55.944999694824	2.8095568468212	13.793834950723
56.944000244141	3.0595756160874	15.378374506304
57.943000793457	3.3413956839297	16.969826514143
58.942001342773	3.6588889608095	18.568870430860
59.941001892090	4.0162545040527	20.175785430125
60.939998626709	4.4180184828711	21.790348454737
61.938999176025	4.8690440800149	23.411792369002
62.937999725342	5.3744928670493	25.038691323239
63.937000274658	5.9398076727134	26.668876131232
64.935997009277	6.5706145552942	28.299250190386
65.934997558594	7.2726623915918	29.925757904811
66.933998107910	8.0516888105343	31.543199075604
67.932998657227	8.9132323958207	33.145110599477
68.931999206543	9.8624556804519	34.723700459062
69.930999755859	10.903826785792	36.269731366321
70.930000305176	12.040835436346	37.772509372593
71.929000854492	13.275636988908	39.219931660572
72.928001403809	14.608636963960	40.598638047378
73.927001953125	16.038124908953	41.894204512629
74.926002502441	17.559853880366	43.091514182580
75.925003051758	19.166755698403	44.175281067691
76.924003601074	20.848740210671	45.130649083850
77.922996520996	22.592601322711	45.943837332408
78.921997070313	24.382178433653	46.602973365342
79.920997619629	26.198715248534	47.098770432641
80.919998168945	28.021446270259	47.425243165589
81.918998718262	29.828297005639	47.580091560316
82.917999267578	31.596877171609	47.565052022191
83.916999816895	33.305318769959	47.385823036889
84.916000366211	34.933274390292	47.051863568574
85.915000915527	36.462577545844	46.575743940974
86.914001464844	37.877915768639	45.972600162978
87.913002014160	39.167049720989	45.259228340385
88.912002563477	40.320977383089	44.453380806885
89.911003112793	41.333692546323	43.572987377300
90.910003662109	42.201977636606	42.635623619649
91.908996582031	42.924887698408	41.658032987192
92.907997131348	43.503442252593	40.655985633922
93.906997680664	43.940147131550	39.644106876823
94.905998229980	44.238618432808	38.635888762884
95.904998779297	44.403399050612	37.643827063128
96.903999328613	44.439758077168	36.679502990474
97.902999877930	44.353675315851	35.753722545618
98.902000427246	44.151709078870	34.876530360113
99.901000976563	43.841168730815	34.057307530178
100.90000152588	43.430002541989	33.304666128191
101.89900207520	42.926885107022	32.626402816866
102.89800262451	42.341166310979	32.029383900708
103.89700317383	41.682807656148	31.519430868589
104.89600372314	40.962187354178	31.101146625278
105.89499664307	40.190098226732	30.777950981861
106.89399719238	39.377385375315	30.551877306681
107.89299774170	38.534863471179	30.423692211364
108.89199829102	37.673051684228	30.392859394527
109.89099884033	36.802045828129	30.457641737765
110.88999938965	35.931357812377	30.615273138947
111.88899993896	35.069737894694	30.861990810486
112.88800048828	34.225154624966	31.193234228712
113.88700103760	33.404716043138	31.603816043463
114.88600158691	32.614654410826	32.088038389404
115.88500213623	31.860293857627	32.639789870330
116.88400268555	31.146110301824	33.252721329217
117.88300323486	30.475710218033	33.920287558722
118.88200378418	29.851918067117	34.635880418094
119.88099670410	29.276727967284	35.392830398498
120.87999725342	28.751394088010	36.184537123908
121.87899780273	28.276403172256	37.004450658749
122.87799835205	27.851514296933	37.846198210316
123.87699890137	27.475773277655	38.703644290247
124.87599945068	27.147449515872	39.570821161914
125.87500000000	26.864159507306	40.442224083455
126.87400054932	26.622799683886	41.312760848216
127.87300109863	26.419558169900	42.177852123492
128.87199401855	26.250084476499	43.033651002311
129.87100219727	26.109406523806	43.877002127097
130.86999511719	25.992206027019	44.705695122852
131.86900329590	25.892850969663	45.518502988671
132.86799621582	25.805603801986	46.315238648946
133.86700439453	25.724791685912	47.096763538513
134.86599731445	25.645062585038	47.865062100864
135.86500549316	25.561559723401	48.623137872969
136.86399841309	25.470092766555	49.374853173379
137.86300659180	25.367396977819	50.124854473242
138.86199951172	25.251210680975	50.878418630368
139.86099243164	25.120336560151	51.641049683170
140.86000061035	24.974719102022	52.418390160839
141.85899353027	24.815434013497	53.216033843675
142.85800170898	24.644544164182	54.039136267388
143.85699462891	24.465110494507	54.892427009397
144.85600280762	24.280955604041	55.779892088126
145.85499572754	24.096482124133	56.704725569575
146.85400390625	23.916577543745	57.669228831834
147.85299682617	23.746350212968	58.674773756379
148.85200500488	23.590956480871	59.721755333988
149.85099792480	23.455452619907	60.809694835288
150.85000610352	23.344593382613	61.937195635755
151.84899902344	23.262604814203	63.101970017583
152.84800720215	23.213099774319	64.301132259906
153.84700012207	23.198843714944	65.531092279606
154.84599304199	23.221629020124	66.787898510485
155.84500122070	23.282156837848	68.067364829226
156.84399414063	23.379873884500	69.365308505198
157.84300231934	23.512968513305	70.677852403964
158.84199523926	23.678269629101	72.001741726007
159.84100341797	23.871388744103	73.334736453130
160.83999633789	24.086749641463	74.675974953644
161.83900451660	24.317898895475	76.026298184588
162.83799743652	24.557761879308	77.388680704188
163.83700561523	24.799075410281	78.768420399485
164.83599853516	25.034900205690	80.173476402686
165.83500671387	25.259096688945	81.614464580249
166.83399963379	25.466913161060	83.104757432981
167.83299255371	25.655544833388	84.660409907095
168.83200073242	25.824620659724	86.299906287782
169.83099365234	25.976731863777	88.044145150867
170.83000183105	26.117808306204	89.916076282565
171.82899475098	26.257533392241	91.940624555244
172.82800292969	26.409822305516	94.144514889853
173.82699584961	26.593272090316	96.556412806545
174.82600402832	26.831882378892	99.206829797319
175.82499694824	27.155955407221	102.12846878163
176.82400512695	27.603492928787	105.35640657426
177.82299804688	28.222035017460	108.92831944335
178.82200622559	29.071310644802	112.88458907966
179.82099914551	30.227076458991	117.26815914653
180.82000732422	31.786060131876	122.12331773581
181.81900024414	33.872922401158	127.49374616150
182.81799316406	36.649719354769	133.41758641597
183.81700134277	40.327858934426	139.91851437788
184.81599426270	45.183263893059	146.98979239377
185.81500244141	51.573130972697	154.56581649202
186.81399536133	59.950706257651	162.47406859503
187.81300354004	70.865968948919	170.35758420662
188.81199645996	84.928117251367	177.55861157180
189.81100463867	102.68032175844	182.96876189169
190.80999755859	124.31471528080	184.89941100301
191.80900573730	149.17460199751	181.12886898944
192.80799865723	175.15786132127	169.40844923612
193.80700683594	198.51813819990	148.61453852557
194.80599975586	214.79929348481	120.08445372534
195.80499267578	220.88889285880	87.840344263840
196.80400085449	216.65655339718	56.935366011672
197.80299377441	204.65095629054	31.165504786689
198.80200195313	188.37451629312	12.023652598684
199.80099487305	170.78307806665	-0.83691748402670
200.80000305176	153.75047379777	-8.6242914979670
201.79899597168	138.20537122107	-12.680159321383
202.79800415039	124.46364553633	-14.145003383179
203.79699707031	112.51223199019	-13.877705402781
204.79600524902	102.19070518630	-12.485282206017
205.79499816895	93.290483446481	-10.381907437333
206.79400634766	85.602906041944	-7.8444531502271
207.79299926758	78.939578133493	-5.0556287573684
208.79200744629	73.138440320218	-2.1347336538812
209.79100036621	68.063722191652	0.84118856740045
210.78999328613	63.603172945429	3.8231382804531
211.78900146484	59.664607147657	6.7806676893910
212.78799438477	56.172513737539	9.6955542227403
213.78700256348	53.065063538449	12.557583634723
214.78599548340	50.291582913396	15.361723850500
215.78500366211	47.810461032558	18.106217988420
216.78399658203	45.587467389028	20.791302245470
217.78300476074	43.594354635173	23.418320477268
218.78199768066	41.807755549904	25.989117192979
219.78100585938	40.208269065522	28.505646579766
220.77999877930	38.779678557054	30.969647600530
221.77900695801	37.508336905979	33.382485247808
222.77799987793	36.382618291861	35.744990737920
223.77699279785	35.392435088009	38.057439909897
224.77600097656	34.528820918573	40.319459278025
225.77499389648	33.783589122967	42.530147029437
226.77400207520	33.148946951547	44.688050322816
227.77299499512	32.617235975618	46.791322325614
228.77200317383	32.180706768933	48.837906705974
229.77099609375	31.831261081247	50.825677465529
230.77000427246	31.560397915097	52.752748475321
231.76899719238	31.359083723492	54.617737561011
232.76800537109	31.217820434939	56.419969091907
233.76699829102	31.126765824410	58.159854981967
234.76600646973	31.075881130363	59.838994055702
235.76499938965	31.055214977611	61.460507105711
236.76400756836	31.055272965304	63.028986096279
237.76300048828	31.067257064028	64.550512729836
238.76199340820	31.083558879191	66.032671545221
239.76100158691	31.097947095258	67.484231742566
240.75999450684	31.105880654086	68.914889594327
241.75900268555	31.104687192571	70.334932009817
242.75799560547	31.093601741325	71.754953423042
243.75700378418	31.073854375282	73.185408745190
244.75599670410	31.048475499176	74.636263946812
245.75500488281	31.022240428932	76.116816856981
246.75399780273	31.001442497796	77.635269128932
247.75300598145	30.993665043154	79.198774767245
248.75199890137	31.007589275459	80.813050579562
249.75100708008	31.052735481748	82.482482940703
250.75000000000	31.139305915091	84.210012684834
251.74899291992	31.277899787899	85.996989644782
252.74800109863	31.479415881047	87.843380014740
253.74699401855	31.754800481416	89.747606372004
254.74600219727	32.114911615612	91.706581101057
255.74499511719	32.570388995557	93.715748976882
256.74398803711	33.131326832152	95.769121342767
257.74301147461	33.807227126835	97.859385725392
258.74200439453	34.606747696675	99.977885827084
259.74099731445	35.537499145786	102.11491805493
260.73999023438	36.605923598549	104.25963956311
261.73901367188	37.817035993163	106.40070556126
262.73800659180	39.174470021479	108.52606670910
263.73699951172	40.680360236587	110.62374664530
264.73599243164	42.335433960078	112.68182673014
265.73498535156	44.139232491607	114.68905332121
266.73400878906	46.090337046471	116.63484686046
267.73300170898	48.186802703495	118.50968527069
268.73199462891	50.426734212255	120.30511572157
269.73098754883	52.808651645117	122.01366237166
270.73001098633	55.332212943836	123.62836655314
271.72900390625	57.998565916526	125.14248659025
272.72799682617	60.810741291003	126.54863688441
273.72698974609	63.773850210190	127.83792594986
274.72601318359	66.894894587477	128.99880925221
275.72500610352	70.182325169761	130.01604551804
276.72399902344	73.645277526151	130.86957353224
277.72299194336	77.292268222127	131.53333749582
278.72198486328	81.129410430570	131.97445496345
279.72100830078	85.158346277460	132.15295844990
280.72000122070	89.373485502168	132.02157224934
281.71899414063	93.759035769398	131.52691230942
282.71798706055	98.286037453431	130.61129805265
283.71701049805	102.90922915189	129.21585104856
284.71600341797	107.56500984461	127.28520447109
285.71499633789	112.17042346311	124.77326978575
286.71398925781	116.62420242160	121.64988995012
287.71301269531	120.81048344790	117.90795015358
288.71200561523	124.60512230994	113.56908592781
289.71099853516	127.88480080139	108.68785404712
290.70999145508	130.53768283205	103.35174154280
291.70901489258	132.47411786039	97.677688240965
292.70800781250	133.63558338755	91.804011530720
293.70700073242	134.00042211770	85.880023235115
294.70599365234	133.58482868394	80.053495759782
295.70498657227	132.43954254995	74.459671346241
296.70401000977	130.64299428113	69.212213010396
297.70300292969	128.29231549120	64.397908258496
298.70199584961	125.49389828449	60.074788666457
299.70098876953	122.35496017754	56.273569441671
300.70001220703	118.97691499844	53.001277550142
301.69900512695	115.45084508370	50.245944527321
302.69799804688	111.85499250864	47.981623972011
303.69699096680	108.25402129227	46.173191957425
304.69601440430	104.69932448874	44.780242638057
305.69500732422	101.23031415400	43.760301319279
306.69400024414	97.875903880522	43.071133427880
307.69299316406	94.656285939804	42.672282322398
308.69198608398	91.584479785135	42.526040629235
309.69100952148	88.667922735438	42.598047773631
310.69000244141	85.909756323359	42.857426294916
311.68899536133	83.309843086915	43.276735607820
312.68798828125	80.865692743643	43.831876722048
313.68701171875	78.573209569090	44.501772638446
314.68600463867	76.427121755899	45.268123445438
315.68499755859	74.421523993446	46.115092622107
316.68399047852	72.550118251239	47.029011041970
317.68301391602	70.806475859384	47.998113591326
318.68200683594	69.184222096649	49.012275461801
319.68099975586	67.677125948604	50.062805993294
320.67999267578	66.279218706334	51.142201889892
321.67898559570	64.984837812497	52.243997492323
322.67800903320	63.788682987214	53.362617238506
323.67700195313	62.685788259914	54.493190158802
324.67599487305	61.671576840683	55.631467905318
325.67498779297	60.741816633454	56.773639443346
326.67401123047	59.892659578083	57.916318954968
327.67300415039	59.120565649943	59.056392438969
328.67199707031	58.422292290646	60.190957855665
329.67098999023	57.794862175168	61.317247187853
330.67001342773	57.235528394756	62.432548578265
331.66900634766	56.741684978553	63.534190749916
332.66799926758	56.310875152907	64.619450780227
333.66699218750	55.940662312600	65.685585344683
334.66598510742	55.628609870130	66.729745948647
335.66500854492	55.372185038300	67.748988519373
336.66400146484	55.168735399541	68.740330719556
337.66299438477	55.015349559992	69.700751564543
338.66198730469	54.908867740911	70.627146953891
339.66101074219	54.845762798087	71.516563551948
340.66000366211	54.822172610346	72.366135387475
341.65899658203	54.833815107155	73.173149376076
342.65798950195	54.875996774237	73.935253614559
343.65701293945	54.943621199518	74.650465438604
344.65600585938	55.031248055687	75.317316661779
345.65499877930	55.133157380459	75.934938588325
346.65399169922	55.243403839187	76.503133385747
347.65301513672	55.355975946031	77.022421406635
348.65200805664	55.464884168472	77.494156767808
349.65100097656	55.564332665677	77.920452739197
350.64999389648	55.648848511037	78.304240633625
351.64898681641	55.713451334195	78.649127902579
352.64801025391	55.753749623686	78.959393526806
353.64700317383	55.766042789767	79.239799647086
354.64599609375	55.747456546748	79.495536895791
355.64498901367	55.695950867420	79.731996163206
356.64401245117	55.610367825962	79.954667065725
357.64300537109	55.490364722658	80.168935348841
358.64199829102	55.336395436330	80.379926105727
359.64099121094	55.149631002664	80.592449145234
360.64001464844	54.931860826317	80.810813995074
361.63900756836	54.685342638887	81.038779064495
362.63800048828	54.412714221973	81.279528130075
363.63699340820	54.116814188743	81.535573195321
364.63598632813	53.800657314510	81.808885207512
365.63500976563	53.467097963367	82.100694168438
366.63400268555	53.119040266793	82.411883504735
367.63299560547	52.758998635735	82.742685102958
368.63198852539	52.389363530722	83.093017054601
369.63101196289	52.012112984281	83.462504670127
370.63000488281	51.628859702597	83.850489256400
371.62899780273	51.240938108324	84.256307204034
372.62799072266	50.848961326715	84.678993889286
373.62701416016	50.453699561448	85.118007684603
374.62600708008	50.055144155185	85.572602467111
375.62500000000	49.653302478243	86.042418721493
376.62399291992	49.247847343466	86.527253172659
377.62298583984	48.838458976933	87.027284632958
378.62200927734	48.424559053585	87.542833108440
379.62100219727	48.005852454270	88.074772641484
380.61999511719	47.581798151946	88.623899777708
381.61898803711	47.152380314577	89.191652803674
382.61801147461	46.717577364387	89.779496433707
383.61700439453	46.277700127375	90.389067214660
384.61599731445	45.833390945803	91.022168771941
385.61499023438	45.385608980075	91.680634729709
386.61401367188	44.935724646012	92.366298940558
387.61300659180	44.485388694561	93.080867750360
388.61199951172	44.036550383264	93.825865637622
389.61099243164	43.591526570501	94.602639501098
390.60998535156	43.152846929423	95.412255641452
391.60900878906	42.723338892547	96.255515669029
392.60800170898	42.305803673129	97.132707581409
393.60699462891	41.903365274897	98.043978847867
394.60598754883	41.519020495285	98.988904960458
395.60501098633	41.155772829550	99.966661995850
396.60400390625	40.816617892025	100.97624272520
397.60299682617	40.504270770940	102.01594177343
398.60198974609	40.221332273148	103.08398062083
399.60101318359	39.970070983136	104.17817082673
400.60000610352	39.752468812671	105.29602418062
401.59899902344	39.570141344099	106.43481785840
402.59799194336	39.424277491797	107.59176144712
403.59698486328	39.315674861504	108.76392310043
404.59600830078	39.244620526501	109.94837209827
405.59500122070	39.211025924593	111.14224539129
406.59399414063	39.214334988574	112.34284840199
407.59298706055	39.253580376529	113.54773072266
408.59201049805	39.327493628996	114.75472996761
409.59100341797	39.434439521575	115.96209104368
