#Parameters = {a=1000; t=0.1}
#"Frequency / GHz"	"Z1,1 [Real/Imaginary Part] [Re]"	"Z1,1 [Real/Imaginary Part] [Im]"
#-------------------------------------------------------------------------------------
1.0000000000000	-1419.7474666957	-3105.7424697276
1.9989999532700	-406.66747486605	-1785.4657230309
2.9979999065399	-184.67556866795	-1224.1557995222
3.9969999790192	-103.94008738220	-927.17391322359
4.9959998130798	-66.021478519110	-744.97773556565
5.9949998855591	-45.283151762922	-622.14337666242
6.9939999580383	-32.737563076857	-533.82332736106
7.9930000305176	-24.584690358581	-467.29495588870
8.9919996261597	-18.995491567758	-415.38923954002
9.9910001754761	-15.002264349315	-373.76502301589
10.989999771118	-12.054070837581	-339.64211291736
11.989000320435	-9.8185234763771	-311.15851265156
12.987999916077	-8.0854232673775	-287.02077421297
13.987000465393	-6.7168434738464	-266.30267526544
14.986000061035	-5.6187079735111	-248.32325829570
15.984999656677	-4.7256024826391	-232.57122264983
16.983999252319	-3.9907920978603	-218.65481924118
17.982999801636	-3.3798409018622	-206.26912058399
18.982000350952	-2.8674119621776	-195.17301539669
19.981000900269	-2.4341076110143	-185.17355682516
20.979999542236	-2.0652316569720	-176.11437241691
21.979000091553	-1.7492393787807	-167.86740748120
22.978000640869	-1.4770342780176	-160.32684299078
23.976999282837	-1.2415261300932	-153.40445838750
24.975999832153	-1.0368781280685	-147.02610244703
25.975000381470	-0.85837686904195	-141.12898091565
26.974000930786	-0.70230761791325	-135.65961212392
27.972999572754	-0.56547760521979	-130.57215894870
28.972000122070	-0.44528986979860	-125.82699287663
29.971000671387	-0.33952643151771	-121.38984446125
30.969999313354	-0.24641690955922	-117.23087303907
31.968999862671	-0.16440353637366	-113.32383859946
32.967998504639	-0.092172198107617	-109.64585084756
33.966999053955	-0.028616422724006	-106.17657555494
34.965999603271	0.027205929660534	-102.89802854308
35.965000152588	0.076151158576490	-99.794250414293
36.964000701904	0.11891727143067	-96.850967952452
37.963001251221	0.15614915761511	-94.055398184307
38.962001800537	0.18835769238434	-91.396155999578
39.960998535156	0.21604731995873	-88.862853861164
40.959999084473	0.23963858569643	-86.446238428321
41.958999633789	0.25950778047780	-84.137847944139
42.958000183105	0.27599602627492	-81.930051720132
43.957000732422	0.28938834191117	-79.815957976248
44.956001281738	0.29997901564171	-77.789096309108
45.955001831055	0.30799635972166	-75.843849491186
46.953998565674	0.31367382576180	-73.974811967566
47.952999114990	0.31720498928178	-72.177187371528
48.951999664307	0.31877923366060	-70.446466934014
49.951000213623	0.31857725757169	-68.778620471817
50.950000762939	0.31675110836592	-67.169805924771
51.949001312256	0.31344973977830	-65.616566851448
52.948001861572	0.30881430265577	-64.115725578729
53.946998596191	0.30296675200373	-62.664182745406
54.945999145508	0.29603247653710	-61.259283843149
55.944999694824	0.28812209471584	-59.898445005837
56.944000244141	0.27935333651017	-58.579239894298
57.943000793457	0.26982500041613	-57.299443544422
58.942001342773	0.25962988124563	-56.057035970388
59.941001892090	0.24886296759267	-54.850078842206
60.939998626709	0.23760840582625	-53.676714891440
61.938999176025	0.22595828028468	-52.535357620718
62.937999725342	0.21399060088562	-51.424374210799
63.937000274658	0.20177607288879	-50.342332095234
64.935997009277	0.18939702134882	-49.287792929101
65.934997558594	0.17691660933712	-48.259545475056
66.933998107910	0.16439717506676	-47.256292167227
67.932998657227	0.15191191454218	-46.276967898702
68.931999206543	0.13951157639125	-45.320460632135
69.930999755859	0.12725751781525	-44.385806646622
70.930000305176	0.11521151278095	-43.472034137960
71.929000854492	0.10340960547086	-42.578265847055
72.928001403809	0.091915231695732	-41.703631984419
73.927001953125	0.080760432559367	-40.847371000170
74.926002502441	0.069995260569861	-40.008759063456
75.925003051758	0.059660281779900	-39.187031518608
76.924003601074	0.049781210305591	-38.381603105546
77.922996520996	0.040402750484337	-37.591777086824
78.921997070313	0.031550192681067	-36.817010348337
79.920997619629	0.023251978475600	-36.056710092447
80.919998168945	0.015530217048862	-35.310365758246
81.918998718262	0.0084092343176708	-34.577458050241
82.917999267578	0.0019057846962275	-33.857525463583
83.916999816895	-0.0039596919240357	-33.150118517253
84.916000366211	-0.0091829382719361	-32.454793369112
85.915000915527	-0.013748975487243	-31.771161621960
86.914001464844	-0.017638378255244	-31.098825981568
87.913002014160	-0.020872066107019	-30.437415015251
88.912002563477	-0.023430754080557	-29.786593016071
89.911003112793	-0.025311195541753	-29.146025196899
90.910003662109	-0.026535135220289	-28.515364952413
91.908996582031	-0.027096472239385	-27.894337251300
92.907997131348	-0.027002429705079	-27.282652111886
93.906997680664	-0.026269606676489	-26.680015678768
94.905998229980	-0.024909870928866	-26.086160087637
95.904998779297	-0.022932735509256	-25.500853515124
96.903999328613	-0.020356165914524	-24.923838265940
97.902999877930	-0.017214065645713	-24.354869230214
98.902000427246	-0.013509017116409	-23.793728811139
99.901000976563	-0.0092748638344526	-23.240202334097
100.90000152588	-0.0045318414172178	-22.694066029403
101.89900207520	0.00068966963886348	-22.155134544990
102.89800262451	0.0063700625392695	-21.623199639635
103.89700317383	0.012465662273417	-21.098058448328
104.89600372314	0.018962294353475	-20.579550929161
105.89499664307	0.025818772465198	-20.067473820832
106.89399719238	0.033000078610494	-19.561653744810
107.89299774170	0.040487161762832	-19.061923343988
108.89199829102	0.048234763789938	-18.568131257772
109.89099884033	0.056210528015976	-18.080072042923
110.88999938965	0.064382921890332	-17.597615169607
111.88899993896	0.072718312904599	-17.120598920690
112.88800048828	0.081175039370367	-16.648862701537
113.88700103760	0.089736506687459	-16.182257516151
114.88600158691	0.098349162491829	-15.720622589513
115.88500213623	0.10699468896950	-15.263829668021
116.88400268555	0.11563411487383	-14.811705394072
117.88300323486	0.12423667015389	-14.364119304774
118.88200378418	0.13277144934879	-13.920928212185
119.88099670410	0.14121427414349	-13.481990544070
120.87999725342	0.14953746215716	-13.047172990220
121.87899780273	0.15771114757812	-12.616324742226
122.87799835205	0.16571592621294	-12.189308528556
123.87699890137	0.17352201488674	-11.766002839630
124.87599945068	0.18111976910498	-11.346258614292
125.87500000000	0.18847813567049	-10.929952023078
126.87400054932	0.19559148111424	-10.516949454257
127.87300109863	0.20244125560914	-10.107116286516
128.87199401855	0.20902096178504	-9.7003302472612
129.87100219727	0.21531632173589	-9.2964547546490
130.86999511719	0.22132737162074	-8.8953793733516
131.86900329590	0.22704219809503	-8.4969756283805
132.86799621582	0.23246333016149	-8.1011168964607
133.86700439453	0.23759193094945	-7.7076801845572
134.86599731445	0.24243607791006	-7.3165507473985
135.86500549316	0.24699976321520	-6.9276219892531
136.86399841309	0.25128741025597	-6.5407743380386
137.86300659180	0.25531991447322	-6.1559010327997
138.86199951172	0.25910670155514	-5.7728814421708
139.86099243164	0.26266701514870	-5.3916154871105
140.86000061035	0.26601660008648	-5.0120106039589
141.85899353027	0.26917906080692	-4.6339567255125
142.85800170898	0.27218122220823	-4.2573535572896
143.85699462891	0.27504342287572	-3.8821176347176
144.85600280762	0.27779327378431	-3.5081479499125
145.85499572754	0.28046612487063	-3.1353595038915
146.85400390625	0.28309282537922	-2.7636659705284
147.85299682617	0.28569742212304	-2.3929876344511
148.85200500488	0.28832081274463	-2.0232467638183
149.85099792480	0.29099671195026	-1.6543654072888
150.85000610352	0.29375890686611	-1.2862729649300
151.84899902344	0.29664492848846	-0.91890427801560
152.84800720215	0.29969533054039	-0.55218381586683
153.84700012207	0.30294516521234	-0.18606561722468
154.84599304199	0.30643032252467	0.17952539879813
155.84500122070	0.31019444170940	0.54462832336824
156.84399414063	0.31426510564358	0.90931149446138
157.84300231934	0.31869100499821	1.2736136361466
158.84199523926	0.32350002776399	1.6375723987756
159.84100341797	0.32873316170307	2.0012558946663
160.83999633789	0.33442408420571	2.3646837559742
161.83900451660	0.34060852464166	2.7278992766249
162.83799743652	0.34731789473218	3.0909336526436
163.83700561523	0.35458301435833	3.4538297192939
164.83599853516	0.36243777117162	3.8166127872563
165.83500671387	0.37090790434051	4.1793011533042
166.83399963379	0.38001962230118	4.5419374594596
167.83299255371	0.38980129169524	4.9045398437593
168.83200073242	0.40027356128761	5.2671200994154
169.83099365234	0.41146027717005	5.6297199117148
170.83000183105	0.42337250332964	5.9923442647764
171.82899475098	0.43603906984719	6.3550181653381
172.82800292969	0.44946437165509	6.7177560717731
173.82699584961	0.46366401740241	7.0805832927259
174.82600402832	0.47864994709192	7.4435086086550
175.82499694824	0.49442800926294	7.8065605435902
176.82400512695	0.51100564987425	8.1697445012089
177.82299804688	0.52838295567273	8.5330918369610
178.82200622559	0.54656124001895	8.8966074812228
179.82099914551	0.56553762209701	9.2603241046567
180.82000732422	0.58531297915912	9.6242508950322
181.81900024414	0.60587373635604	9.9884132531314
182.81799316406	0.62721889588573	10.352833856670
183.81700134277	0.64933908911021	10.717545868303
184.81599426270	0.67221363939533	11.082554535958
185.81500244141	0.69583596742559	11.447913184430
186.81399536133	0.72018646751525	11.813645670975
187.81300354004	0.74525354556385	12.179774860259
188.81199645996	0.77101601873771	12.546349740288
189.81100463867	0.79745691122820	12.913398966910
190.80999755859	0.82454818527671	13.280970471600
191.80900573730	0.85227948753107	13.649118209115
192.80799865723	0.88062221645184	14.017869621846
193.80700683594	0.90956035548664	14.387296848154
194.80599975586	0.93906937598414	14.757453523799
195.80499267578	0.96912108671018	15.128386461675
196.80400085449	0.99970824116868	15.500178121258
197.80299377441	1.0307984331912	15.872875113143
198.80200195313	1.0623772990849	16.246563365468
199.80099487305	1.0944283907670	16.621319063858
200.80000305176	1.1269240794858	16.997209796884
201.79899597168	1.1598626449327	17.374328587330
202.79800415039	1.1932247246253	17.752762816004
203.79699707031	1.2270022973047	18.132607515002
204.79600524902	1.2611874189599	18.513954921063
205.79499816895	1.2957709148964	18.896890870535
206.79400634766	1.3307547947027	19.281540846446
207.79299926758	1.3661399611144	19.668002339032
208.79200744629	1.4019340289608	20.056393920300
209.79100036621	1.4381373831614	20.446811604773
210.78999328613	1.4747701294700	20.839383291245
211.78900146484	1.5118406122162	21.234238550707
212.78799438477	1.5493821263821	21.631495232057
213.78700256348	1.5874156335272	22.031287801476
214.78599548340	1.6259726232465	22.433726607766
215.78500366211	1.6650949782478	22.838974465830
216.78399658203	1.7048132397062	23.247135459933
217.78300476074	1.7451830060020	23.658366782919
218.78199768066	1.7862566605966	24.072815236642
219.78100585938	1.8280874030974	24.490598935380
220.77999877930	1.8707373312658	24.911867343785
221.77900695801	1.9142884340582	25.336783291830
222.77799987793	1.9588032991537	25.765479332250
223.77699279785	2.0043656214755	26.198104437270
224.77600097656	2.0510720178625	26.634814391788
225.77499389648	2.0990028941738	27.075748468024
226.77400207520	2.1482703032616	27.521067005450
227.77299499512	2.1989783909959	27.970928086955
228.77200317383	2.2512212181226	28.425455747996
229.77099609375	2.3051387160672	28.884827033798
230.77000427246	2.3608470849826	29.349189479732
231.76899719238	2.4184772158484	29.818699031310
232.76800537109	2.4781627624371	30.293499303722
233.76699829102	2.5400553585354	30.773749867971
234.76600646973	2.6042951067430	31.259600873906
235.76499938965	2.6710418825471	31.751210906921
236.76400756836	2.7404578512649	32.248732110655
237.76300048828	2.8127172854656	32.752327011576
238.76199340820	2.8879869573720	33.262127334854
239.76100158691	2.9664603862547	33.778305809860
240.75999450684	3.0483133777636	34.301005261011
241.75900268555	3.1337524668251	34.830394683449
242.75799560547	3.2229734016032	35.366615700090
243.75700378418	3.3161864015318	35.909830988684
244.75599670410	3.4136164512638	36.460185275628
245.75500488281	3.5154790097401	37.017833204745
246.75399780273	3.6220141545562	37.582944638477
247.75300598145	3.7334560873040	38.155662959341
248.75199890137	3.8500540091986	38.736150727938
249.75100708008	3.9720657841797	39.324562021805
250.75000000000	4.0997556167402	39.921056383850
251.74899291992	4.2334047687574	40.525804434940
252.74800109863	4.3732908873705	41.138953322446
253.74699401855	4.5197083287899	41.760672097864
254.74600219727	4.6729624951255	42.391119640772
255.74499511719	4.8333634999639	43.030459813494
256.74398803711	5.0012429751569	43.678867891100
257.74301147461	5.1769412851061	44.336510740310
258.74200439453	5.3608000243020	45.003548631271
259.74099731445	5.5531856645605	45.680172352352
260.73999023438	5.7544843204532	46.366543319214
261.73901367188	5.9650789108342	47.062846789057
262.73800659180	6.1853757020473	47.769246403695
263.73699951172	6.4158105613405	48.485949710527
264.73599243164	6.6568104397500	49.213134997690
265.73498535156	6.9088520948273	49.950999576259
266.73400878906	7.1724076324415	50.699696155277
267.73300170898	7.4479722241039	51.459473016948
268.73199462891	7.7360796001909	52.230478509542
269.73098754883	8.0372731884816	53.012960705745
270.73001098633	8.3521317966379	53.807103354499
271.72900390625	8.6812510063188	54.613114439370
272.72799682617	9.0252675478708	55.431198748066
273.72698974609	9.3848385742957	56.261570537240
274.72601318359	9.7606699587786	57.104455230624
275.72500610352	10.153484961475	57.960075381812
276.72399902344	10.564057431395	58.828632135927
277.72299194336	10.993203985458	59.710365642235
278.72198486328	11.441787708546	60.605477950765
279.72100830078	11.910708847197	61.514209573082
280.72000122070	12.400927606804	62.436745036182
281.71899414063	12.913459246299	63.373333975076
282.71798706055	13.449385771639	64.324181315017
283.71701049805	14.009831064631	65.289465461698
284.71600341797	14.596016561525	66.269406341750
285.71499633789	15.209228369938	67.264172570487
286.71398925781	15.850808170058	68.273948379096
287.71301269531	16.522234791972	69.298845267427
288.71200561523	17.225018792579	70.339020341339
289.71099853516	17.960830379394	71.394593897272
290.70999145508	18.731392872066	72.465576012040
291.70901489258	19.538587685182	73.552066611259
292.70800781250	20.384376539414	74.653967430321
293.70700073242	21.270878350876	75.771244904364
294.70599365234	22.200340786084	76.903717754839
295.70498657227	23.175170315589	78.051228032539
296.70401000977	24.197922633349	79.213411148787
297.70300292969	25.271332234360	80.389905618707
298.70199584961	26.398273842942	81.580097325093
299.70098876953	27.581855035821	82.783383674732
300.70001220703	28.825374463090	83.998876220106
301.69900512695	30.132292959884	85.225568054245
302.69799804688	31.506362734023	86.462191694345
303.69699096680	32.951487085233	87.707267186124
304.69601440430	34.471854877450	88.959019189530
305.69500732422	36.071853902889	90.215343921465
306.69400024414	37.756145607872	91.473768507035
307.69299316406	39.529603903051	92.731388059831
308.69198608398	41.397348952212	93.984810081848
309.69100952148	43.364761176993	95.230180634360
310.69000244141	45.437348399559	96.462906784078
311.68899536133	47.620884963131	97.677816975744
312.68798828125	49.921258517891	98.868911925377
313.68701171875	52.344496762805	100.02931241427
314.68600463867	54.896611148852	101.15126101741
315.68499755859	57.583664675227	102.22585308875
316.68399047852	60.411522704931	103.24302500210
317.68301391602	63.385827178600	104.19144910674
318.68200683594	66.511803236438	105.05841341543
319.68099975586	69.794082487318	105.82970078094
320.67999267578	73.236501681697	106.48950341352
321.67898559570	76.841815204658	107.02029602967
322.67800903320	80.611397782819	107.40292709196
323.67700195313	84.544895993526	107.61647768757
324.67599487305	88.639825487000	107.63830782539
325.67498779297	92.891185800538	107.44417524650
326.67401123047	97.290900192203	107.00850134671
327.67300415039	101.82740809612	106.30457940961
328.67199707031	106.48509001284	105.30497617180
329.67098999023	111.24383050887	103.98209781620
330.67001342773	116.07857567478	102.30893435288
331.66900634766	120.95897761294	100.25987434637
332.66799926758	125.84927875600	97.811741168930
333.66699218750	130.70814724014	94.944825452220
334.66598510742	135.48910002735	91.644354406402
335.66500854492	140.14091043416	87.901539981606
336.66400146484	144.60858963201	83.715027411839
337.66299438477	148.83451277151	79.091948421983
338.66198730469	152.76003940935	74.048801539599
339.66101074219	156.32734094132	68.612081327373
340.66000366211	159.48155099838	62.818447369867
341.65899658203	162.17283534576	56.714273704777
342.65798950195	164.35854622841	50.354793733135
343.65701293945	166.00500060984	43.802529032804
344.65600585938	167.08923295041	37.125583177456
345.65499877930	167.59972208528	30.395148424373
346.65399169922	167.53710525069	23.683217036537
347.65301513672	166.91363044919	17.059934261855
348.65200805664	165.75267561564	10.591402467589
349.65100097656	164.08724519643	4.3376118187635
350.64999389648	161.95837883585	-1.6491162759278
351.64898681641	159.41312761281	-7.3252059723562
352.64801025391	156.50260671890	-12.656384299478
353.64700317383	153.27994220133	-17.617738030151
354.64599609375	149.79854061906	-22.193372713276
355.64498901367	146.11050466601	-26.375756955894
356.64401245117	142.26535223434	-30.164563464140
357.64300537109	138.30907406082	-33.566071720544
358.64199829102	134.28345806446	-36.591557086326
359.64099121094	130.22587423181	-39.256450207762
360.64001464844	126.16888772256	-41.579145412712
361.63900756836	122.14055416054	-43.580243804676
362.63800048828	118.16443239586	-45.281566311251
363.63699340820	114.25992960734	-46.705501972801
364.63598632813	110.44275289609	-47.874515774177
365.63500976563	106.72513837433	-48.810618754448
366.63400268555	103.11637308283	-49.535081734152
367.63299560547	99.623151386742	-50.068202994187
368.63198852539	96.249910418127	-50.429101473641
369.63101196289	92.999264970922	-50.635669000160
370.63000488281	89.872191170201	-50.704464295514
371.62899780273	86.868460879499	-50.650785927407
372.62799072266	83.986748508976	-50.488623225783
373.62701416016	81.224943535360	-50.230743326699
374.62600708008	78.580268089005	-49.888734359008
375.62500000000	76.049447393542	-49.473067684413
376.62399291992	73.628896624925	-48.993205877545
377.62298583984	71.314717568299	-48.457613079002
378.62200927734	69.102905389382	-47.873931010004
379.62100219727	66.989338836308	-47.248954905729
380.61999511719	64.969890222518	-46.588781213810
381.61898803711	63.040425873322	-45.898803995045
382.61801147461	61.196892600437	-45.183852649879
383.61700439453	59.435303744589	-44.448202423175
384.61599731445	57.751796456758	-43.695635080391
385.61499023438	56.142602168067	-42.929503366237
386.61401367188	54.604120223420	-42.152753552090
387.61300659180	53.132872417577	-41.368010479687
388.61199951172	51.725517240646	-40.577559590231
389.61099243164	50.378878670156	-39.783419906902
390.60998535156	49.089905894148	-38.987338319675
391.60900878906	47.855713179531	-38.190875839240
392.60800170898	46.673537759701	-37.395359478669
393.60699462891	45.540762366243	-36.601958289775
394.60598754883	44.454914597240	-35.811689531446
395.60501098633	43.413621252452	-35.025410079963
396.60400390625	42.414661339110	-34.243877166456
397.60299682617	41.455920406536	-33.467717061380
398.60198974609	40.535392781565	-32.697476592736
399.60101318359	39.651190243780	-31.933602734803
400.60000610352	38.801514518882	-31.176472555434
401.59899902344	37.984663150341	-30.426394446230
