#Parameters = {a=1500; t=0.1}
#"Frequency / GHz"	"Z1,1 [Real/Imaginary Part] [Re]"	"Z1,1 [Real/Imaginary Part] [Im]"
#-------------------------------------------------------------------------------------
1.0000000000000	-465.45492140284	-3394.5128435361
1.9989999532700	-53.643823853162	-1757.1349062128
2.9979999065399	15.882058371775	-1201.1615502252
3.9969999790192	30.321706775010	-925.00678577860
4.9959998130798	27.147906779792	-758.65271098867
5.9949998855591	17.441261282179	-644.12914839303
6.9939999580383	6.8695146989897	-557.12611272193
7.9930000305176	-1.2254397038499	-487.01533607021
8.9919996261597	-5.5364641746434	-429.34026683815
9.9910001754761	-6.3802907430136	-382.05898708561
10.989999771118	-4.9058167187644	-343.74311051864
11.989000320435	-2.3933198640409	-312.98128256167
12.987999916077	0.10760434427533	-288.31956069257
13.987000465393	1.8929943701862	-268.32895043790
14.986000061035	2.6246149529359	-251.67215991894
15.984999656677	2.3223299934493	-237.18267060696
16.983999252319	1.3111951505920	-223.97367554805
17.982999801636	0.084743728210614	-211.53295175187
18.982000350952	-0.89111828159351	-199.72481423008
19.981000900269	-1.3400123554827	-188.67229672641
20.979999542236	-1.2271293178182	-178.58273813789
21.979000091553	-0.70781520121012	-169.60572535027
22.978000640869	-0.031432583650540	-161.76321889417
23.976999282837	0.55133023332411	-154.94174977432
24.975999832153	0.85935715677254	-148.92257491732
25.975000381470	0.82615086151498	-143.43638852852
26.974000930786	0.51065918956190	-138.23364594840
27.972999572754	0.065293779566387	-133.15086657427
28.972000122070	-0.33041832739912	-128.14419438927
29.971000671387	-0.54086767937909	-123.27467724888
30.969999313354	-0.51724926039273	-118.65619887863
31.968999862671	-0.29966667041162	-114.39599518455
32.967998504639	0.011148524886052	-110.55105504075
33.966999053955	0.29481726135041	-107.10958868724
34.965999603271	0.45238412409663	-103.99539065720
35.965000152588	0.43793930027309	-101.09200535448
36.964000701904	0.27205174601091	-98.280490409199
37.963001251221	0.030324442098383	-95.478530596186
38.962001800537	-0.18954981158867	-92.664521261106
39.960998535156	-0.30743522570653	-89.875696417065
40.959999084473	-0.28893483712522	-87.183720230139
41.958999633789	-0.15240626522461	-84.661382909843
42.958000183105	0.043099566713282	-82.354111365609
43.957000732422	0.22164844877417	-80.264110547676
44.956001281738	0.31756065714455	-78.349615704102
45.955001831055	0.29865186425537	-76.538924709261
46.953998565674	0.17767859180925	-74.755644337853
47.952999114990	0.0063526348564594	-72.946404819128
48.951999664307	-0.14666891564555	-71.099084348145
49.951000213623	-0.22364292493333	-69.243444568571
50.950000762939	-0.19895362329303	-67.435031383435
51.949001312256	-0.086114217271890	-65.731475841123
52.948001861572	0.069489194447671	-64.170601026489
53.946998596191	0.20789009559346	-62.756432042766
54.945999145508	0.27628470754894	-61.457276599054
55.944999694824	0.24888755329953	-60.215887949648
56.944000244141	0.13750948593005	-58.970289549299
57.943000793457	-0.012734779901501	-57.677777712083
58.942001342773	-0.14189914555371	-56.330933293174
59.941001892090	-0.19940483559050	-54.958873854621
60.939998626709	-0.16308561958486	-53.614057344241
61.938999176025	-0.046376014121957	-52.351109590904
62.937999725342	0.10711229184491	-51.206744843509
63.937000274658	0.23888281362765	-50.185703451458
64.935997009277	0.29649093744855	-49.256819574524
65.934997558594	0.25429063470932	-48.362269911113
66.933998107910	0.12572483684372	-47.438374185333
67.932998657227	-0.039989579281252	-46.441099179962
68.931999206543	-0.17689027331346	-45.364356635522
69.930999755859	-0.22842094284320	-44.242414788063
70.930000305176	-0.16897257148619	-43.136491161394
71.929000854492	-0.013465244369310	-42.112526658813
72.928001403809	0.18606711827157	-41.217893485770
73.927001953125	0.35533376397284	-40.462665892258
74.926002502441	0.42207736351420	-39.810015361838
75.925003051758	0.34492866987976	-39.181947421484
76.924003601074	0.13615981107010	-38.483739692179
77.922996520996	-0.13541982055432	-37.640527278531
78.921997070313	-0.36622729928746	-36.628407311575
79.920997619629	-0.45376929666804	-35.484950709681
80.919998168945	-0.32858281998328	-34.296713610371
81.918998718262	0.028376477766522	-33.175387277746
82.917999267578	0.58141916034699	-32.232988299965
83.916999816895	1.2433804765202	-31.559222842686
84.916000366211	1.8852067814631	-31.198703774228
85.915000915527	2.3577593947577	-31.127622862990
86.914001464844	2.5319106498709	-31.241177801264
87.913002014160	2.3492316817244	-31.370278367321
88.912002563477	1.8552539398943	-31.335340799021
89.911003112793	1.1862809589580	-31.014167290657
90.910003662109	0.51322393604267	-30.382006852748
91.908996582031	-0.021072653880850	-29.503384549866
92.907997131348	-0.33764365039006	-28.492563445805
93.906997680664	-0.42554914018123	-27.471395483189
94.905998229980	-0.32786398216011	-26.539662884270
95.904998779297	-0.12180990132482	-25.758401895602
96.903999328613	0.10290637330117	-25.142221435336
97.902999877930	0.26711081458076	-24.660129645364
98.902000427246	0.32375333916142	-24.247761393845
99.901000976563	0.27022244077584	-23.830936103103
100.90000152588	0.14416045178641	-23.352617111624
101.89900207520	0.0039622262028199	-22.791050543619
102.89800262451	-0.095984124008310	-22.161727391311
103.89700317383	-0.12396502275972	-21.505291197876
104.89600372314	-0.078140666886416	-20.869282586745
105.89499664307	0.016985248008216	-20.290985057523
106.89399719238	0.12177381290851	-19.785828636404
107.89299774170	0.19649725643495	-19.343566067240
108.89199829102	0.21596614119478	-18.933541089084
109.89099884033	0.17825049786763	-18.517523958343
110.88999938965	0.10384873427869	-18.065107801570
111.88899993896	0.025710696276513	-17.564926264095
112.88800048828	-0.024736142311721	-17.027050664102
113.88700103760	-0.029268649025603	-16.477010716822
114.88600158691	0.011651639084475	-15.944781990044
115.88500213623	0.080496108468812	-15.453441934448
116.88400268555	0.15013243484767	-15.011010919106
117.88300323486	0.19446119288721	-14.607943655102
118.88200378418	0.19854948649681	-14.221375143618
119.88099670410	0.16419788311230	-13.824638070268
120.87999725342	0.10846599276098	-13.398090212699
121.87899780273	0.055981320350675	-12.936566119610
122.87799835205	0.028742093375030	-12.450379999667
123.87699890137	0.037814449359667	-11.960306582847
124.87599945068	0.079736414003698	-11.489024057085
125.87500000000	0.13846454935719	-11.052414413595
126.87400054932	0.19187093248895	-10.653550725998
127.87300109863	0.22052263273228	-10.281696938860
128.87199401855	0.21547971573076	-9.9167253698889
129.87100219727	0.18173043916819	-9.5374506823287
130.86999511719	0.13577246666590	-9.1302766842864
131.86900329590	0.098504957688825	-8.6943693348250
132.86799621582	0.086738871342959	-8.2414023579328
133.86700439453	0.10678363309477	-7.7904576264053
134.86599731445	0.15231977678570	-7.3603702379982
135.86500549316	0.20706290880012	-6.9623434254966
136.86399841309	0.25123912766808	-6.5955612670674
137.86300659180	0.26956901358273	-6.2474072380090
138.86199951172	0.25752983538091	-5.8985707664242
139.86099243164	0.22320126444428	-5.5310797086640
140.86000061035	0.18372897254355	-5.1356030220995
141.85899353027	0.15817117031641	-4.7150748699617
142.85800170898	0.15982153437180	-4.2831445964993
143.85699462891	0.19107255368434	-3.8585887184291
144.85600280762	0.24255893006262	-3.4578342413796
145.85499572754	0.29679876896966	-3.0884084712898
146.85400390625	0.33515322282837	-2.7457013669230
147.85299682617	0.34548715350026	-2.4145770182562
148.85200500488	0.32737088033608	-2.0755262784707
149.85099792480	0.29236230716511	-1.7127521330400
150.85000610352	0.25921134664486	-1.3207210348007
151.84899902344	0.24615934502069	-0.90633992937953
152.84800720215	0.26363763852484	-0.48611723292368
153.84700012207	0.31006622361108	-0.079614701228215
154.84599304199	0.37227803130253	0.29828061616630
155.84500122070	0.43047091409154	0.64355328322526
156.84399414063	0.46610608908680	0.96517440581404
157.84300231934	0.46975331135077	1.2818246455052
158.84199523926	0.44537696605528	1.6143679892555
159.84100341797	0.40894564024036	1.9770439908869
160.83999633789	0.38194711848913	2.3714912356399
161.83900451660	0.38262851826274	2.7859626960087
162.83799743652	0.41858023993670	3.1998225957368
163.83700561523	0.48332051970076	3.5915718052139
164.83599853516	0.55819413454381	3.9476263519756
165.83500671387	0.61931191573644	4.2684565930227
166.83399963379	0.64732190470536	4.5695586624514
167.83299255371	0.63610801321574	4.8758430928510
168.83200073242	0.59627574827726	5.2115227007186
169.83099365234	0.55150674898409	5.5898318744354
170.83000183105	0.52932360657745	6.0071056621271
171.82899475098	0.55018633722356	6.4435318985305
172.82800292969	0.61896728608158	6.8701544257001
173.82699584961	0.72175265557295	7.2597278345230
174.82600402832	0.82957637844142	7.5982094964353
175.82499694824	0.90894151437728	7.8925677951104
176.82400512695	0.93610378774328	8.1707713741850
177.82299804688	0.90934165392707	8.4724107187424
178.82200622559	0.85305472841548	8.8328289502427
179.82099914551	0.81127838910042	9.2677348747514
180.82000732422	0.83355055175786	9.7642514234164
181.81900024414	0.95829231004033	10.281103737698
182.81799316406	1.1982287896241	10.756808836694
183.81700134277	1.5305920009758	11.124673681903
184.81599426270	1.8951398222795	11.333066177476
185.81500244141	2.2044017832412	11.367169263076
186.81399536133	2.3681399214947	11.263598007956
187.81300354004	2.3257833142521	11.106626182307
188.81199645996	2.0710452937413	11.002669190990
189.81100463867	1.6542063793163	11.044301707686
190.80999755859	1.1617684199618	11.282665469907
191.80900573730	0.68707987220155	11.719541660744
192.80799865723	0.30632950782330	12.316163508541
193.80700683594	0.065604470740509	13.009590210594
194.80599975586	-0.022629241156204	13.729269067485
195.80499267578	0.022993647451979	14.411498069439
196.80400085449	0.15992473344309	15.011384325678
197.80299377441	0.33342010385374	15.511136483689
198.80200195313	0.49160659102711	15.921901962538
199.80099487305	0.59982553227886	16.277038746062
200.80000305176	0.64845744870956	16.618248281883
201.79899597168	0.65124151538342	16.980493157770
202.79800415039	0.63553271010659	17.381607476706
203.79699707031	0.62975947911164	17.819956991072
204.79600524902	0.65314165075153	18.279272096786
205.79499816895	0.71050677915936	18.737335517744
206.79400634766	0.79285677612148	19.175123047342
207.79299926758	0.88261545807994	19.583659613905
208.79200744629	0.96133951302140	19.966225180200
209.79100036621	1.0169525345302	20.335839307185
210.78999328613	1.0477479056754	20.709209856967
211.78900146484	1.0617686943075	21.099724520785
212.78799438477	1.0724696601549	21.512867370093
213.78700256348	1.0928727459164	21.945179372292
214.78599548340	1.1306156756182	22.386718413107
215.78500366211	1.1856847647208	22.825744812901
216.78399658203	1.2512064977112	23.253465293927
217.78300476074	1.3168320881571	23.667275802302
218.78199768066	1.3731458218430	24.071253188795
219.78100585938	1.4153184624802	24.473995854988
220.77999877930	1.4446041554867	24.884849577339
221.77900695801	1.4672525455160	25.310161603635
222.77799987793	1.4915278158515	25.751185932672
223.77699279785	1.5243238182868	26.204162142783
224.77600097656	1.5685959259431	26.662349867885
225.77499389648	1.6226203589462	27.119007822363
226.77400207520	1.6811066186678	27.570078238353
227.77299499512	1.7376183120262	28.015583214477
228.77200317383	1.7872241817851	28.459332382006
229.77099609375	1.8283477968507	28.907126586796
230.77000427246	1.8630474820202	29.364241732679
231.76899719238	1.8958475759315	29.833540900767
232.76800537109	1.9317071555153	30.314566352450
233.76699829102	1.9740176498463	30.804132897513
234.76600646973	2.0233981676281	31.297896397182
235.76499938965	2.0776841737571	31.792212313057
236.76400756836	2.1329922219728	32.285499231921
237.76300048828	2.1853152567312	32.778818703150
238.76199340820	2.2320163430236	33.275157582383
239.76100158691	2.2725981829723	33.778294014026
240.75999450684	2.3085304262876	34.291246137825
241.75900268555	2.3423276615982	34.815461544104
242.75799560547	2.3763087188799	35.350564200421
243.75700378418	2.4115965087913	35.894944277960
244.75599670410	2.4476763919304	36.446774152558
245.75500488281	2.4825988299578	37.004967677209
246.75399780273	2.5137113189894	37.569845892750
247.75300598145	2.5384903939364	38.143150623568
248.75199890137	2.5552102977044	38.727722876191
249.75100708008	2.5631987308117	39.326821465493
250.75000000000	2.5626986005740	39.943614136604
251.74899291992	2.5544440775593	40.580836626091
252.74800109863	2.5391926341470	41.240785128276
253.74699401855	2.5174237810008	41.925694809709
254.74600219727	2.4892531356565	42.638172976385
255.74499511719	2.4545748850973	43.381541864522
256.74398803711	2.4134712684741	44.160331428110
257.74301147461	2.3667595146164	44.980426530633
258.74200439453	2.3167197198278	45.849113781757
259.74099731445	2.2679568435752	46.774810681986
260.73999023438	2.2282421305694	47.766389133731
261.73901367188	2.2092555054380	48.832010121039
262.73800659180	2.2268402417737	49.977534169781
263.73699951172	2.3006014237076	51.204502748637
264.73599243164	2.4525379230637	52.508335673554
265.73498535156	2.7047945783456	53.876726083586
266.73400878906	3.0765045841719	55.289203155023
267.73300170898	3.5802415940797	56.717950483455
268.73199462891	4.2187204437501	58.130461179445
269.73098754883	4.9827851898165	59.493843706374
270.73001098633	5.8515707601091	60.780076066495
271.72900390625	6.7954896533311	61.971007768119
272.72799682617	7.7815291683948	63.061194042717
273.72698974609	8.7793504576469	64.057670999282
274.72601318359	9.7661996938978	64.976435865777
275.72500610352	10.728884173554	65.837276444059
276.72399902344	11.662630049106	66.658976751201
277.72299194336	12.567791293995	67.456498325732
278.72198486328	13.446361545807	68.240931803859
279.72100830078	14.299894480020	69.021449784879
280.72000122070	15.129573106346	69.807487433132
281.71899414063	15.937996280659	70.610006337049
282.71798706055	16.731326542682	71.440557596515
283.71701049805	17.520144568294	72.308951804881
284.71600341797	18.318413867788	73.220292301069
285.71499633789	19.140324137074	74.173442737411
286.71398925781	19.996546224315	75.161669144720
287.71301269531	20.891510874391	76.175835622825
288.71200561523	21.823033386970	77.208753701567
289.71099853516	22.785049532235	78.259148772604
290.70999145508	23.772472519954	79.333241498830
291.70901489258	24.786095307391	80.442649895592
292.70800781250	25.835330941142	81.599445618886
293.70700073242	26.937191658703	82.810372621451
294.70599365234	28.111502165416	84.072772640457
295.70498657227	29.374253014890	85.374217691985
296.70401000977	30.731951577202	86.696992645490
297.70300292969	32.179558676214	88.025184012865
298.70199584961	33.703892306269	89.352546412255
299.70098876953	35.291599248192	90.686592069470
300.70001220703	36.938688358905	92.046634899117
301.69900512695	38.657173339702	93.455873077696
302.69799804688	40.475346034805	94.930301981636
303.69699096680	42.430722613227	96.469489981079
304.69601440430	44.558051648831	98.053411244510
305.69500732422	46.877134281664	99.647803575955
306.69400024414	49.386226376650	101.21709200787
307.69299316406	52.065182240165	102.73968410883
308.69198608398	54.889033895220	104.21945054075
309.69100952148	57.847500928616	105.68542986852
310.69000244141	60.961649658217	107.17841558911
311.68899536133	64.288609520351	108.72842163828
312.68798828125	67.910925404059	110.33238869186
313.68701171875	71.912926609536	111.94251708931
314.68600463867	76.352936542476	113.47185610109
315.68499755859	81.243696996283	114.81834530542
316.68399047852	86.552832982090	115.89963050503
317.68301391602	92.230006117694	116.68254078911
318.68200683594	98.253896669368	117.18776674305
319.68099975586	104.67721257239	117.45736161175
320.67999267578	111.64348756938	117.49204261790
321.67898559570	119.35850502701	117.18158623922
322.67800903320	128.01753878354	116.25854100648
323.67700195313	137.70653135220	114.30136259958
324.67599487305	148.31096197018	110.80209609241
325.67498779297	159.48263084272	105.29028589470
326.67401123047	170.70507815352	97.454667631706
327.67300415039	181.43424298194	87.168227709024
328.67199707031	191.19056018623	74.365727848584
329.67098999023	199.45006651158	58.870323803461
330.67001342773	205.31447509241	40.414367973380
331.66900634766	207.21516132638	19.098300848483
332.66799926758	203.18447260254	-3.7855329727753
333.66699218750	192.06808447899	-25.328655948433
334.66598510742	174.91329280316	-42.013874240112
335.66500854492	154.84830924094	-51.717315835145
336.66400146484	135.30894652143	-54.671451278641
337.66299438477	118.49694017134	-52.648238927351
338.66198730469	105.16586467094	-47.659714335905
339.66101074219	95.172207764117	-41.256866908632
340.66000366211	88.027192519489	-34.429041236812
341.65899658203	83.202649891190	-27.749523544255
342.65798950195	80.243169662864	-21.543089672755
343.65701293945	78.778937735067	-16.005588991615
344.65600585938	78.499814100851	-11.271465260751
345.65499877930	79.121152161952	-7.4395248691237
346.65399169922	80.358609886963	-4.5685652879188
347.65301513672	81.924510226528	-2.6559926630949
348.65200805664	83.551118614335	-1.6189221357446
349.65100097656	85.031459664459	-1.2988908383867
350.64999389648	86.253104267785	-1.4989154140577
351.64898681641	87.200297680687	-2.0383693119777
352.64801025391	87.920348351441	-2.7966396788967
353.64700317383	88.473213844939	-3.7244551743590
354.64599609375	88.890262048536	-4.8228637826759
355.64498901367	89.158182650943	-6.1057255362631
356.64401245117	89.229925584477	-7.5651901278743
357.64300537109	89.052884962127	-9.1549500626307
358.64199829102	88.598930845667	-10.796492998688
359.64099121094	87.881135250508	-12.403231338908
360.64001464844	86.949917730637	-13.908029061944
361.63900756836	85.872973975901	-15.280191460261
362.63800048828	84.710836699476	-16.525298009085
363.63699340820	83.499976140665	-17.670865945596
364.63598632813	82.248949715346	-18.746802837570
365.63500976563	80.946661014176	-19.769621626985
366.63400268555	79.576914418162	-20.736042459803
367.63299560547	78.132212661848	-21.626830957950
368.63198852539	76.621086730491	-22.417514428482
369.63101196289	75.066854902990	-23.090146260756
370.63000488281	73.499739220112	-23.640719271143
371.62899780273	71.947082948353	-24.079792812463
372.62799072266	70.426024980359	-24.427330206952
373.62701416016	68.941146812162	-24.704900815841
374.62600708008	67.487088694634	-24.928802972198
375.62500000000	66.054059908995	-25.106517015634
376.62399291992	64.633772101496	-25.237127067351
377.62298583984	63.223445725742	-25.314738730283
378.62200927734	61.826841512303	-25.333121543028
379.62100219727	60.452444562418	-25.289518256841
380.61999511719	59.110234222740	-25.186431607402
381.61898803711	57.808330214930	-25.031153943420
382.61801147461	56.550868161033	-24.833703730814
383.61700439453	55.337431328890	-24.604206925768
384.61599731445	54.163971914740	-24.350667566083
385.61499023438	53.024546730209	-24.077678332223
386.61401367188	51.913319606571	-23.786275695831
387.61300659180	50.826194369634	-23.474723868202
388.61199951172	49.761819140290	-23.139980519025
389.61099243164	48.721633144216	-22.779283193663
390.60998535156	47.709226475903	-22.391634740502
391.60900878906	46.728964237043	-21.978639158071
392.60800170898	45.784436289798	-21.544587588317
393.60699462891	44.876954051297	-21.095633476337
394.60598754883	44.004793943787	-20.638288675996
395.60501098633	43.163319721012	-20.177620106139
396.60400390625	42.346155646590	-19.715738204666
397.60299682617	41.547141229838	-19.251199465182
398.60198974609	40.762333245080	-18.779602263347
399.60101318359	39.991459458226	-18.295403001329
400.60000610352	39.237957214222	-17.794265717429
401.59899902344	38.507612563327	-17.275143527245
