#Parameters = {a=1500; t=0.1}
#"Frequency / GHz"	"Z1,1 [Real/Imaginary Part] [Re]"	"Z1,1 [Real/Imaginary Part] [Im]"
#-------------------------------------------------------------------------------------
1.0000000000000	432.42292654264	-1508.0073857048
1.9989999532700	112.59255011569	-799.34437917591
2.9979999065399	48.983015404218	-537.75961281003
3.9969999790192	26.400737668208	-403.57170025852
4.9959998130798	15.923283550274	-322.03217100976
5.9949998855591	10.254399993589	-267.17606293815
6.9939999580383	6.8703562097055	-227.67691342632
7.9930000305176	4.7108406345833	-197.81811538512
8.9919996261597	3.2672842879831	-174.40596693689
9.9910001754761	2.2707243023229	-155.51722301613
10.989999771118	1.5679146128893	-139.92478056174
11.989000320435	1.0660504760906	-126.80907087001
12.987999916077	0.70617215369656	-115.60174586661
13.987000465393	0.44926445483561	-105.89621218974
14.986000061035	0.26860981253010	-97.393916721567
15.984999656677	0.14532899917947	-89.870611862713
16.983999252319	0.065776378625575	-83.154488490836
17.982999801636	0.019864271418977	-77.111696889598
18.982000350952	1.0188024595865e-06	-71.636341987685
19.981000900269	0.00038555362647596	-66.643521732432
20.979999542236	0.016523595923915	-62.064334223976
21.979000091553	0.044915097464734	-57.842243026498
22.978000640869	0.082786455301154	-53.930390514319
23.976999282837	0.12795285095547	-50.289609429722
24.975999832153	0.17866303072963	-46.886879501443
25.975000381470	0.23352531690312	-43.694165009482
26.974000930786	0.29143205241188	-40.687398809087
27.972999572754	0.35151294136868	-37.845946605650
28.972000122070	0.41306058199645	-35.151878425662
29.971000671387	0.47553142996602	-32.589596239800
30.969999313354	0.53852313767288	-30.145361407994
31.968999862671	0.60172207101247	-27.807106235430
32.967998504639	0.66492632424528	-25.564107825048
33.966999053955	0.72800525446157	-23.406797249632
34.965999603271	0.79091862573992	-21.326643697315
35.965000152588	0.85368707679630	-19.315912626110
36.964000701904	0.91640687212782	-17.367617555316
37.963001251221	0.97926037492445	-15.475403737984
38.962001800537	1.0424738978086	-13.633441052941
39.960998535156	1.1063773222572	-11.836383447989
40.959999084473	1.1713709227729	-10.079263836208
41.958999633789	1.2379558877932	-8.3574967193871
42.958000183105	1.3067098687275	-6.6667731930343
43.957000732422	1.3783360713462	-5.0030905812186
44.956001281738	1.4536501340889	-3.3626596269662
45.955001831055	1.5335896702858	-1.7419040960184
46.953998565674	1.6192369469652	-0.13746745028811
47.952999114990	1.7118252820107	1.4538501909652
48.951999664307	1.8127562026713	3.0350887342400
49.951000213623	1.9236099379469	4.6090773192978
50.950000762939	2.0461707996161	6.1785581457783
51.949001312256	2.1824382345845	7.7460510887795
52.948001861572	2.3346389625204	9.3139355384385
53.946998596191	2.5052658508584	10.884416945609
54.945999145508	2.6970842245410	12.459492900188
55.944999694824	2.9131518307845	14.040928695919
56.944000244141	3.1568458866493	15.630263406728
57.943000793457	3.4318884732055	17.228716153348
58.942001342773	3.7423602924336	18.837158803139
59.941001892090	4.0927147011534	20.456077345537
60.939998626709	4.4877858883082	22.085452463525
61.938999176025	4.9327811204755	23.724670021553
62.937999725342	5.4332880008358	25.372496463439
63.937000274658	5.9952149860654	27.026813193787
64.935997009277	6.6247465756917	28.684627204813
65.934997558594	7.3282472121622	30.341830605954
66.933998107910	8.1121440887705	31.993121805397
67.932998657227	8.9827194640014	33.631771633489
68.931999206543	9.9458938201542	35.249565237238
69.930999755859	11.006929630602	36.836662763481
70.930000305176	12.170075895761	38.381557814386
71.929000854492	13.438126336242	39.871064636659
72.928001403809	14.811980900604	41.290507406500
73.927001953125	16.290146919995	42.623922265840
74.926002502441	17.868284407546	43.854472980463
75.925003051758	19.538780569332	44.965034577602
76.924003601074	21.290506646827	45.938913775463
77.922996520996	23.108690709100	46.760686075394
78.921997070313	24.975119659470	47.417144930006
79.920997619629	26.868538750815	47.898207775427
80.919998168945	28.765373335869	48.197665926590
81.918998718262	30.640731916133	48.313844083385
82.917999267578	32.469493236522	48.249851235326
83.916999816895	34.227521785329	48.013499168787
84.916000366211	35.892766697344	47.616865772256
85.915000915527	37.446215190589	47.075613394648
86.914001464844	38.872549927692	46.408013811616
87.913002014160	40.160290577025	45.633822647457
88.912002563477	41.302009122242	44.773375127233
89.911003112793	42.293786836047	43.846582177718
90.910003662109	43.134853765972	42.872326512022
91.908996582031	43.826904744721	41.867988186721
92.907997131348	44.373382291261	40.849154718872
93.906997680664	44.778988465263	39.829723253427
94.905998229980	45.049233570223	38.822036193815
95.904998779297	45.189978881888	37.837046199047
96.903999328613	45.207329516071	36.884645867002
97.902999877930	45.107596484272	35.973938383101
98.902000427246	44.897207534771	35.113370594651
99.901000976563	44.582949672082	34.310931640511
100.90000152588	44.171988247788	33.574141792142
101.89900207520	43.672037800909	32.910039861697
102.89800262451	43.091346348023	32.325052442774
103.89700317383	42.438845607016	31.824900804897
104.89600372314	41.723984684953	31.414365232693
105.89499664307	40.956731991181	31.097239393585
106.89399719238	40.147316566317	30.876135774645
107.89299774170	39.306151412966	30.752461983933
108.89199829102	38.443534967739	30.726359207964
109.89099884033	37.569544126594	30.796811953938
110.88999938965	36.693776712308	30.961621778088
111.88899993896	35.825264522025	31.217595827803
112.88800048828	34.972310853272	31.560642202861
113.88700103760	34.142450881680	31.985942642680
114.88600158691	33.342331678324	32.488006106542
115.88500213623	32.577777985249	33.060929795078
116.88400268555	31.853741557223	33.698441676811
117.88300323486	31.174298248298	34.393998447466
118.88200378418	30.542689134040	35.140873756052
119.88099670410	29.961372421743	35.932317859352
120.87999725342	29.431990537224	36.761509072793
121.87899780273	28.955405659665	37.621661199813
122.87799835205	28.531724291821	38.506115782839
123.87699890137	28.160220899958	39.408297042836
124.87599945068	27.839464423557	40.321937562245
125.87500000000	27.567208086652	41.241026819602
126.87400054932	27.340452388544	42.160018806248
127.87300109863	27.155393739588	43.073779835070
128.87199401855	27.007603828588	43.977971368994
129.87100219727	26.891933211644	44.868920883186
130.86999511719	26.802774606919	45.743943686620
131.86900329590	26.734049125041	46.601318163366
132.86799621582	26.679554270445	47.440550165871
133.86700439453	26.633040027195	48.262280431880
134.86599731445	26.588476907260	49.068316413584
135.86500549316	26.540324894968	49.861689475784
136.86399841309	26.483769130345	50.646480145301
137.86300659180	26.414899836417	51.427677240416
138.86199951172	26.330846976400	52.210912246057
139.86099243164	26.230007726911	53.002349059682
140.86000061035	26.111978432573	53.808305741430
141.85899353027	25.977624146178	54.635041344589
142.85800170898	25.828999240258	55.488551909673
143.85699462891	25.669233109496	56.374265641694
144.85600280762	25.502352818299	57.296894653524
145.85499572754	25.333128067276	58.260291713050
146.85400390625	25.166875403474	59.267375158374
147.85299682617	25.009235497011	60.320048162513
148.85200500488	24.865964292818	61.419135842623
149.85099792480	24.742765121985	62.564487831690
150.85000610352	24.645047560291	63.754937369139
151.84899902344	24.577741526982	64.988396431344
152.84800720215	24.545153050887	66.261955737430
153.84700012207	24.550727924886	67.572089052477
154.84599304199	24.596921632880	68.914639399640
155.84500122070	24.685022081387	70.285211378223
156.84399414063	24.815015339248	71.679308421729
157.84300231934	24.985523501371	73.092753588255
158.84199523926	25.193707759606	74.521868168794
159.84100341797	25.435370802259	75.964049094911
160.83999633789	25.704987750763	77.418039258186
161.83900451660	25.996017579993	78.884443677945
162.83799743652	26.301160566091	80.366075302795
163.83700561523	26.612820217998	81.868360033073
164.83599853516	26.923653172714	83.399518002649
165.83500671387	27.227079769032	84.970831919490
166.83399963379	27.518021595257	86.596631704195
167.83299255371	27.793450965800	88.294356063754
168.83200073242	28.053036766348	90.084235249904
169.83099365234	28.299670707417	91.989286101312
170.83000183105	28.540087031967	94.035043375500
171.82899475098	28.785273592689	96.249381387115
172.82800292969	29.051072494305	98.662537885774
173.82699584961	29.358859429250	101.30695348582
174.82600402832	29.736407598583	104.21762483469
175.82499694824	30.219101562472	107.43219059601
176.82400512695	30.851623438768	110.99129177360
177.82299804688	31.690483783602	114.93882294679
178.82200622559	32.807476494421	119.32213115233
179.82099914551	34.294409769451	124.19142361067
180.82000732422	36.269934738876	129.59850096200
181.81900024414	38.888751232034	135.59339727738
182.81799316406	42.353908190627	142.21774294101
183.81700134277	46.933242436254	149.49157475719
184.81599426270	52.979142490969	157.39007607121
185.81500244141	60.950298290383	165.80119770667
186.81399536133	71.427169965273	174.45428196172
187.81300354004	85.101487505879	182.80373978964
188.81199645996	102.69491044614	189.86055964018
189.81100463867	124.72562960473	193.99426812196
190.80999755859	151.01833039305	192.82975448039
191.80900573730	179.95156048809	183.54276705565
192.80799865723	207.82895952175	163.95620879105
193.80700683594	229.33852748571	134.33644527421
194.80599975586	239.77379911714	98.511253011720
195.80499267578	237.70355128067	62.578440130413
196.80400085449	225.50910647635	31.859260850945
197.80299377441	207.43809006813	8.8683611208595
198.80200195313	187.36694778088	-6.4855271584148
199.80099487305	167.81561329677	-15.623431263543
200.80000305176	150.02987262312	-20.230927826389
201.79899597168	134.42314644187	-21.750224794082
202.79800415039	120.97097486688	-21.254817959019
203.79699707031	109.46052675078	-19.488901233730
204.79600524902	99.623336403360	-16.948797821029
205.79499816895	91.196751891826	-13.958187861063
206.79400634766	83.947871071908	-10.725040502170
207.79299926758	77.679711787866	-7.3812667550070
208.79200744629	72.229546521015	-4.0092578493436
209.79100036621	67.464565610116	-0.65931129637676
210.78999328613	63.276905316853	2.6389940646719
211.78900146484	59.579103950470	5.8693969910529
212.78799438477	56.300180245244	9.0241211099917
213.78700256348	53.382418152312	12.100711291478
214.78599548340	50.778772076322	15.099945509907
215.78500366211	48.450785228059	18.024463643542
216.78399658203	46.366957946091	20.877849899957
217.78300476074	44.501390475487	23.664003086572
218.78199768066	42.832710377316	26.386739995756
219.78100585938	41.343255987259	29.049520288891
220.77999877930	40.018294551625	31.655246150511
221.77900695801	38.845447622544	34.206145059112
222.77799987793	37.814138761065	36.703704160190
223.77699279785	36.915204412067	39.148664593134
224.77600097656	36.140409981180	41.541007232268
225.77499389648	35.482120288954	43.880019402738
226.77400207520	34.933011634833	46.164429079315
227.77299499512	34.485695693991	48.392482853666
228.77200317383	34.132563537758	50.562230776987
229.77099609375	33.865576999078	52.671675890010
230.77000427246	33.676139551345	54.719116062147
231.76899719238	33.555100368094	56.703396651164
232.76800537109	33.492754000573	58.624239130765
233.76699829102	33.479044966770	60.482521700108
234.76600646973	33.503771402910	62.280493025773
235.76499938965	33.556899288308	64.021985851458
236.76400756836	33.628913986462	65.712390462719
237.76300048828	33.711235813986	67.358829419051
238.76199340820	33.796519827849	68.969715667152
239.76100158691	33.879065495554	70.554815372711
240.75999450684	33.954988542173	72.124736426444
241.75900268555	34.022459704101	73.690675000065
242.75799560547	34.081688890879	75.263895871652
243.75700378418	34.134979430439	76.855536663478
244.75599670410	34.186592174809	78.476083248403
245.75500488281	34.242571967150	80.135217972843
246.75399780273	34.310569714736	81.841417712662
247.75300598145	34.399608728884	83.601968267207
248.75199890137	34.519825150905	85.422612878526
249.75100708008	34.682304373691	87.307618946285
250.75000000000	34.898795048496	89.259605561574
251.74899291992	35.181581475130	91.279619811251
252.74800109863	35.543230704016	93.367016719667
253.74699401855	35.996462411225	95.519376095305
254.74600219727	36.553877305880	97.732716569150
255.74499511719	37.227874922930	100.00124857010
256.74398803711	38.030351766773	102.31757209599
257.74301147461	38.972441003324	104.67263222016
258.74200439453	40.064391647697	107.05585889430
259.74099731445	41.315282140020	109.45523725658
260.73999023438	42.732751027980	111.85761039456
261.73901367188	44.322896281852	114.24891197394
262.73800659180	46.090148651423	116.61446788981
263.73699951172	48.037163206303	118.93936186007
264.73599243164	50.165144448890	121.20883014121
265.73498535156	52.473796226764	123.40877057067
266.73400878906	54.961951132738	125.52565963934
267.73300170898	57.627872134833	127.54717954209
268.73199462891	60.470027928780	129.46172495382
269.73098754883	63.487505133517	131.25854682133
270.73001098633	66.680785742248	132.92692982853
271.72900390625	70.051996209165	134.45564341789
272.72799682617	73.605322977065	135.83175704637
273.72698974609	77.346740176781	137.03952018777
274.72601318359	81.283720724218	138.05900086404
275.72500610352	85.424043131582	138.86461202117
276.72399902344	89.774411430868	139.42397639120
277.72299194336	94.338194747905	139.69688737451
278.72198486328	99.112820453261	139.63468027889
279.72100830078	104.08634358335	139.18077607933
280.72000122070	109.23376347899	138.27181634406
281.71899414063	114.51327422075	136.84030738668
282.71798706055	119.86274275829	134.81919977760
283.71701049805	125.19734103473	132.14783064854
284.71600341797	130.40916543578	128.77973853386
285.71499633789	135.36936430325	124.69099877821
286.71398925781	139.93409342428	119.88896281313
287.71301269531	143.95377484655	114.41874038086
288.71200561523	147.28572054065	108.36658504646
289.71099853516	149.80759198221	101.85788524703
290.70999145508	151.43072985935	95.050368951582
291.70901489258	152.10952863929	88.121763684460
292.70800781250	151.84588439417	81.255004072581
293.70700073242	150.68748656876	74.622855766034
294.70599365234	148.72059804517	68.374757897516
295.70498657227	146.05941429683	62.628004091011
296.70401000977	142.83365931127	57.463740876613
297.70300292969	139.17705026473	52.927460165495
298.70199584961	135.21764580836	49.032924350233
299.70098876953	131.07134284753	45.768244664824
300.70001220703	126.83780973309	43.102423987905
301.69900512695	122.59925353971	40.991867480533
302.69799804688	118.42057503628	39.385735957599
303.69699096680	114.35095996794	38.230367116655
304.69601440430	110.42597935886	37.472381291366
305.69500732422	106.66978940522	37.060858465699
306.69400024414	103.09743775424	36.948635484081
307.69299316406	99.716853428241	37.092969338337
308.69198608398	96.530567951494	37.455772266181
309.69100952148	93.537166709130	38.003523372986
310.69000244141	90.732394064178	38.706981394679
311.68899536133	88.110118602400	39.540892789453
312.68798828125	85.663005366355	40.483511376484
313.68701171875	83.382988229447	41.516219160181
314.68600463867	81.261747480292	42.623124826667
315.68499755859	79.290922427215	43.790698304679
316.68399047852	77.462312997892	45.007391397089
317.68301391602	75.768060336768	46.263431434002
318.68200683594	74.200698247079	47.550478416158
319.68099975586	72.753218171937	48.861412403413
320.67999267578	71.419087121055	50.190155218118
321.67898559570	70.192312803848	51.531486487110
322.67800903320	69.067357845327	52.880850625351
323.67700195313	68.039198489031	54.234277846329
324.67599487305	67.103254420194	55.588250191404
325.67498779297	66.255382973569	56.939529802000
326.67401123047	65.491833271484	58.285170753013
327.67300415039	64.809216454414	59.622338861850
328.67199707031	64.204430399476	60.948299984321
329.67098999023	63.674624199984	62.260310327397
330.67001342773	63.217123031979	63.555611821913
331.66900634766	62.829376240661	64.831340119758
332.66799926758	62.508862472510	66.084546570049
333.66699218750	62.253052705591	67.312129179059
334.66598510742	62.059256688571	68.510848863334
335.66500854492	61.924656781402	69.677413213638
336.66400146484	61.846078769601	70.808366810478
337.66299438477	61.820099580382	71.900295814439
338.66198730469	61.842819966104	72.949796854979
339.66101074219	61.909910277556	73.953601288295
340.66000366211	62.016585117559	74.908652566595
341.65899658203	62.157538399926	75.812266516944
342.65798950195	62.326998115910	76.662173829174
343.65701293945	62.518806383317	77.456722565129
344.65600585938	62.726403128347	78.194905834493
345.65499877930	62.943018309364	78.876552901399
346.65399169922	63.161772540486	79.502309845497
347.65301513672	63.375848642347	80.073774930398
348.65200805664	63.578632305514	80.593436174221
349.65100097656	63.763864874677	81.064683424270
350.64999389648	63.925885879266	81.491769427336
351.64898681641	64.059714136161	81.879624464523
352.64801025391	64.161210864272	82.233807131937
353.64700317383	64.227138501867	82.560299925469
354.64599609375	64.255278833489	82.865312447163
355.64498901367	64.244323798915	83.155105031667
356.64401245117	64.194021446518	83.435847371984
357.64300537109	64.104964017281	83.713430484756
358.64199829102	63.978542540634	83.993301105023
359.64099121094	63.816811543580	84.280286929146
360.64001464844	63.622363189721	84.578707150121
361.63900756836	63.398323204208	84.892110408111
362.63800048828	63.147743097194	85.223285661776
363.63699340820	62.873930254882	85.574394619304
364.63598632813	62.580338723011	85.947005133633
365.63500976563	62.269944544572	86.341933793086
366.63400268555	61.945626003834	86.759602907877
367.63299560547	61.609941604568	87.199992346022
368.63198852539	61.264942402937	87.662645767628
369.63101196289	60.912360756344	88.147007039047
370.63000488281	60.553630701107	88.652490457035
371.62899780273	60.189523372688	89.178312748498
372.62799072266	59.820521331844	89.723862677110
373.62701416016	59.446895669584	90.288734614855
374.62600708008	59.068506459501	90.872706477059
375.62500000000	58.685099939561	91.475869347241
376.62399291992	58.296366816742	92.098666936033
377.62298583984	57.901773695148	92.741754260160
378.62200927734	57.501146671282	93.406332155753
379.62100219727	57.094182344863	94.093684527760
380.61999511719	56.680986799188	94.805564202930
381.61898803711	56.261831705405	95.543779551175
382.61801147461	55.837354731968	96.310420935217
383.61700439453	55.408666941394	97.107641424098
384.61599731445	54.977116774596	97.937606066273
385.61499023438	54.544524183989	98.802379724278
386.61401367188	54.113058578001	99.703910355783
387.61300659180	53.685306996910	100.64395967046
388.61199951172	53.264182412380	101.62410183656
389.61099243164	52.852697279059	102.64527795983
390.60998535156	52.454380186372	103.70845114967
391.60900878906	52.072617233187	104.81385766554
392.60800170898	51.711113357368	105.96151166035
393.60699462891	51.373442521426	107.15079051164
394.60598754883	51.063222309092	108.38088359840
395.60501098633	50.783929084421	109.65031375775
396.60400390625	50.538835057960	110.95726007576
397.60299682617	50.330983265915	112.29952780957
398.60198974609	50.163068350635	113.67451216234
399.60101318359	50.037447664608	115.07947536377
400.60000610352	49.956039206171	116.51123849073
401.59899902344	49.920304861485	117.96660933385
402.59799194336	49.931211324761	119.44229914765
403.59698486328	49.989267892907	120.93491618829
404.59600830078	50.094399324040	122.44132113353
405.59500122070	50.246120373587	123.95847463386
406.59399414063	50.443465726154	125.48373977330
407.59298706055	50.685145140931	127.01471756185
408.59201049805	50.969472044994	128.54961255624
409.59100341797	51.294679226605	130.08715801358
