#Parameters = {co_y=99.65; co_x=75; g=40.35; i_y=199.65; i_x=475; c_y=459.65; c_x=495; eps_eff=6; t=0.1; a=3000}
#"Frequency / GHz"	"Z1,1 [Real/Imaginary Part] [Re]"	"Z1,1 [Real/Imaginary Part] [Im]"
#-------------------------------------------------------------------------------------
92.000000000000	43.860957349892	38.597793391458
92.508003234863	44.190613788856	37.973436145528
93.015998840332	44.469644566307	37.335511341579
93.524002075195	44.696494802113	36.688007072265
94.031997680664	44.870060874575	36.035193589710
94.540000915527	44.989706630939	35.381512950521
95.047996520996	45.055351560034	34.731563394179
95.555999755859	45.067474757501	34.089986809622
96.064002990723	45.027097811484	33.461357553900
96.571998596191	44.935821152157	32.850126015281
97.080001831055	44.795734389086	32.260529048609
97.587997436523	44.609445145065	31.696493375979
98.096000671387	44.379938374808	31.161583548997
98.603996276855	44.110618051758	30.658972153168
99.111999511719	43.805133367119	30.191347664747
99.620002746582	43.467378122136	29.760926141012
100.12799835205	43.101375804980	29.369436685309
100.63600158691	42.711216850812	29.018104063012
101.14399719238	42.301006822332	28.707669546642
101.65200042725	41.874774838975	28.438413628636
102.16000366211	41.436457065701	28.210182841406
102.66799926758	40.989796482831	28.022420636228
103.17600250244	40.538355881568	27.874217755867
103.68399810791	40.085470004527	27.764342503602
104.19200134277	39.634179529090	27.691274583929
104.69999694824	39.187310320791	27.653279767577
105.20800018311	38.747359261591	27.648407227012
105.71600341797	38.316546800031	27.674558998903
106.22399902344	37.896796408358	27.729510889962
106.73200225830	37.489759450986	27.810951478199
107.23999786377	37.096798496364	27.916526272722
107.74800109863	36.718990941661	28.043813835419
108.25599670410	36.357150366023	28.190430895969
108.76399993896	36.011839019330	28.353979285308
109.27200317383	35.683361006994	28.532118386697
109.77999877930	35.371796268655	28.722551941832
110.28800201416	35.076989236028	28.923076991032
110.79599761963	34.798582291527	29.131577415323
111.30400085449	34.536011226733	29.346055470940
111.81199645996	34.288512696275	29.564620612745
112.31999969482	34.055171943991	29.785535503250
112.82800292969	33.834917592346	30.007236799541
113.33599853516	33.626500185136	30.228299310489
113.84400177002	33.428612398842	30.447505101299
114.35199737549	33.239773081155	30.663812960691
114.86000061035	33.058468081492	30.876393558783
115.36799621582	32.883121193482	31.084639491472
115.87599945068	32.712095400982	31.288129960833
116.38400268555	32.543775303324	31.486708028715
116.89199829102	32.376544931747	31.680389904885
117.40000152588	32.208840705271	31.869436697746
117.90799713135	32.039169865579	32.054308845456
118.41600036621	31.866133695926	32.235652328090
118.92400360107	31.688463978297	32.414309772960
119.43199920654	31.505034517784	32.591283436181
119.94000244141	31.314868143878	32.767699618545
120.44799804688	31.117195350607	32.944822966046
120.95600128174	30.911426530149	33.124002000411
121.46399688721	30.697158752233	33.306625237739
121.97200012207	30.474199840041	33.494137363312
122.48000335693	30.242582974388	33.687987748465
122.98799896240	30.002519233941	33.889587956899
123.49600219727	29.754413213253	34.100301236212
124.00399780273	29.498851066606	34.321431479274
124.51200103760	29.236582572228	34.554170589389
125.01999664307	28.968499645542	34.799600037218
125.52799987793	28.695631496948	35.058680595136
126.03600311279	28.419109808990	35.332231144491
126.54399871826	28.140132168540	35.620895099845
127.05200195313	27.859991593964	35.925209288535
127.55999755859	27.579999313705	36.245494408655
128.06799316406	27.301503506768	36.581965274150
128.57600402832	27.025867157721	36.934652249259
129.08399963379	26.754405075987	37.303422314418
129.59199523926	26.488443814334	37.688042221652
130.10000610352	26.229231645010	38.088094605184
130.60800170898	25.978000074286	38.503057599326
131.11599731445	25.735863065712	38.932269787249
131.62399291992	25.503890504898	39.374964921469
132.13200378418	25.283065960378	39.830273928015
132.63999938965	25.074245731388	40.297232347717
133.14799499512	24.878200928499	40.774786284032
133.65600585938	24.695599777848	41.261821336887
134.16400146484	24.526971881455	41.757157652637
134.67199707031	24.372732837799	42.259543982952
135.17999267578	24.233172204347	42.767723067496
135.68800354004	24.108422021558	43.280368291864
136.19599914551	23.998489000933	43.796148894400
136.70399475098	23.903269133632	44.313787906426
137.21200561523	23.822432538652	44.831904113998
137.72000122070	23.755586998777	45.349254459097
138.22799682617	23.702129742050	45.864572916967
138.73599243164	23.661379806128	46.376720404250
139.24400329590	23.632438332642	46.884538107550
139.75199890137	23.614305885011	47.387013059308
140.25999450684	23.605866191884	47.883295589367
140.76800537109	23.605864997383	48.372568093095
141.27600097656	23.612943276918	48.854235413413
141.78399658203	23.625678778109	49.327844912030
142.29200744629	23.642536650176	49.793089581450
142.80000305176	23.661981771255	50.249923604226
143.30799865723	23.682417547433	50.698420590628
143.81599426270	23.702271045724	51.138901273926
144.32400512695	23.719984931790	51.571888711634
144.83200073242	23.734085536050	51.998120632874
145.33999633789	23.743122829086	52.418470623437
145.84800720215	23.745834035870	52.834103307715
146.35600280762	23.741004056179	53.246201430466
146.86399841309	23.727655822256	53.656287516163
147.37199401855	23.704938668453	54.065850174908
147.88000488281	23.672205044102	54.476594614112
148.38800048828	23.629024083568	54.890245816507
148.89599609375	23.575154894461	55.308614797999
149.40400695801	23.510572151406	55.733513540623
149.91200256348	23.435485924399	56.166770186938
150.41999816895	23.350273357683	56.610156071859
150.92799377441	23.255537371818	57.065384471230
151.43600463867	23.152086507656	57.534197358959
151.94400024414	23.040857580835	58.018069169786
152.45199584961	22.922963101140	58.518459859621
152.96000671387	22.799697388603	59.036738297143
153.46800231934	22.672382982147	59.574024180929
153.97599792480	22.542546011856	60.131376211676
154.48399353027	22.411706632152	60.709620239362
154.99200439453	22.281519589855	61.309524678236
155.50000000000	22.153635619441	61.931590938398
156.00799560547	22.029736864075	62.576197336798
156.51600646973	21.911558483913	63.243615820373
157.02400207520	21.800760252931	63.933828562463
157.53199768066	21.699034060948	64.646793975304
158.03999328613	21.608025956730	65.382284719861
158.54800415039	21.529305835098	66.139853157560
159.05599975586	21.464382894235	66.918973628947
159.56399536133	21.414712230138	67.719041021671
160.07200622559	21.381624645586	68.539246958350
160.58000183105	21.366353139764	69.378658111779
161.08799743652	21.369997631998	70.236304393268
161.59599304199	21.393524557820	71.111070801942
162.10400390625	21.437744828887	72.001783882069
162.61199951172	21.503305756716	72.907255175531
163.11999511719	21.590681552906	73.826153440310
163.62800598145	21.700129286150	74.757208711579
164.13600158691	21.831704354627	75.699149282791
164.64399719238	21.985276514782	76.650700633799
165.15199279785	22.160463978113	77.610710587474
165.66000366211	22.356687354459	78.578072058870
166.16799926758	22.573107741904	79.551894328836
166.67599487305	22.808731005414	80.531373949135
167.18400573730	23.062300804441	81.516006403163
167.69200134277	23.332428055052	82.505509375737
168.19999694824	23.617546390606	83.499937932387
168.70799255371	23.915967498742	84.499638318186
169.21600341797	24.225932483946	85.505421050602
169.72399902344	24.545643314415	86.518471185918
170.23199462891	24.873314380540	87.540394125263
170.74000549316	25.207239057832	88.573308551204
171.24800109863	25.545862725037	89.619841773192
171.75599670410	25.887807879539	90.683017383610
172.26400756836	26.231996493915	91.766482692773
172.77200317383	26.577667176686	92.874321408673
173.27999877930	26.924492307673	94.011065330215
173.78799438477	27.272591816159	95.181780187256
174.29600524902	27.622599453956	96.391950591343
174.80400085449	27.975798634570	97.647531718358
175.31199645996	28.334108723537	98.954846256637
175.82000732422	28.700161483816	100.32058106321
176.32800292969	29.077380434287	101.75187914083
176.83599853516	29.470058481679	103.25619007519
177.34399414063	29.883406850728	104.84132016773
177.85200500488	30.323659100201	106.51543528249
178.36000061035	30.798210264855	108.28697592643
178.86799621582	31.315631361990	110.16484453832
179.37600708008	31.885975174344	112.15818046089
179.88400268555	32.520887420634	114.27653611931
180.39199829102	33.233764642860	116.52974446534
180.89999389648	34.040191785874	118.92801005247
181.40800476074	34.958181624384	121.48177591659
181.91600036621	36.008591463812	124.20168198774
182.42399597168	37.215690412100	127.09839040945
182.93200683594	38.607746547572	130.18249922927
183.44000244141	40.217803333001	133.46399977163
183.94799804688	42.084460639873	136.95187761548
184.45599365234	44.253106883495	140.65350987380
184.96400451660	46.776933484529	144.57344010287
185.47200012207	49.718454330878	148.71188765156
185.97999572754	53.151004064869	153.06279922152
186.48800659180	57.160245507363	157.61064410747
186.99600219727	61.845767082714	162.32669772010
187.50399780273	67.322045778047	167.16304661299
188.01199340820	73.718621815836	172.04549539883
188.52000427246	81.178430607163	176.86369587607
189.02799987793	89.852956541548	181.45896083894
189.53599548340	99.892141526546	185.61002981874
190.04400634766	111.42653595817	189.01730410403
190.55200195313	124.53828419143	191.28976473915
191.05999755859	139.21821179500	191.93946906893
191.56799316406	155.30944129422	190.39438735612
192.07600402832	172.44280060089	186.04105511330
192.58399963379	189.98226428240	178.31150250451
193.09199523926	207.00950430471	166.81359199821
193.60000610352	222.38390054587	151.48673304554
194.10800170898	234.89955389982	132.72800381615
194.61599731445	243.51816102574	111.42264096094
195.12399291992	247.60457120475	88.832141586094
195.63200378418	247.06681172731	66.358875080903
196.13999938965	242.34155558780	45.274767497079
196.64799499512	234.24212551520	26.516532393071
197.15600585938	223.74599264209	10.604875304555
197.66400146484	211.80506336010	-2.3208023316493
198.17199707031	199.22472650104	-12.401858280680
198.67999267578	186.61551383737	-19.946095708639
199.18800354004	174.39710928970	-25.332387371209
199.69599914551	162.82909325185	-28.945483593070
200.20399475098	152.05016965418	-31.138876316515
200.71200561523	142.11447350778	-32.218158742638
201.22000122070	133.02087276085	-32.437193036591
201.72799682617	124.73481032289	-32.001348607869
202.23599243164	117.20335103778	-31.073635766590
202.74400329590	110.36522920849	-29.781794246811
203.25199890137	104.15705768346	-28.224961636484
203.75999450684	98.517130983487	-26.479513548378
204.26800537109	93.387488940443	-24.603974369252
204.77600097656	88.714912087022	-22.642926656188
205.28399658203	84.451287554272	-20.630203091061
205.79200744629	80.553508996946	-18.591289931943
206.30000305176	76.983242206445	-16.545286525914
206.80799865723	73.706534758242	-14.506368237564
207.31599426270	70.693380943233	-12.484939128515
207.82400512695	67.917319217386	-10.488517062769
208.33200073242	65.355010633423	-8.5224097307503
208.83999633789	62.985866521334	-6.5902485207038
209.34800720215	60.791732084427	-4.6943868215204
209.85600280762	58.756559208251	-2.8362171449292
210.36399841309	56.866155033000	-1.0164092508620
210.87199401855	55.107953410029	0.76490021294480
211.38000488281	53.470796656575	2.5079644271833
211.88800048828	51.944771548398	4.2133139737579
212.39599609375	50.521045638239	5.8816720095669
212.90400695801	49.191734729585	7.5138871733266
213.41200256348	47.949789757481	9.1108819618328
213.91999816895	46.788879354686	10.673614284879
214.42799377441	45.703317034432	12.203048852983
214.93600463867	44.687970996093	13.700128309111
215.44400024414	43.738196405968	15.165773717304
215.95199584961	42.849777510151	16.600853893372
216.46000671387	42.018862572715	18.006183477690
216.96800231934	41.241936692292	19.382535077315
217.47599792480	40.515752423433	20.730605740479
217.98399353027	39.837312070352	22.051050464534
218.49200439453	39.203830124293	23.344457276450
219.00000000000	38.612706114680	24.611376647759
219.50799560547	38.061464606638	25.852294988348
220.01600646973	37.547790487530	27.067673148991
220.52400207520	37.069469246458	28.257937242138
221.03199768066	36.624380306670	29.423484139052
221.53999328613	36.210466448076	30.564696233657
222.04800415039	35.825743595382	31.681950204860
222.55599975586	35.468303138337	32.775642643362
223.06399536133	35.136255231115	33.846162689634
223.57200622559	34.827752930972	34.893919504969
224.08000183105	34.541030346348	35.919391990779
224.58799743652	34.274300514969	36.923063386813
225.09599304199	34.025861661779	37.905478069870
225.60400390625	33.794044562806	38.867258687376
226.11199951172	33.577220938992	39.809065091874
226.61999511719	33.373827339110	40.731644681109
227.12800598145	33.182364204577	41.635816223913
227.63600158691	33.001386247019	42.522453906436
228.14399719238	32.829558875845	43.392528956768
228.65199279785	32.665599200426	44.247063584366
229.16000366211	32.508354376766	45.087152586773
229.66799926758	32.356752212100	45.913952381654
230.17599487305	32.209855891072	46.728683073176
230.68400573730	32.066835720239	47.532580513867
231.19200134277	31.926986168970	48.326930965529
231.69999694824	31.789742071613	49.113050693172
232.20799255371	31.654648075640	49.892238460706
232.71600341797	31.521395011968	50.665799641983
233.22399902344	31.389797639011	51.435041090598
233.73199462891	31.259799554039	52.201228036531
234.24000549316	31.131463221468	52.965592328021
234.74800109863	31.004984442056	53.729297763953
235.25599670410	30.880625647925	54.493466427810
235.76400756836	30.758804770993	55.259170639790
236.27200317383	30.639986071335	56.027349135033
236.77999877930	30.524730049485	56.798905754279
237.28799438477	30.413685468690	57.574646877089
237.79600524902	30.307544913259	58.355276167134
238.30400085449	30.207048032363	59.141383032551
238.81199645996	30.112983889788	59.933508181241
239.32000732422	30.026181208638	60.732054069559
239.82800292969	29.947461920085	61.537332643098
240.33599853516	29.877688402470	62.349583762909
240.84399414063	29.817687987307	63.168906228190
241.35200500488	29.768313319486	63.995353983308
241.86000061035	29.730369958247	64.828832074994
242.36799621582	29.704677289467	65.669247920648
242.87600708008	29.691981160199	66.516379627122
243.38400268555	29.692995046343	67.369881040956
243.89199829102	29.708414441183	68.229455384776
244.39999389648	29.738838974949	69.094632031740
244.90800476074	29.784843428088	69.964956642266
245.41600036621	29.846914109133	70.839907054317
245.92399597168	29.925502677244	71.718918160521
246.43200683594	30.020953721847	72.601397616065
246.94000244141	30.133561301158	73.486758750444
247.44799804688	30.263533271299	74.374357213947
247.95599365234	30.411009455861	75.263562974090
248.46400451660	30.576045087552	76.153805405653
248.97200012207	30.758634105279	77.044441832433
249.47999572754	30.958695566378	77.934973749014
249.98800659180	31.176095118337	78.824833111869
250.49600219727	31.410604721965	79.713584113496
251.00399780273	31.661977854992	80.600789841370
251.51199340820	31.929913221140	81.486159256328
252.02000427246	32.214074575327	82.369350308042
252.52799987793	32.514117836961	83.250269014248
253.03599548340	32.829660301534	84.128755303948
253.54400634766	33.160332566086	85.004852610380
254.05200195313	33.505804148573	85.878623458143
254.55999755859	33.865739649621	86.750258874873
255.06799316406	34.239902727785	87.620060481492
255.57600402832	34.628031404307	88.488377328526
256.08401489258	35.030035578984	89.355634832888
256.59201049805	35.445851479842	90.222384471726
257.10000610352	35.875543360026	91.089199504570
257.60800170898	36.319274935713	91.956715868568
258.11599731445	36.777365902345	92.825642613983
258.62399291992	37.250204994755	93.696655596858
259.13198852539	37.738420573481	94.570482345099
259.64001464844	38.242692163706	95.447852693570
260.14801025391	38.763945198431	96.329441897228
260.65600585938	39.303170464294	97.215913981270
261.16400146484	39.861587526935	98.107816940668
261.67199707031	40.440546310448	99.005698145999
262.17999267578	41.041550749610	99.909962274779
262.68798828125	41.666246076522	100.82090601463
263.19601440430	42.316434686594	101.73866828080
263.70401000977	42.994048027893	102.66328568874
264.21200561523	43.701147316768	103.59454007642
264.72000122070	44.439901819463	104.53213251873
265.22799682617	45.212546856280	105.47543804157
265.73599243164	46.021495702564	106.42373051420
266.24398803711	46.869128189206	107.37589638976
266.75201416016	47.757927177940	108.33071679502
267.26000976563	48.690406584526	109.28656094244
267.76800537109	49.669065917690	110.24165831431
268.27600097656	50.696404902468	111.19381655569
268.78399658203	51.774876948872	112.14056919667
269.29199218750	52.906854301062	113.07916257135
269.79998779297	54.094619879563	114.00650384625
270.30801391602	55.340295762155	114.91912910300
270.81600952148	56.645859500128	115.81332840214
271.32400512695	58.013054825641	116.68496247838
271.83200073242	59.443421230827	117.52962720631
272.33999633789	60.938122874790	118.34257545954
272.84799194336	62.498071148625	119.11870609959
273.35598754883	64.123767621894	119.85274742726
273.86401367188	65.815299538249	120.53901395704
274.37200927734	67.572287957402	121.17176436198
274.88000488281	69.393861142416	121.74486374665
275.38800048828	71.278494415773	122.25209691841
275.89599609375	73.224316047342	122.68722473701
276.40399169922	75.228536523108	123.04381863276
276.91198730469	77.287965810026	123.31549859311
277.42001342773	79.398637606133	123.49604490703
277.92800903320	81.555946504536	123.57932673228
278.43600463867	83.754511613777	123.55934800777
278.94400024414	85.988469300051	123.43063103808
279.45199584961	88.251112486094	123.18790476050
279.95999145508	90.534977970083	122.82629470886
280.46798706055	92.832384128441	122.34172946806
280.97601318359	95.134642871126	121.73056305784
281.48400878906	97.432908644923	120.98990799157
281.99200439453	99.717566604697	120.11768682589
282.50000000000	101.97902524947	119.11259471847
283.00799560547	104.20697422182	117.97420961517
283.51599121094	106.39120654946	116.70309506045
284.02398681641	108.52135247052	115.30069944447
284.53201293945	110.58706666788	113.76955899947
285.04000854492	112.57825550998	112.11313125240
285.54800415039	114.48445139655	110.33577721029
286.05599975586	116.29630043572	108.44305715567
286.56399536133	118.00446091481	106.44131274706
287.07199096680	119.60021384931	104.33772880080
287.57998657227	121.07549324458	102.14051503428
288.08801269531	122.42300954412	99.858529553193
288.59600830078	123.63623314609	97.501377640317
289.10400390625	124.70958936364	95.079247096580
289.61199951172	125.63846605940	92.602825013933
290.11999511719	126.41926619191	90.083231618816
290.62799072266	127.04949174777	87.531855872047
291.13598632813	127.52766411154	84.960232477859
291.64401245117	127.85350400599	82.379971369888
292.15200805664	128.02772965204	79.802526402013
292.66000366211	128.05217960290	77.239200095046
293.16799926758	127.92978640987	74.700982971384
293.67599487305	127.66436324699	72.198381566147
294.18399047852	127.26068389801	69.741337678937
294.69198608398	126.72438790582	67.339247286946
295.20001220703	126.06180002899	65.000703115676
295.70800781250	125.27997173118	62.733554214763
296.21600341797	124.38642320156	60.544819866139
296.72399902344	123.38914446937	58.440625237699
297.23199462891	122.29646937517	56.426234046025
297.73999023438	121.11685837819	54.505970320045
298.24798583984	119.85898564231	52.683330227604
298.75601196289	118.53148705714	50.960897370022
299.26400756836	117.14293736290	49.340470324192
299.77200317383	115.70171448605	47.823013453498
