#Parameters = {R=5000; C=3e-15; h_bond=180; r_bond=25}
#"Frequency / GHz"	"Z1,1 [Real/Imaginary Part] [Re]"	"Z1,1 [Real/Imaginary Part] [Im]"
#-------------------------------------------------------------------------------------
1.0000000000000	1152.6413707384	-5613.7765309975
1.4989999532700	638.79278690239	-3831.9175249365
1.9980000257492	448.69282792582	-2921.1467085251
2.4969999790192	353.08337773423	-2373.5601077371
2.9960000514984	293.76265081919	-2009.8324786430
3.4949998855591	250.75866381603	-1750.9459119963
3.9939999580383	215.98112892923	-1556.6685340412
4.4930000305176	185.94351841294	-1404.3750526416
4.9920001029968	159.22353463811	-1280.4621944047
5.4910001754761	135.38236881407	-1176.4254048029
5.9899997711182	114.41605770846	-1086.8643947954
6.4889998435974	96.433068815257	-1008.3536258585
6.9879999160767	81.470255796546	-938.73173816492
7.4869999885559	69.411562644404	-876.61687183249
7.9860000610352	59.978394122582	-821.07795969048
8.4849996566772	52.777513520163	-771.41561810828
8.9840002059937	47.352663484582	-727.03523657567
9.4829998016357	43.247106095442	-687.37973046211
9.9820003509521	40.042853118457	-651.90442003177
10.480999946594	37.390985729726	-620.07388309622
10.979999542236	35.026106071782	-591.37038847664
11.479000091553	32.770158160792	-565.30785073113
11.977999687195	30.527957621021	-541.44613405233
12.477000236511	28.273564953604	-519.40486608063
12.975999832153	26.035419460217	-498.87265121357
13.475000381470	23.874366983111	-479.61127949340
13.973999977112	21.862049989282	-461.45299287432
14.472999572754	20.063882794403	-444.29038047434
14.972000122070	18.521908464354	-428.06279003682
15.470999717712	17.250186827514	-412.73805950868
15.970000267029	16.233785729597	-398.29625543755
16.468999862671	15.433177109055	-384.71616851806
16.968000411987	14.793154295222	-371.96599235794
17.466999053955	14.252487480360	-359.99839727972
17.965999603271	13.753872660030	-348.75083444911
18.465000152588	13.251033885403	-338.14840155778
18.964000701904	12.714090827982	-328.10977124164
19.462999343872	12.132174922090	-318.55398829423
19.961999893188	11.511663658908	-309.40757242251
20.461000442505	10.873296000362	-300.61015185498
20.959999084473	10.245693291422	-292.11825384801
21.458999633789	9.6587958273208	-283.90601830577
21.958000183105	9.1382952996551	-275.96324974830
22.457000732422	8.6996161584832	-268.29122231997
22.955999374390	8.3469982088670	-260.89698782931
23.454999923706	8.0726195625959	-253.78805321919
23.954000473022	7.8590638822544	-246.96741918806
24.452999114990	7.6832009813381	-240.43038276902
24.951999664307	7.5203456350266	-234.16320787382
25.451000213623	7.3486762633763	-228.14380856240
25.950000762939	7.1526316259397	-222.34370157488
26.448999404907	6.9252201756885	-216.73156377529
26.947999954224	6.6682746021157	-211.27690915027
27.447000503540	6.3916799975233	-205.95367189029
27.945999145508	6.1105333858164	-200.74296035201
28.444999694824	5.8418924632421	-195.63450610909
28.944000244141	5.6013469367548	-190.62592571173
29.443000793457	5.3997491166101	-185.72164569947
29.941999435425	5.2415298071447	-180.92956317149
30.440999984741	5.1242929097160	-176.25813721054
30.940000534058	5.0394380651760	-171.71336744477
31.438999176025	4.9742667329435	-167.29668718322
31.937999725342	4.9146654126848	-163.00388805553
32.437000274658	4.8475447469884	-158.82466545083
32.936000823975	4.7633591545531	-154.74475724951
33.435001373291	4.6576692335211	-150.74684092084
33.933998107910	4.5317200400380	-146.81397523524
34.432998657227	4.3918359868509	-142.93135101846
34.931999206543	4.2480045865138	-139.08815367927
35.430999755859	4.1116503427996	-135.27908789748
35.930000305176	3.9932755379023	-131.50394501144
36.429000854492	3.9004973562072	-127.76662100869
36.928001403809	3.8366968465907	-124.07354222447
37.426998138428	3.8006480204415	-120.43111784008
37.925998687744	3.7870776947949	-116.84409430748
38.424999237061	3.7879406324840	-113.31406745871
38.923999786377	3.7941903831958	-109.83859231744
39.423000335693	3.7975672616277	-106.41121476730
39.922000885010	3.7923014594646	-103.02251669940
40.421001434326	3.7761070550760	-99.661167759371
40.919998168945	3.7506056293014	-96.315865363421
41.418998718262	3.7208505768942	-92.976858896625
41.917999267578	3.6943067843319	-89.637285624283
42.416999816895	3.6792916190923	-86.293781793759
42.916000366211	3.6834353683147	-82.946407167116
43.415000915527	3.7122836704816	-79.597888551163
43.914001464844	3.7685412351519	-76.252384035393
44.412998199463	3.8518348752828	-72.914035901963
44.911998748779	3.9591477846819	-69.585666988528
45.410999298096	4.0856914071178	-66.267950101718
45.909999847412	4.2260538999890	-62.958866634605
46.409000396729	4.3753719491936	-59.653785976237
46.908000946045	4.5303074463527	-56.346014436736
47.407001495361	4.6896914928934	-53.027699309287
47.905998229980	4.8547001612791	-49.690746616725
48.404998779297	5.0285925887493	-46.327885349303
48.903999328613	5.2160763748309	-42.933324604958
49.402999877930	5.4224564591395	-39.503067784254
49.902000427246	5.6527845102594	-36.034879859035
50.401000976563	5.9111479792933	-32.527842602315
50.900001525879	6.2002481568601	-28.981734828469
51.398998260498	6.5212738521082	-25.396302533742
51.897998809814	6.8740442735640	-21.770679466697
52.396999359131	7.2573720812414	-18.102812749757
52.895999908447	7.6694927802174	-14.389189128005
53.395000457764	8.1085356116135	-10.624677370834
53.894001007080	8.5730127566518	-6.8024986537539
54.393001556396	9.0621740378594	-2.9143696808801
54.891998291016	9.5763682642968	1.0493140428363
55.390998840332	10.117282956493	5.0992922481278
55.889999389648	10.688134160695	9.2471218730616
56.388999938965	11.293782966486	13.504872768215
56.888000488281	11.940757453099	17.884843430217
57.387001037598	12.637138954388	22.399175668601
57.886001586914	13.392362353784	27.059595597667
58.384998321533	14.216840638912	31.877231154443
58.883998870850	15.121414663762	36.862518208663
59.382999420166	16.116733595035	42.025440654835
59.881999969482	17.212617744274	47.376195431614
60.381000518799	18.417624651403	52.926108773579
60.880001068115	19.738938437946	58.689142205323
61.379001617432	21.182977799675	64.683517644645
61.877998352051	22.756644467729	70.933264781719
62.376998901367	24.469405472538	77.469541953719
62.875999450684	26.335927392185	84.331135647653
63.375000000000	28.378798625075	91.563883317896
63.874000549316	30.631203330650	99.219711143377
64.373001098633	33.138837650937	107.35419280155
64.872001647949	35.960902500372	116.02435373949
65.371002197266	39.170366016883	125.28633477921
65.870002746582	42.852746142280	135.19403255920
66.369003295898	47.105017732877	145.79873973933
66.867996215820	52.034006490635	157.15132490155
67.366996765137	57.756595318462	169.30647096692
67.865997314453	64.402570804278	182.32974619707
68.364997863770	72.122916302969	196.30588433180
68.863998413086	81.104868802980	211.34727895328
69.362998962402	91.595261254013	227.59946721691
69.861999511719	103.93398066328	245.23978604340
70.361000061035	118.59675677454	264.46541517528
70.860000610352	136.24830459650	285.46543686812
71.359001159668	157.80612780890	308.36789120517
71.858001708984	184.51288190126	333.14923848110
72.357002258301	218.01102111187	359.48544077969
72.856002807617	260.39873821983	386.50834566362
73.355003356934	314.21286499575	412.42816085994
73.853996276855	382.22556717655	433.97892732250
74.352996826172	466.83144881439	445.70756458542
74.851997375488	568.67884677899	439.32743210647
75.350997924805	684.21212998440	403.83482976873
75.849998474121	802.44618873802	327.82652962409
76.348999023438	903.24671066193	205.48644407044
76.847999572754	961.65027313993	44.764635275954
77.347000122070	960.13547767187	-129.74911291006
77.846000671387	900.38662143969	-286.58594104475
78.345001220703	802.02137482596	-403.59309967982
78.844001770020	689.68254108166	-475.58596623983
79.343002319336	581.78638449301	-509.82867149851
79.842002868652	487.59026125500	-517.76677207609
80.341003417969	409.55632197699	-509.70763253701
80.839996337891	346.58248168597	-493.08677459298
81.338996887207	296.24240471274	-472.63816339175
81.837997436523	255.94725230023	-451.11590554099
82.336997985840	223.42216898891	-429.98705015733
82.835998535156	196.83901268161	-409.93892573448
83.334999084473	174.80186028495	-391.21372666609
83.833999633789	156.28016621652	-373.82037885277
84.333000183105	140.53180560703	-357.66199837067
84.832000732422	127.02895957493	-342.61255504168
85.331001281738	115.39443986692	-328.55658574120
85.830001831055	105.35034689476	-315.40563762807
86.329002380371	96.678157293152	-303.10018870988
86.828002929688	89.192525027371	-291.60234800929
87.327003479004	82.726072090550	-280.88460569131
87.825996398926	77.122162872696	-270.92024543641
88.324996948242	72.234502556681	-261.67564316960
88.823997497559	67.930254988103	-253.10577044036
89.322998046875	64.093312848035	-245.15484139647
89.821998596191	60.628035731288	-237.75813030874
90.320999145508	57.461031328903	-230.84698543733
90.819999694824	54.540877535633	-224.35412370695
91.319000244141	51.835698137602	-218.21905194471
91.818000793457	49.328627277032	-212.39231618945
92.317001342773	47.012154196759	-206.83768404073
92.816001892090	44.882693096412	-201.53181266502
93.315002441406	42.935541191802	-196.46240127118
93.814002990723	41.161404250258	-191.62455960414
94.313003540039	39.545048199208	-187.01659339770
94.811996459961	38.065911121910	-182.63614865826
95.310997009277	36.699676302413	-178.47731605574
95.809997558594	35.421164146316	-174.52887011448
96.308998107910	34.207172720114	-170.77421888429
96.807998657227	33.039040319961	-167.19247195650
97.306999206543	31.904133494461	-163.76048781589
97.805999755859	30.796546018369	-160.45536001989
98.305000305176	29.716267726951	-157.25702221709
98.804000854492	28.667576046347	-154.15000282333
99.303001403809	27.656811333595	-151.12427205541
99.802001953125	26.689939150608	-148.17519377281
100.30100250244	25.770619714451	-145.30229560030
100.80000305176	24.899021063814	-142.50753054781
101.29900360107	24.071615953626	-139.79315409435
101.79799652100	23.281680105006	-137.16014744155
102.29699707031	22.520737823847	-134.60667932119
102.79599761963	21.779944691727	-132.12789291181
103.29499816895	21.051987475651	-129.71591433055
103.79399871826	20.332024612461	-127.36095306544
104.29299926758	19.618551813804	-125.05252549530
104.79199981689	18.913344204278	-122.78102784919
105.29100036621	18.220719110989	-120.53894963126
105.79000091553	17.546407409617	-118.32170597103
106.28900146484	16.896251750373	-116.12778711164
106.78800201416	16.274928243812	-113.95836622558
107.28700256348	15.685089055963	-111.81637723169
107.78600311279	15.126912502156	-109.70543952112
108.28500366211	14.598353120857	-107.62874003529
108.78399658203	14.095658451122	-105.58798963304
109.28299713135	13.614349108485	-103.58312774659
109.78199768066	13.150113427119	-101.61213124178
110.28099822998	12.699679684122	-99.671447697989
110.77999877930	12.261384331720	-97.756636400803
111.27899932861	11.835293476166	-95.863348996434
111.77799987793	11.423106522649	-93.987839009923
112.27700042725	11.027470069502	-92.127822370296
112.77600097656	10.651455470959	-90.282563613550
113.27500152588	10.297633461592	-88.452879983818
113.77400207520	9.9676193341232	-86.640803010966
114.27300262451	9.6617147091965	-84.848820842379
114.77200317383	9.3787862411520	-83.079454693737
115.27100372314	9.1165636980943	-81.334489996449
115.76999664307	8.8720639660573	-79.614752879559
116.26899719238	8.6421391848227	-77.919739271124
116.76799774170	8.4239779614957	-76.247994234613
117.26699829102	8.2155876394551	-74.597131990838
117.76599884033	8.0159938944421	-72.964424804789
118.26499938965	7.8252512826523	-71.347301659540
118.76399993896	7.6442522327828	-69.743702571589
119.26300048828	7.4744252568047	-68.152392900852
119.76200103760	7.3172390642032	-66.573047461597
120.26100158691	7.1738682220476	-65.006170470234
120.76000213623	7.0448650792030	-63.452803493715
121.25900268555	6.9300273250212	-61.914218882056
121.75800323486	6.8283754698562	-60.391558006989
122.25700378418	6.7383450301259	-58.885494906324
122.75599670410	6.6580556000324	-57.396059215645
123.25499725342	6.5856047974480	-55.922605297633
123.75399780273	6.5193882112557	-54.463790451224
124.25299835205	6.4583164539631	-53.017914676509
124.75199890137	6.4019194767046	-51.583110529050
125.25099945068	6.3503638504903	-50.157556193240
125.75000000000	6.3043007155532	-48.739826890769
126.24900054932	6.2646647987450	-47.329013965475
126.74800109863	6.2324397062082	-45.924715407319
127.24700164795	6.2084194414932	-44.527038104622
127.74600219727	6.1930244267969	-43.136446583085
128.24499511719	6.1862116512824	-41.753489804778
128.74400329590	6.1875037600146	-40.378663813847
129.24299621582	6.1960531120235	-39.012232915326
129.74200439453	6.2108133963788	-37.653995268085
130.24099731445	6.2307301543701	-36.303416994565
130.74000549316	6.2548862913255	-34.959470478776
131.23899841309	6.2827050284612	-33.620916051776
131.73800659180	6.3139833940461	-32.286368228510
132.23699951172	6.3489230542237	-30.954454108055
132.73599243164	6.3880617860509	-29.624024869030
133.23500061035	6.4321680499830	-28.294205245911
133.73399353027	6.4820745594691	-26.964482819546
134.23300170898	6.5385557676211	-25.634684126975
134.73199462891	6.6021742010250	-24.304849877845
135.23100280762	6.6732335652748	-22.975184179193
135.72999572754	6.7517333596026	-21.645901033986
136.22900390625	6.8374293952855	-20.317104038180
136.72799682617	6.9298677624102	-18.988614094789
137.22700500488	7.0285606385017	-17.660036680819
137.72599792480	7.1330548627734	-16.330661650805
138.22500610352	7.2430738748098	-14.999532802258
138.72399902344	7.3585831267509	-13.665550198107
139.22300720215	7.4798555899795	-12.327566531325
139.72200012207	7.6074336474281	-10.984490664837
140.22099304199	7.7421051689221	-9.6354011539119
140.72000122070	7.8847881229274	-8.2796216003219
141.21899414063	8.0364574615605	-6.9167210376644
141.71800231934	8.1980123927002	-5.5465266721191
142.21699523926	8.3702085241185	-4.1690375935928
142.71600341797	8.5535732759566	-2.7843776338766
143.21499633789	8.7484156750558	-1.3926389020993
143.71400451660	8.9548259949852	0.0061825515946310
144.21299743652	9.1727610975193	1.4122743363763
144.71200561523	9.4021083419832	2.8260896929455
145.21099853516	9.6428218043352	4.2483308283009
145.71000671387	9.8950064424117	5.6799388335396
146.20899963379	10.159021848126	7.1220191474630
146.70799255371	10.435522692554	8.5757301859919
147.20700073242	10.725459969525	10.042205415177
147.70599365234	11.030070093699	11.522389337637
148.20500183105	11.350764432147	13.017015156929
148.70399475098	11.689039681200	14.526490404387
149.20300292969	12.046354113832	16.050968556855
149.70199584961	12.423994682667	17.590348022850
150.20100402832	12.823006444493	19.144399315640
150.69999694824	13.244160517697	20.712882376737
151.19900512695	13.687944645456	22.295691789430
151.69799804688	14.154667204326	23.893013229334
152.19700622559	14.644587456498	25.505378262216
152.69599914551	15.158057462374	27.133729484327
153.19500732422	15.695702594638	28.779319090290
153.69400024414	16.258593494647	30.443711710567
154.19299316406	16.848329919456	32.128516954272
154.69200134277	17.467031578805	33.835208701801
155.19099426270	18.117316840247	35.564989353738
155.69000244141	18.802095526984	37.318535904327
156.18899536133	19.524413247906	39.096018035391
156.68800354004	20.287178430958	40.897066505233
157.18699645996	21.092975805129	42.720921073242
157.68600463867	21.943920814365	44.566637700045
158.18499755859	22.841598111509	46.433374817847
158.68400573730	23.787205468518	48.320701747096
159.18299865723	24.781754507722	50.228774579382
159.68200683594	25.826413012745	52.158524415632
160.18099975586	26.922872696500	54.111570774952
160.67999267578	28.073729107937	56.090066855568
161.17900085449	29.282684866434	58.096289295880
161.67799377441	30.554671812354	60.132220189450
162.17700195313	31.895694405657	62.199097282185
162.67599487305	33.312508463965	64.297035153559
163.17500305176	34.812168158939	66.424790500807
163.67399597168	36.401480496571	68.579907397672
164.17300415039	38.086504492426	70.758826296831
164.67199707031	39.872299221583	72.957599282541
165.17100524902	41.762814521254	75.172337112157
165.66999816895	43.761236972964	77.400023043907
166.16900634766	45.870601024613	79.638816437961
166.66799926758	48.094576706910	81.888374879441
167.16700744629	50.438400501033	84.149446927210
167.66600036621	52.909682316475	86.423317264837
168.16499328613	55.518774094453	88.710678236156
168.66400146484	58.278720161407	91.010495428938
169.16299438477	61.204737981087	93.318925871585
169.66200256348	64.313091723424	95.628437503847
170.16099548340	67.619772919830	97.927593486351
170.66000366211	71.139174063348	100.20145729039
171.15899658203	74.882964650500	102.43255768708
171.65800476074	78.859753846664	104.60242088924
172.15699768066	83.075347042857	106.69305069326
172.65600585938	87.534196618664	108.68828975446
173.15499877930	92.241165020874	110.57418633581
173.65400695801	97.203752979381	112.33837185116
174.15299987793	102.43399174928	113.96810809190
174.65199279785	107.94916643722	115.44755002430
175.15100097656	113.77129829142	116.75413274580
175.64999389648	119.92483491583	117.85574456595
176.14900207520	126.43289611169	118.70838958126
176.64799499512	133.31274377725	119.25594727131
177.14700317383	140.57092799641	119.43191676764
177.64599609375	148.19987865043	119.16314807704
178.14500427246	156.17605462764	118.37505673116
178.64399719238	164.46127359618	116.99685470993
179.14300537109	173.00591874609	114.96543993166
179.64199829102	181.75452388576	112.22690577804
180.14100646973	190.65031440409	108.73396307040
180.63999938965	199.63760645771	104.44045203150
181.13900756836	208.65955346079	99.295124075534
181.63800048828	217.65189509624	93.235713568191
182.13699340820	226.53044736352	86.189917652973
182.63600158691	235.18116267938	78.079601539903
183.13499450684	243.44870546530	68.837083057043
183.63400268555	251.13724729872	58.423023040542
184.13299560547	258.01729314177	46.848455080567
184.63200378418	263.84730741075	34.190830772869
185.13099670410	268.40094031452	20.598717929284
185.63000488281	271.49506372912	6.2821141819000
186.12899780273	273.00954838488	-8.5102924930376
186.62800598145	272.89205817013	-23.519714011642
187.12699890137	271.14784350397	-38.501937790853
187.62600708008	267.82042200115	-53.240360110934
188.12500000000	262.97252024312	-67.545182675023
188.62399291992	256.67398889049	-81.241767425495
189.12300109863	249.00398041325	-94.157499223436
189.62199401855	240.06219458683	-106.11445463114
190.12100219727	229.98488258430	-116.93457430904
190.61999511719	218.95469731687	-126.45638373456
191.11900329590	207.19887159309	-134.55826872511
191.61799621582	194.97311790078	-141.17888543392
192.11700439453	182.53558735573	-146.32615327750
192.61599731445	170.11968010150	-150.07199995312
193.11500549316	157.91382121908	-152.53483695436
193.61399841309	146.05260308368	-153.85578585784
194.11300659180	134.62049071300	-154.17636039525
194.61199951172	123.66357582858	-153.62219640253
195.11099243164	113.20555958942	-152.29632044380
195.61000061035	103.26196642541	-150.28006335603
196.10899353027	93.850084973624	-147.64046352033
196.60800170898	84.992377321139	-144.43941549933
197.10699462891	76.714221087347	-140.74159838203
197.60600280762	69.038229103259	-136.61883240087
198.10499572754	61.977796149463	-132.14929781749
198.60400390625	55.532543170463	-127.41372335314
199.10299682617	49.686834511774	-122.48935312401
199.60200500488	44.411987718170	-117.44427383401
200.10099792480	39.670415719267	-112.33383730230
200.60000610352	35.421253025979	-107.19933541588
201.09899902344	31.625050553165	-102.06941288327
201.59800720215	28.247463077395	-96.963022600415
202.09700012207	25.260816304597	-91.893513546952
202.59599304199	22.643834245612	-86.872102349570
203.09500122070	20.379859028148	-81.910857577547
