#Parameters = {C=5e-15; L=3e-08; a=4000; eps_eff=6; r_i=108; r_o=500; t=0.1}
#"Frequency / GHz"	"Z1,1 [Real/Imaginary Part] [Re]"	"Z1,1 [Real/Imaginary Part] [Im]"
#-------------------------------------------------------------------------------------
1.0000000000000	783.42781493817	-51.240760441037
1.4989999532700	804.20403622715	-85.177500672655
1.9980000257492	832.26447210901	-130.59552475991
2.4969999790192	865.04118314879	-193.72096669151
2.9960000514984	896.20117712006	-282.28417614226
3.4949998855591	912.29914813739	-403.51928486722
3.9939999580383	889.90263561237	-557.29939922589
4.4930000305176	800.74232390654	-723.25521758025
4.9920001029968	634.89663505085	-854.61560092278
5.4910001754761	425.76624243583	-904.57385651867
5.9899997711182	231.68554458616	-868.22156504549
6.4889998435974	89.191359067595	-780.03439208842
6.9879999160767	0.43717981831184	-677.33601018992
7.4869999885559	-48.543651917348	-581.24866741148
7.9860000610352	-72.403599861289	-499.09553015443
8.4849996566772	-81.624212241105	-431.34834783984
8.9840002059937	-82.715857920860	-376.07119899813
9.4829998016357	-79.488604589169	-330.89020194031
9.9820003509521	-74.115231897317	-293.67845724188
10.480999946594	-67.817404588057	-262.71420583236
10.979999542236	-61.272827906339	-236.65852057177
11.479000091553	-54.849034088451	-214.48498604998
11.977999687195	-48.736238407683	-195.40832820946
12.477000236511	-43.023741713586	-178.82547693877
12.975999832153	-37.743577707073	-164.27007514029
13.475000381470	-32.896054664610	-151.37829694517
13.973999977112	-28.464339212539	-139.86378762256
14.472999572754	-24.423067931944	-129.49902161089
14.972000122070	-20.743400187452	-120.10151428878
15.470999717712	-17.395830850164	-111.52363686152
15.970000267029	-14.351724096370	-103.64486324901
16.468999862671	-11.584152032380	-96.366044924650
16.968000411987	-9.0682811941678	-89.604860345352
17.466999053955	-6.7814677093397	-83.292572161628
17.965999603271	-4.7032681106812	-77.371259210489
18.465000152588	-2.8152555217351	-71.791807436994
18.964000701904	-1.1009007104709	-66.512282366172
19.462999343872	0.45456200939176	-61.496605360261
19.961999893188	1.8643690467739	-56.713635099577
20.461000442505	3.1403245543135	-52.136121925021
20.959999084473	4.2929931400797	-47.740323033849
21.458999633789	5.3318322333512	-43.505192080734
21.958000183105	6.2652969442788	-39.412028053682
22.457000732422	7.1009746143095	-35.444176182036
22.955999374390	7.8456737731681	-31.586538679362
23.454999923706	8.5055248747272	-27.825500469746
23.954000473022	9.0860558601806	-24.148556022028
24.452999114990	9.5922722219853	-20.544198792084
24.951999664307	10.028728354673	-17.001722765496
25.451000213623	10.399587803584	-13.511086973559
25.950000762939	10.708679547284	-10.062773420569
26.448999404907	10.959584321849	-6.6477094585395
26.947999954224	11.155651062861	-3.2571015221791
27.447000503540	11.300083433036	0.11760954148992
27.945999145508	11.396001247463	3.4848476098999
28.444999694824	11.446498662211	6.8529968903967
28.944000244141	11.454707820709	10.230496491635
29.443000793457	11.423910052504	13.625872971735
29.941999435425	11.357595174711	17.047868484057
30.440999984741	11.259586121898	20.505468107276
30.940000534058	11.134145430265	24.007958847507
31.438999176025	10.986166284213	27.565051304138
31.937999725342	10.821311584792	31.186876703758
32.437000274658	10.646225869263	34.884000723989
32.936000823975	10.468830735301	38.667511875873
33.435001373291	10.298581009226	42.548919412928
33.933998107910	10.146840770616	46.540090812579
34.432998657227	10.027331652456	50.653168196355
34.931999206543	9.9565610991675	54.900211772699
35.430999755859	9.9544208094203	59.292905306558
35.930000305176	10.044778733341	63.841904229036
36.429000854492	10.256033421907	68.556012999888
36.928001403809	10.621748766925	73.441011775847
37.426998138428	11.181030475296	78.498066203100
37.925998687744	11.978640416275	83.721677384962
38.424999237061	13.064588707696	89.097165649843
38.923999786377	14.492796198621	94.597560453326
39.423000335693	16.318650288053	100.18047334021
39.922000885010	18.594792632031	105.78485391105
40.421001434326	21.364988009354	111.32900647886
40.919998168945	24.656172739432	116.71030234373
41.418998718262	28.469044645164	121.80829580546
41.917999267578	32.768946243703	126.49219885499
42.416999816895	37.478884823169	130.63336653004
42.916000366211	42.477969725220	134.12122267930
43.415000915527	47.607455219467	136.88148215233
43.914001464844	52.684793246607	138.89052430890
44.412998199463	57.523730465977	140.18275844521
44.911998748779	61.957340021726	140.84923530887
45.410999298096	65.856062600347	141.02497028493
45.909999847412	69.139945223395	140.87148173310
46.409000396729	71.780373005791	140.55654037427
46.908000946045	73.794852219745	140.23745947916
47.407001495361	75.236046769515	140.04918896640
47.905998229980	76.179939136634	140.09877782973
48.404998779297	76.714805720170	140.46502513965
48.903999328613	76.932453543616	141.20091289996
49.402999877930	76.922117631966	142.33783931513
49.902000427246	76.767602040722	143.89077408688
50.401000976563	76.546100881287	145.86247725493
50.900001525879	76.327727043278	148.24653928849
51.398998260498	76.176754705557	151.03015268902
51.897998809814	76.153240492302	154.19598288404
52.396999359131	76.313513682766	157.72185316947
52.895999908447	76.711862980195	161.58134861131
53.395000457764	77.401136678335	165.74289912378
53.894001007080	78.433148668758	170.16841762587
54.393001556396	79.858196678302	174.81191902435
54.891998291016	81.723990534056	179.61749532183
55.390998840332	84.073388926641	184.51786759383
55.889999389648	86.941276196406	189.43290218737
56.388999938965	90.350260382767	194.26942823404
56.888000488281	94.305613785573	198.92239679485
57.387001037598	98.789527888501	203.27762044946
57.886001586914	103.75617598312	207.21776921551
58.384998321533	109.12794540789	210.63029961221
58.883998870850	114.79456854669	213.41773059265
59.382999420166	120.61643474967	215.50912780078
59.881999969482	126.43234958293	216.87010313217
60.381000518799	132.07132900089	217.51067702162
60.880001068115	137.36752303444	217.48760477424
61.379001617432	142.17521105982	216.90078272730
61.877998352051	146.38133117361	215.88456291696
62.376998901367	149.91369198650	214.59491654728
62.875999450684	152.74336712208	213.19524436161
63.375000000000	154.88226473028	211.84310769668
63.874000549316	156.37633023657	210.68032581850
64.373001098633	157.29694871575	209.82619975791
64.872001647949	157.73201914773	209.37489724600
65.371002197266	157.77772856453	209.39548000576
65.870002746582	157.53242865506	209.93475860618
66.369003295898	157.09203522393	211.02058210637
66.867996215820	156.54735889445	212.66503854147
67.366996765137	155.98306254271	214.86860486392
67.865997314453	155.47748637543	217.62278080083
68.364997863770	155.10304186314	220.91240372661
68.863998413086	154.92737739309	224.71713972011
69.362998962402	155.01432382879	229.01205906672
69.861999511719	155.42507501744	233.76816372198
70.361000061035	156.21872721093	238.95165515938
70.860000610352	157.45298981277	244.52328691062
71.359001159668	159.18398004406	250.43717982973
71.858001708984	161.46578944021	256.63974680760
72.357002258301	164.34916486897	263.06767166807
72.856002807617	167.87940763514	269.64704924314
73.355003356934	172.09358359931	276.29287658686
73.853996276855	177.01695477763	282.90835174264
74.352996826172	182.65891030026	289.38686682727
74.851997375488	189.00853650001	295.61387659471
75.350997924805	196.03072814670	301.47183732431
75.849998474121	203.66307792615	306.84647933302
76.348999023438	211.81509618616	311.63419835137
76.847999572754	220.36956273278	315.75125940350
77.347000122070	229.18766912839	319.14171321711
77.846000671387	238.11647293203	321.78535394369
78.345001220703	246.99983718568	323.70106919112
78.844001770020	255.68997204798	324.94787890342
79.343002319336	264.05912683063	325.62148753230
79.842002868652	272.00911091746	325.84664791678
80.341003417969	279.47824997559	325.76698305893
80.839996337891	286.44380878494	325.53540013700
81.338996887207	292.92149870349	325.30062667660
81.837997436523	298.96155603551	325.20104607778
82.336997985840	304.64305671419	325.35494801483
82.835998535156	310.06726975763	325.85847824737
83.334999084473	315.35119256478	326.78135118388
83.833999633789	320.62124388770	328.16717275337
84.333000183105	326.00879913385	330.03385132552
84.832000732422	331.64560305270	332.37426723045
85.331001281738	337.66097739130	335.15746045275
85.830001831055	344.17909151229	338.33040281712
86.329002380371	351.31584678021	341.81669670253
86.828002929688	359.17673228563	345.51859095012
87.327003479004	367.85316419648	349.31633855484
87.825996398926	377.41811215006	353.06870130586
88.324996948242	387.92154646949	356.61478635667
88.823997497559	399.38372997965	359.77495457874
89.322998046875	411.78959131126	362.35769738596
89.821998596191	425.08148671412	364.16361355980
90.320999145508	439.15461523946	364.99850909938
90.819999694824	453.85418769682	364.68340570075
91.319000244141	468.97692459794	363.07218786432
91.818000793457	484.27714934477	360.06450725913
92.317001342773	499.48003413177	355.62279673057
92.816001892090	514.29944718190	349.78078505176
93.315002441406	528.45982290561	342.64786938382
93.814002990723	541.72060676798	334.40574456121
94.313003540039	553.89621312910	325.29473613845
94.811996459961	564.87209441890	315.59443513856
95.310997009277	574.61315580476	305.60208329843
95.809997558594	583.16119990746	295.60548904006
96.308998107910	590.62982699158	285.86667868426
96.807998657227	597.18770488487	276.60167085393
97.306999206543	603.04339616816	267.97219584279
97.805999755859	608.42988559229	260.08290480071
98.305000305176	613.58817681402	252.98041354946
98.804000854492	618.75566184893	246.65776517424
99.303001403809	624.15744761687	241.06057373344
99.802001953125	629.99922760337	236.09237074555
100.30100250244	636.46175436958	231.61959363732
100.80000305176	643.70138708535	227.47923397367
101.29900360107	651.84092496796	223.47791218202
101.79799652100	660.97194334759	219.39927721202
102.29699707031	671.14862069504	215.00533592332
102.79599761963	682.38131969592	210.03907033939
103.29499816895	694.63278255096	204.23122229552
103.79399871826	707.80850549507	197.30564220949
104.29299926758	721.75356129379	188.99223412129
104.79199981689	736.24337597345	179.03869958470
105.29100036621	750.98601827407	167.23131306309
105.79000091553	765.62222846411	153.41439028408
106.28900146484	779.74096010609	137.51473567209
106.78800201416	792.89632241253	119.56084404493
107.28700256348	804.64094274669	99.698692720013
107.78600311279	814.56187934404	78.195268970608
108.28500366211	822.31899928749	55.428377757994
108.78399658203	827.67884561856	31.861916221459
109.28299713135	830.54001241927	8.0089103060022
109.78199768066	830.94762876618	-15.613024702544
110.28099822998	829.07555249568	-38.526598934286
110.77999877930	825.21090769968	-60.332023430459
111.27899932861	819.72112413069	-80.733072657667
111.77799987793	813.01369562240	-99.548212284395
112.27700042725	805.50166453165	-116.70888115167
112.77600097656	797.57417658752	-132.24760260344
113.27500152588	789.57805733673	-146.28125467244
113.77400207520	781.79959143309	-158.98921320770
114.27300262451	774.46250388794	-170.59538377304
114.77200317383	767.72454808217	-181.34981691234
115.27100372314	761.67885298862	-191.51385199908
115.76999664307	756.36171958995	-201.35062534171
116.26899719238	751.75191373386	-211.11331457376
116.76799774170	747.78067675038	-221.04057687306
117.26699829102	744.32957054452	-231.34634908423
117.76599884033	741.23737375819	-242.21456941370
118.26499938965	738.30816815270	-253.79464575120
118.76399993896	735.30893667669	-266.18832368390
119.26300048828	731.98341604547	-279.44608105637
119.76200103760	728.05969101520	-293.55743168113
120.26100158691	723.26393821605	-308.44451993129
120.76000213623	717.33713119427	-323.95949069522
121.25900268555	710.05488030872	-339.88646836737
121.75800323486	701.24625963461	-355.94835534500
122.25700378418	690.81291748692	-371.82313306804
122.75599670410	678.74034533248	-387.16201707912
123.25499725342	665.10684624843	-401.61871755852
123.75399780273	650.07804622517	-414.87410479961
124.25299835205	633.89683092749	-426.66361155419
124.75199890137	616.86080537048	-436.79253208260
125.25099945068	599.29983430183	-445.15007706600
125.75000000000	581.54988306786	-451.71127695283
126.24900054932	563.92881740880	-456.52862385012
126.74800109863	546.71861507321	-459.71969967867
127.24700164795	530.15348780425	-461.45251739181
127.74600219727	514.41347452229	-461.92759000671
128.24499511719	499.62389426080	-461.36116092973
128.74400329590	485.85891437527	-459.97275508656
129.24299621582	473.14735074583	-457.97425316748
129.74200439453	461.47991448177	-455.56317627105
130.24099731445	450.81629766873	-452.91735244279
130.74000549316	441.09231081344	-450.19232344193
131.23899841309	432.22554810098	-447.52183194722
131.73800659180	424.12071713392	-445.01405419833
132.23699951172	416.67372682949	-442.75708403603
132.73599243164	409.77517967772	-440.81640744981
133.23500061035	403.31320302264	-439.23791189870
133.73399353027	397.17592640458	-438.04619181737
134.23300170898	391.25395348297	-437.24808927975
134.73199462891	385.44237148308	-436.83209830656
135.23100280762	379.64349985499	-436.76998066468
135.72999572754	373.76910355403	-437.01680937382
136.22900390625	367.74309485921	-437.51348435458
136.72799682617	361.50384219456	-438.18912787116
137.22700500488	355.00646233811	-438.96356239903
137.72599792480	348.22472251896	-439.75041472157
138.22500610352	341.15182302122	-440.46119627904
138.72399902344	333.80055428391	-441.00983163323
139.22300720215	326.20240536014	-441.31680015090
139.72200012207	318.40511029069	-441.31317804432
140.22099304199	310.47011538056	-440.94409546327
140.72000122070	302.46793134484	-440.17139939382
141.21899414063	294.47434803528	-438.97425930747
141.71800231934	286.56598168883	-437.34957515523
142.21699523926	278.81568750471	-435.31176413001
142.71600341797	271.28947844930	-432.88949931734
143.21499633789	264.04374407011	-430.12336667477
143.71400451660	257.12327335253	-427.06303467351
144.21299743652	250.56016097529	-423.76474889654
144.71200561523	244.37449193218	-420.28649509226
145.21099853516	238.57372347784	-416.68706582772
145.71000671387	233.15472297918	-413.02256765475
146.20899963379	228.10442913462	-409.34565069270
146.70799255371	223.40183164614	-405.70311643720
147.20700073242	219.01922893891	-402.13551063777
147.70599365234	214.92398316290	-398.67632840088
148.20500183105	211.07964522661	-395.35230301608
148.70399475098	207.44805041360	-392.18179593978
149.20300292969	203.98950811894	-389.17718040375
149.70199584961	200.66505814629	-386.34262671822
150.20100402832	197.43689112745	-383.67641294669
150.69999694824	194.26956797304	-381.17024827613
151.19900512695	191.13064165655	-378.81037216784
151.69799804688	187.99195862498	-376.57807513197
152.19700622559	184.83004676996	-374.45057066740
152.69599914551	181.62677254612	-372.40195198086
153.19500732422	178.36983968819	-370.40407725858
153.69400024414	175.05289383379	-368.42803928966
154.19299316406	171.67579672279	-366.44484984471
154.69200134277	168.24407059588	-364.42722283670
155.19099426270	164.76874586359	-362.35017509290
155.69000244141	161.26537985238	-360.19250880323
156.18899536133	157.75365391060	-357.93683737146
156.68800354004	154.25550753013	-355.57130899697
157.18699645996	150.79464024586	-353.08905922670
157.68600463867	147.39517207015	-350.48868951865
158.18499755859	144.08050315232	-347.77361756677
158.68400573730	140.87212149304	-344.95222586629
159.18299865723	137.78880485682	-342.03715957801
159.68200683594	134.84653227326	-339.04369648523
160.18099975586	132.05711815995	-335.99006154317
160.67999267578	129.42859271008	-332.89579529976
161.17900085449	126.96523301994	-329.78106766799
161.67799377441	124.66707666172	-326.66630447977
162.17700195313	122.53084225394	-323.57073784928
162.67599487305	120.55010539858	-320.51243630118
163.17500305176	118.71565860692	-317.50749204202
163.67399597168	117.01587288895	-314.57001410205
164.17300415039	115.43748521610	-311.71149938719
164.67199707031	113.96592586494	-308.94093666516
165.17100524902	112.58577165231	-306.26468857710
165.66999816895	111.28132755711	-303.68617739549
166.16900634766	110.03689179148	-301.20668246777
166.66799926758	108.83749005623	-298.82440879749
167.16700744629	107.66890824341	-296.53587341738
167.66600036621	106.51812477445	-294.33502026939
168.16499328613	105.37385804598	-292.21422816929
168.66400146484	104.22631815383	-290.16439954949
169.16299438477	103.06795262242	-288.17515220841
169.66200256348	101.89321204496	-286.23543028391
170.16099548340	100.69885846370	-284.33375429062
170.66000366211	99.483879021995	-282.45858132814
171.15899658203	98.249224277425	-280.59896528401
171.65800476074	96.997996191279	-278.74468694912
172.15699768066	95.735059943714	-276.88671673164
172.65600585938	94.466638443862	-275.01747985156
173.15499877930	93.200243384349	-273.13117746829
173.65400695801	91.944074214233	-271.22330280322
174.15299987793	90.707198081032	-269.29230352886
174.65199279785	89.497734609801	-267.33740310413
175.15100097656	88.324364181835	-265.36060849534
175.64999389648	87.194768246395	-263.36519999869
176.14900207520	86.115005379630	-261.35507144137
176.64799499512	85.091293080410	-259.33718927714
177.14700317383	84.127555213279	-257.31802593124
177.64599609375	83.225750951056	-255.30439135365
178.14500427246	82.387405263323	-253.30445581198
178.64399719238	81.612219754638	-251.32615554164
179.14300537109	80.898091617809	-249.37642348017
179.64199829102	80.242038092206	-247.46282753368
180.14100646973	79.639842684720	-245.59167971880
180.63999938965	79.085878640041	-243.76802614269
181.13900756836	78.573946504938	-241.99654567912
181.63800048828	78.097382195641	-240.28042949163
182.13699340820	77.648820771845	-238.62186652360
182.63600158691	77.220878236642	-237.02179597333
183.13499450684	76.806113606746	-235.47973375160
183.63400268555	76.397205069045	-233.99434942627
184.13299560547	75.987326334523	-232.56288159844
184.63200378418	75.570209409135	-231.18162403376
185.13099670410	75.140273092670	-229.84602333339
185.63000488281	74.692938415266	-228.55055110167
186.12899780273	74.224494026964	-227.28929921374
186.62800598145	73.732497839995	-226.05569935714
187.12699890137	73.215542322952	-224.84307863871
187.62600708008	72.673429233378	-223.64479478127
188.12500000000	72.107102247668	-222.45426747497
188.62399291992	71.518698485182	-221.26535965557
189.12300109863	70.911174237516	-220.07269705119
189.62199401855	70.288558732737	-218.87138951860
190.12100219727	69.655464352140	-217.65766288739
190.61999511719	69.016947395396	-216.42866375604
191.11900329590	68.378495995048	-215.18264785548
191.61799621582	67.745591410780	-213.91892245539
192.11700439453	67.123733317622	-212.63785362800
192.61599731445	66.517979321707	-211.34088740578
193.11500549316	65.933027121779	-210.03027603571
193.61399841309	65.372823943802	-208.70912292962
194.11300659180	64.840682771697	-207.38120711890
194.61199951172	64.339013713557	-206.05077579598
195.11099243164	63.869442134707	-204.72223570664
195.61000061035	63.432583129067	-203.40038311634
196.10899353027	63.028265226277	-202.08983869091
196.60800170898	62.655416402712	-200.79507127254
197.10699462891	62.312209620336	-199.52025168383
197.60600280762	61.996140890778	-198.26908669564
198.10499572754	61.703954305258	-197.04490178946
198.60400390625	61.432134940931	-195.85021355929
199.10299682617	61.176728825811	-194.68688678949
199.60200500488	60.933433411175	-193.55616124529
200.10099792480	60.697889243623	-192.45848857395
200.60000610352	60.465846414962	-191.39357890538
201.09899902344	60.233039855212	-190.36040920341
201.59800720215	59.995579639972	-189.35732172113
202.09700012207	59.749914096533	-188.38194120580
202.59599304199	59.492886357192	-187.43156543956
