#Parameters = {a=905; eps_eff=6; r_i=70; r_o=90.5; t=0.1}
#"Frequency / GHz"	"Z1,1 (3) [Real/Imaginary Part] [Re]"	"Z1,1 (3) [Real/Imaginary Part] [Im]"
#---------------------------------------------------------------------------------------------
1.0000000000000	-1201.4935951058	-2650.9183373791
1.4989999532700	-588.18360106123	-1954.3206534085
1.9980000257492	-341.47361055145	-1522.0177005903
2.4969999790192	-220.69740541766	-1239.4446372068
2.9960000514984	-153.24128102228	-1042.8252199948
3.4949998855591	-111.93691679300	-898.88601001807
3.9939999580383	-84.888733956082	-789.24098261329
4.4930000305176	-66.250000096277	-703.06004502638
4.9920001029968	-52.883845762291	-633.59523509794
5.4910001754761	-42.988339177367	-576.44124046000
5.9899997711182	-35.467833325295	-528.60677108033
6.4889998435974	-29.627631879051	-487.99213987775
6.9879999160767	-25.007703883517	-453.08230913936
7.4869999885559	-21.296075021861	-422.75651506356
7.9860000610352	-18.272970191659	-396.16900192235
8.4849996566772	-15.781417445277	-372.66929759346
8.9840002059937	-13.706873207065	-351.74920250462
9.4829998016357	-11.963317657119	-333.00603048726
9.9820003509521	-10.485743304467	-316.11647329829
10.480999946594	-9.2243223978294	-300.81818167235
10.979999542236	-8.1402173266855	-286.89582994204
11.479000091553	-7.2028869911389	-274.17126131062
11.977999687195	-6.3878508102335	-262.49561298935
12.477000236511	-5.6756550027891	-251.74381866898
12.975999832153	-5.0503839732993	-241.80965277488
13.475000381470	-4.4991780868928	-232.60267544154
13.973999977112	-4.0112681520558	-224.04522874791
14.472999572754	-3.5778475238534	-216.07028455661
14.972000122070	-3.1916114169332	-208.61969890763
15.470999717712	-2.8463461613516	-201.64274740673
15.970000267029	-2.5368950225703	-195.09514687005
16.468999862671	-2.2587957033133	-188.93778521275
16.968000411987	-2.0082458917358	-183.13626244543
17.466999053955	-1.7820837539269	-177.66002931438
17.965999603271	-1.5775922708280	-172.48197559210
18.465000152588	-1.3923053574352	-167.57784287045
18.964000701904	-1.2241253592756	-162.92595187737
19.462999343872	-1.0713749923613	-158.50685062712
19.961999893188	-0.93236696559990	-154.30300761019
20.461000442505	-0.80579173025540	-150.29864574155
20.959999084473	-0.69040493479835	-146.47941255443
21.458999633789	-0.58517849281178	-142.83238246389
21.958000183105	-0.48910986249563	-139.34570230363
22.457000732422	-0.40142529788015	-136.00863606929
22.955999374390	-0.32138248644522	-132.81142304049
23.454999923706	-0.24826586480931	-129.74497885162
23.954000473022	-0.18151209908102	-126.80113614709
24.452999114990	-0.12058723037156	-123.97232584485
24.951999664307	-0.065034369241019	-121.25159349956
25.451000213623	-0.014393006842424	-118.63253913621
25.950000762939	0.031735076440766	-116.10918701789
26.448999404907	0.073644555122462	-113.67613650436
26.947999954224	0.11169603400538	-111.32829999344
27.447000503540	0.14619400969762	-109.06096727635
27.945999145508	0.17739028432355	-106.86979086510
28.444999694824	0.20551415435604	-104.75068873834
28.944000244141	0.23079606791103	-102.69993220156
29.443000793457	0.25344460772496	-100.71395656114
29.941999435425	0.27364238311788	-98.789589499847
30.440999984741	0.29154470669490	-96.923624074241
30.940000534058	0.30734641232701	-95.113269935064
31.438999176025	0.32115696876348	-93.355781495246
31.937999725342	0.33313990780119	-91.648663917032
32.437000274658	0.34339799294977	-89.989597168411
32.936000823975	0.35207726562331	-88.376337817765
33.435001373291	0.35926742353713	-86.806783578211
33.933998107910	0.36506200127320	-85.279051557798
34.432998657227	0.36958533532861	-83.791186415799
34.931999206543	0.37290620819729	-82.341477710713
35.430999755859	0.37510415960049	-80.928300096901
35.930000305176	0.37627164473225	-79.550097291275
36.429000854492	0.37647503472779	-78.205380637592
36.928001403809	0.37578458071436	-76.892838045343
37.426998138428	0.37426329517880	-75.611090686101
37.925998687744	0.37197635223226	-74.358851669255
38.424999237061	0.36897997676868	-73.135042076506
38.923999786377	0.36534274885860	-71.938488577179
39.423000335693	0.36109335209672	-70.768228470944
39.922000885010	0.35629718274288	-69.623053542968
40.421001434326	0.35099482317031	-68.502212707306
40.919998168945	0.34523524173692	-67.404739004292
41.418998718262	0.33905424847074	-66.329680549573
41.917999267578	0.33250828627990	-65.276334679401
42.416999816895	0.32561663472668	-64.243830359962
42.916000366211	0.31842436970876	-63.231468477357
43.415000915527	0.31096753419508	-62.238517850141
43.914001464844	0.30327167792388	-61.264323633931
44.412998199463	0.29537221813722	-60.308233890880
44.911998748779	0.28730894565483	-59.369593658599
45.410999298096	0.27909501929614	-58.447861500505
45.909999847412	0.27077075179840	-57.542450970234
46.409000396729	0.26235551766437	-56.652814217652
46.908000946045	0.25387322264040	-55.778450741756
47.407001495361	0.24535672667417	-54.918870334776
47.905998229980	0.23681845645484	-54.073573413830
48.404998779297	0.22827967897862	-53.242147740766
48.903999328613	0.21977145205274	-52.424119658562
49.402999877930	0.21130538494725	-51.619109562949
49.902000427246	0.20290687991591	-50.826690174377
50.401000976563	0.19458582507372	-50.046500130650
50.900001525879	0.18636336872320	-49.278143603024
51.398998260498	0.17825730085729	-48.521321113587
51.897998809814	0.17027957164948	-47.775640929378
52.396999359131	0.16244828354434	-47.040793584658
52.895999908447	0.15477044023776	-46.316480734520
53.395000457764	0.14727093119696	-45.602392754744
53.894001007080	0.13995100911336	-44.898251851196
54.393001556396	0.13282790140359	-44.203759261309
54.891998291016	0.12591751734829	-43.518665924737
55.390998840332	0.11922034753677	-42.842693401384
55.889999389648	0.11275264303976	-42.175622374569
56.388999938965	0.10652744504600	-41.517186581037
56.888000488281	0.10054322455919	-40.867175817981
57.387001037598	0.094815049933303	-40.225360314105
57.886001586914	0.089348588321598	-39.591530783020
58.384998321533	0.084152864210823	-38.965473532484
58.883998870850	0.079237631250860	-38.346982792896
59.382999420166	0.074606258551413	-37.735894710866
59.881999969482	0.070260940646904	-37.131988680747
60.381000518799	0.066211000921566	-36.535113677965
60.880001068115	0.062459301844768	-35.945066861389
61.379001617432	0.059013972164228	-35.361708072867
61.877998352051	0.055880082001529	-34.784872066008
62.376998901367	0.053051834535849	-34.214385526336
62.875999450684	0.050545071967170	-33.650108923670
63.375000000000	0.048357582032784	-33.091892284095
63.874000549316	0.046487331827604	-32.539592354787
64.373001098633	0.044942215841896	-31.993083051929
64.872001647949	0.043728912191617	-31.452224968482
65.371002197266	0.042838340935829	-30.916871819045
65.870002746582	0.042283433458377	-30.386922660567
66.369003295898	0.042051674618309	-29.862239155677
66.867996215820	0.042157091795749	-29.342725037840
67.366996765137	0.042593848711762	-28.828243351196
67.865997314453	0.043364013300508	-28.318700695130
68.364997863770	0.044464998351219	-27.813961113125
68.863998413086	0.045901170086364	-27.313961012198
69.362998962402	0.047665471870035	-26.818566546817
69.861999511719	0.049769112930105	-26.327708770198
70.361000061035	0.052197412165611	-25.841263052027
70.860000610352	0.054955439670870	-25.359145529155
71.359001159668	0.058044950961061	-24.881280059925
71.858001708984	0.061462751997071	-24.407562502016
72.357002258301	0.065206269317200	-23.937912704695
72.856002807617	0.069273975092052	-23.472243808772
73.355003356934	0.073664886749836	-23.010493371386
73.853996276855	0.078376463448045	-22.552558687823
74.352996826172	0.083405589145227	-22.098374482581
74.851997375488	0.088749076357798	-21.647857721865
75.350997924805	0.094413995545722	-21.200950928723
75.849998474121	0.10037943910167	-20.757561203878
76.348999023438	0.10665615943531	-20.317642728143
76.847999572754	0.11324261500493	-19.881120920986
77.347000122070	0.12012650652682	-19.447916148446
77.846000671387	0.12730576972351	-19.017975026079
78.345001220703	0.13478898117227	-18.591238879837
78.844001770020	0.14255633910083	-18.167633442228
79.343002319336	0.15061868671887	-17.747113151522
79.842002868652	0.15896440089885	-17.329604998151
80.341003417969	0.16758613260858	-16.915070318563
80.839996337891	0.17648949125897	-16.503436151140
81.338996887207	0.18566559624686	-16.094655058510
81.837997436523	0.19511472580153	-15.688674483020
82.336997985840	0.20483146239669	-15.285436705120
82.835998535156	0.21480312541934	-14.884896239043
83.334999084473	0.22503524363301	-14.486993322760
83.833999633789	0.23552081027030	-14.091688389004
84.333000183105	0.24625548463073	-13.698933132277
84.832000732422	0.25723336112514	-13.308673274487
85.331001281738	0.26845340558513	-12.920862775142
85.830001831055	0.27990936310743	-12.535465982397
86.329002380371	0.29159614288939	-12.152425847797
86.828002929688	0.30350897005205	-11.771701960546
87.327003479004	0.31564360636039	-11.393264629679
87.825996398926	0.32800032200463	-11.017045798888
88.324996948242	0.34056506304665	-10.643022024159
88.823997497559	0.35334207851507	-10.271153833062
89.322998046875	0.36632058323994	-9.9013878285054
89.821998596191	0.37950051273872	-9.5336886218824
90.320999145508	0.39287403949481	-9.1680230250381
90.819999694824	0.40643778889786	-8.8043500450364
91.319000244141	0.42018779136990	-8.4426332113862
91.818000793457	0.43411740922948	-8.0828275680825
92.317001342773	0.44822384471433	-7.7248984866370
92.816001892090	0.46249968652752	-7.3688081090446
93.315002441406	0.47694559281299	-7.0145266344949
93.814002990723	0.49155543455060	-6.6620228244719
94.313003540039	0.50632342249609	-6.3112420601213
94.811996459961	0.52124661993269	-5.9621748983864
95.310997009277	0.53631449321325	-5.6147686699706
95.809997558594	0.55152903751760	-5.2689901936479
96.308998107910	0.56689009716962	-4.9248095278881
96.807998657227	0.58238470196787	-4.5821993038071
97.306999206543	0.59801464204824	-4.2411113878982
97.805999755859	0.61377346206875	-3.9015340285406
98.305000305176	0.62965735339156	-3.5634209841234
98.804000854492	0.64566613030924	-3.2267375383077
99.303001403809	0.66179439329454	-2.8914621955241
99.802001953125	0.67803542541739	-2.5575562636753
100.30100250244	0.69439119677553	-2.2249938308522
100.80000305176	0.71085533579804	-1.8937311629455
101.29900360107	0.72742428128403	-1.5637555836664
101.79799652100	0.74410057028631	-1.2350257558732
102.29699707031	0.76087542276212	-0.90751712014072
102.79599761963	0.77775047726873	-0.58118959411185
103.29499816895	0.79471946148853	-0.25602075448049
103.79399871826	0.81178608427005	0.068023001785195
104.29299926758	0.82894515861240	0.39096280785350
104.79199981689	0.84619632803915	0.71283708805340
105.29100036621	0.86353771585656	1.0336778263537
105.79000091553	0.88096657861793	1.3535045780602
106.28900146484	0.89848192860006	1.6723423939256
106.78800201416	0.91609097074299	1.9902336861794
107.28700256348	0.93378386070991	2.3071963611269
107.78600311279	0.95156186815025	2.6232654066659
108.28500366211	0.96943160731224	2.9384667664050
108.78399658203	0.98738663017770	3.2528309094082
109.28299713135	1.0054319787034	3.5663824169738
109.78199768066	1.0235638039642	3.8791422412598
110.28099822998	1.0417903472617	4.1911446732220
110.77999877930	1.0601100677989	4.5024227233087
111.27899932861	1.0785231313195	4.8129973767502
111.77799987793	1.0970324340930	5.1228997522326
112.27700042725	1.1156437363117	5.4321453660338
112.77600097656	1.1343520828483	5.7407766112313
113.27500152588	1.1531709067618	6.0488084049290
113.77400207520	1.1720984450326	6.3562720278678
114.27300262451	1.1911377207229	6.6631842622439
114.77200317383	1.2102957190309	6.9695834328074
115.27100372314	1.2295710123504	7.2754880392441
115.76999664307	1.2489769743150	7.5809332909844
116.26899719238	1.2685121466102	7.8859248545572
116.76799774170	1.2881862854310	8.1905125412885
117.26699829102	1.3080001630402	8.4946986133719
117.76599884033	1.3279685123612	8.7985150394338
118.26499938965	1.3480893148821	9.1019958781832
118.76399993896	1.3683704642492	9.4051509840193
119.26300048828	1.3888228135907	9.7080146178871
119.76200103760	1.4094566006282	10.010594790496
120.26100158691	1.4302702912149	10.312941362360
120.76000213623	1.4512760892462	10.615055989842
121.25900268555	1.4724880992822	10.916966031003
121.75800323486	1.4939039220861	11.218694503310
122.25700378418	1.5155419381078	11.520265669471
122.75599670410	1.5374090586980	11.821700676298
123.25499725342	1.5595168017888	12.123022087350
123.75399780273	1.5818696423225	12.424254816209
124.25299835205	1.6044827813910	12.725409583988
124.75199890137	1.6273636801269	13.026512162776
125.25099945068	1.6505206937496	13.327582356211
125.75000000000	1.6739775930573	13.628646895227
126.24900054932	1.6977310048370	13.929721652272
126.74800109863	1.7217971555378	14.230818804604
127.24700164795	1.7461954481863	14.531965711152
127.74600219727	1.7709235157421	14.833182102821
128.24499511719	1.7960093742660	15.134487407281
128.74400329590	1.8214567915387	15.435888110476
129.24299621582	1.8472755233303	15.737416290556
129.74200439453	1.8734879953814	16.039078392336
130.24099731445	1.9001020205840	16.340899770875
130.74000549316	1.9271274329590	16.642902265707
131.23899841309	1.9545832664969	16.945091692668
131.73800659180	1.9824856308827	17.247490547563
132.23699951172	2.0108394985602	17.550103302798
132.73599243164	2.0396681749999	17.852960689227
133.23500061035	2.0689838791217	18.156075459460
133.73399353027	2.0987934660464	18.459452539101
134.23300170898	2.1291255203012	18.763125008373
134.73199462891	2.1599839074131	19.067095772708
135.23100280762	2.1913846852800	19.371378763397
135.72999572754	2.2233455422450	19.675983363219
136.22900390625	2.2558806988490	19.980937115975
136.72799682617	2.2890050424887	20.286252577423
137.22700500488	2.3227322191940	20.591927071935
137.72599792480	2.3570788374339	20.897974296254
138.22500610352	2.3920679960530	21.204439597787
138.72399902344	2.4277028174994	21.511290278452
139.22300720215	2.4640032571940	21.818574613949
139.72200012207	2.5009907743836	22.126274125282
140.22099304199	2.5386763633870	22.434432243932
140.72000122070	2.5770774121451	22.743042608715
141.21899414063	2.6162061989529	23.052119833531
141.71800231934	2.6560840884376	23.361672574413
142.21699523926	2.6967245353832	23.671714016833
142.71600341797	2.7381418735242	23.982250901523
143.21499633789	2.7803533571795	24.293297777607
143.71400451660	2.8233819604170	24.604874743106
144.21299743652	2.8672335036356	24.916973858722
144.71200561523	2.9119285217691	25.229621947267
145.21099853516	2.9574893511518	25.542817889350
145.71000671387	3.0039224476643	25.856578258599
146.20899963379	3.0512476439945	26.170908424862
146.70799255371	3.0994852094501	26.485815849621
147.20700073242	3.1486472543642	26.801316425881
147.70599365234	3.1987539607775	27.117428676320
148.20500183105	3.2498267732423	27.434142359341
148.70399475098	3.3018684290158	27.751481077307
149.20300292969	3.3549100569588	28.069455557215
149.70199584961	3.4089624588770	28.388068082976
150.20100402832	3.4640376709395	28.707324471299
150.69999694824	3.5201676691221	29.027247008070
151.19900512695	3.5773551802544	29.347831989527
151.69799804688	3.6356334796829	29.669113259949
152.19700622559	3.6949988679949	29.991077559708
152.69599914551	3.7554904796351	30.313739555397
153.19500732422	3.8171128715393	30.637112249748
153.69400024414	3.8798963536658	30.961214948969
154.19299316406	3.9438472683610	31.286028566256
154.69200134277	4.0089953370244	31.611604963941
155.19099426270	4.0753489059020	31.937924800759
155.69000244141	4.1429389802455	32.265011449596
156.18899536133	4.2117772878130	32.592871476310
156.68800354004	4.2818881795000	32.921507768443
157.18699645996	4.3532899537236	33.250946043810
157.68600463867	4.4260034655570	33.581189637397
158.18499755859	4.5000523313534	33.912250623454
158.68400573730	4.5754595100501	34.244138020100
159.18299865723	4.6522409133136	34.576873116508
159.68200683594	4.7304229858349	34.910457597025
160.18099975586	4.8100326675664	35.244915835139
160.67999267578	4.8910865603298	35.580235966775
161.17900085449	4.9736164419683	35.916462569717
161.67799377441	5.0576434438706	36.253577328203
162.17700195313	5.1431936636470	36.591609388131
162.67599487305	5.2302919237538	36.930570987840
163.17500305176	5.3189720030131	37.270473565988
163.67399597168	5.4092511852342	37.611328223086
164.17300415039	5.5011698084268	37.953151869302
164.67199707031	5.5947456602303	38.295945946335
165.17100524902	5.6900160793974	38.639738321016
165.66999816895	5.7870103258569	38.984526001309
166.16900634766	5.8857652119787	39.330339940099
166.66799926758	5.9863000599850	39.677177823283
167.16700744629	6.0886664717793	40.025067410382
167.66600036621	6.1928887024605	40.374016009821
168.16499328613	6.2990079408706	40.724025001747
168.66400146484	6.4070526187285	41.075118283295
169.16299438477	6.5170688496076	41.427297482834
169.66200256348	6.6290980565190	41.780594486636
170.16099548340	6.7431789517784	42.135010956292
170.66000366211	6.8593457700370	42.490550563124
171.15899658203	6.9776482269085	42.847245388353
171.65800476074	7.0981277306936	43.205074176380
172.15699768066	7.2208411821734	43.564087799832
172.65600585938	7.3458151304388	43.924260555236
173.15499877930	7.4731168259081	44.285628783578
173.65400695801	7.6027921095601	44.648193520056
174.15299987793	7.7348787732489	45.011944950099
174.65199279785	7.8694385912604	45.376911448629
175.15100097656	8.0065294606491	45.743101748959
175.64999389648	8.1462018149758	46.110501445306
176.14900207520	8.2885236736368	46.479150552040
176.64799499512	8.4335333415843	46.849014263535
177.14700317383	8.5813049669460	47.220118630318
177.64599609375	8.7318991119177	47.592469062009
178.14500427246	8.8853731246100	47.966048757665
178.64399719238	9.0418028931510	48.340871043816
179.14300537109	9.2012417401961	48.716953502485
179.64199829102	9.3637686442011	49.094237082310
180.14100646973	9.5294416535118	49.472784685059
180.63999938965	9.6983443490090	49.852559926722
181.13900756836	9.8705373275592	50.233525518156
181.63800048828	10.046095826239	50.615716852347
182.13699340820	10.225105949597	50.999116998050
182.63600158691	10.407633425069	51.383661930523
183.13499450684	10.593761714496	51.769382292440
183.63400268555	10.783575137879	52.156282131021
184.13299560547	10.977144991235	52.544319077295
184.63200378418	11.174570511684	52.933492113922
185.13099670410	11.375911887484	53.323704774806
185.63000488281	11.581271845612	53.715004117547
186.12899780273	11.790733545687	54.107311616333
186.62800598145	12.004387966256	54.500648939904
187.12699890137	12.222306101779	54.894935094686
187.62600708008	12.444606329040	55.290184055673
188.12500000000	12.671356311144	55.686282858506
188.62399291992	12.902662180933	56.083245354832
189.12300109863	13.138609626671	56.481003379551
189.62199401855	13.379300842102	56.879540465712
190.12100219727	13.624810798656	57.278730900144
190.61999511719	13.875240952910	57.678553786543
191.11900329590	14.130705439250	58.079009096087
191.61799621582	14.391277317042	58.479934449810
192.11700439453	14.657069804755	58.881325819777
192.61599731445	14.928167083229	59.283097412819
193.11500549316	15.204656351491	59.685128896297
193.61399841309	15.486654932412	60.087409015870
194.11300659180	15.774238668472	60.489812794105
194.61199951172	16.067524514952	60.892291969585
195.11099243164	16.366573422460	61.294686313297
195.61000061035	16.671511758353	61.696973724718
196.10899353027	16.982408129622	62.099007661716
196.60800170898	17.299376288253	62.500703612793
197.10699462891	17.622482823617	62.901940336075
197.60600280762	17.951826660740	63.302623863748
198.10499572754	18.287484649924	63.702560448611
198.60400390625	18.629564311309	64.101771319727
199.10299682617	18.978139829329	64.500024691584
199.60200500488	19.333270175034	64.897185086126
200.10099792480	19.695046189571	65.293130022760
200.60000610352	20.063547521372	65.687741589933
