#Parameters = {C=8.1e-15; R=16600; a=1000; ep_eff=6; t=0.1}
#"Frequency / GHz"	"Z1,1 [Real/Imaginary Part] [Re]"	"Z1,1 [Real/Imaginary Part] [Im]"
#-------------------------------------------------------------------------------------
1.0000000000000	0.0041042786564905	-3289.7413891105
1.9989999532700	0.61184932575519	-1645.4837068155
2.9979999065399	0.72516489476644	-1096.9387884193
3.9969999790192	0.76299961548851	-822.52792485792
4.9959998130798	0.77681233889096	-657.80340749488
5.9949998855591	0.78176149501085	-547.93144156348
6.9939999580383	0.78198289688446	-469.40704203141
7.9930000305176	0.77923459904698	-410.47639846099
8.9919996261597	0.77426256957202	-364.60894640177
9.9910001754761	0.76794966228718	-327.88606378554
10.989999771118	0.76057575055066	-297.81397201165
11.989000320435	0.75216113779277	-272.73009842924
12.987999916077	0.74287643113162	-251.48323799780
13.987000465393	0.73287599613919	-233.25123255626
14.986000061035	0.72230568697353	-217.43106126217
15.984999656677	0.71108052743138	-203.57041320694
16.983999252319	0.69937202382855	-191.32341563437
17.982999801636	0.68707520482274	-180.42103810111
18.982000350952	0.67439673619804	-170.65090456982
19.981000900269	0.66129082826992	-161.84303582686
20.979999542236	0.64774388433411	-153.85988164599
21.979000091553	0.63385722229579	-146.58887724325
22.978000640869	0.61960370853124	-139.93702454057
23.976999282837	0.60503305151840	-133.82681632227
24.975999832153	0.59023764347481	-128.19313046746
25.975000381470	0.57511297604756	-122.98093806958
26.974000930786	0.55979693898517	-118.14319896129
27.972999572754	0.54426813558788	-113.63981543118
28.972000122070	0.52854254100960	-109.43599024609
29.971000671387	0.51271408958677	-105.50171676088
30.969999313354	0.49675884721945	-101.81080006502
31.968999862671	0.48073598837824	-98.340326179572
32.967998504639	0.46466757281822	-95.070168015215
33.966999053955	0.44861075083766	-91.982544614636
34.965999603271	0.43256325588493	-89.061775920879
35.965000152588	0.41658714344392	-86.293801659037
36.964000701904	0.40071084589703	-83.666219144743
37.963001251221	0.38495902550331	-81.167851010235
38.962001800537	0.36938743918252	-78.788677804038
39.960998535156	0.35402579002222	-76.519685806781
40.959999084473	0.33888792598924	-74.352790594586
41.958999633789	0.32404055735158	-72.280621346157
42.958000183105	0.30950310934462	-70.296492209167
43.957000732422	0.29530908488670	-68.394424803693
44.956001281738	0.28149204533738	-66.568772182241
45.955001831055	0.26807794524032	-64.814685890297
46.953998565674	0.25510947718793	-63.127442162471
47.952999114990	0.24259624641883	-61.502874769473
48.951999664307	0.23056778515474	-59.937101384247
49.951000213623	0.21905947875278	-58.426609653471
50.950000762939	0.20808232358359	-56.968084961237
51.949001312256	0.19765494262308	-55.558576994129
52.948001861572	0.18780264540477	-54.195230071869
53.946998596191	0.17852737304643	-52.875530378356
54.945999145508	0.16984921001575	-51.597072574851
55.944999694824	0.16176410188685	-50.357651538957
56.944000244141	0.15429528755487	-49.155193468840
57.943000793457	0.14743804363318	-47.987815903785
58.942001342773	0.14118960837833	-46.853719517757
59.941001892090	0.13555045918759	-45.751292914201
60.939998626709	0.13051095666015	-44.678944609834
61.938999176025	0.12607249415307	-43.635229038623
62.937999725342	0.12220788366180	-42.618795489601
63.937000274658	0.11891874252777	-41.628415927692
64.935997009277	0.11618203913350	-40.662859102259
65.934997558594	0.11398199283367	-39.721051095503
66.933998107910	0.11229422259801	-38.801884011240
67.932998657227	0.11109839160832	-37.904390778031
68.931999206543	0.11036881426048	-37.027663507651
69.930999755859	0.11007751661726	-36.170772478515
70.930000305176	0.11020069592146	-35.332931379650
71.929000854492	0.11070004713332	-34.513308775019
72.928001403809	0.11155202924811	-33.711191875575
73.927001953125	0.11272334144412	-32.925851911964
74.926002502441	0.11418055051797	-32.156621076541
75.925003051758	0.11589412133702	-31.402845586395
76.924003601074	0.11782868484197	-30.663925980966
77.922996520996	0.11995191131378	-29.939275797009
78.921997070313	0.12223144101292	-29.228340288456
79.920997619629	0.12463000210966	-28.530563598982
80.919998168945	0.12712659152169	-27.845458211117
81.918998718262	0.12968705594412	-27.172532055577
82.917999267578	0.13228018699857	-26.511307301308
83.916999816895	0.13487712042514	-25.861336840352
84.916000366211	0.13746138334884	-25.222180699183
85.915000915527	0.13999795473102	-24.593440203336
86.914001464844	0.14248021029670	-23.974697888577
87.913002014160	0.14487448825766	-23.365583430810
88.912002563477	0.14717830397867	-22.765706696632
89.911003112793	0.14937004826949	-22.174720315673
90.910003662109	0.15143842743070	-21.592277018872
91.908996582031	0.15337020590965	-21.018040560829
92.907997131348	0.15516851242142	-20.451708188106
93.906997680664	0.15682336802946	-19.892933242229
94.905998229980	0.15834803689188	-19.341448714438
95.904998779297	0.15972777837710	-18.796962224020
96.903999328613	0.16098230366080	-18.259184800136
97.902999877930	0.16211794794763	-17.727859464607
98.902000427246	0.16313331889051	-17.202729324644
99.901000976563	0.16405359183548	-16.683549422399
100.90000152588	0.16489521620510	-16.170074838281
101.89900207520	0.16567011607750	-15.662080240229
102.89800262451	0.16640636090685	-15.159350562479
103.89700317383	0.16711260320819	-14.661673624744
104.89600372314	0.16782285674970	-14.168855435962
105.89499664307	0.16855926720779	-13.680685538945
106.89399719238	0.16934709886428	-13.197006465566
107.89299774170	0.17020814809005	-12.717614222352
108.89199829102	0.17117949559980	-12.242369989172
109.89099884033	0.17227710735526	-11.771080897827
110.88999938965	0.17353596234498	-11.303621824012
111.88899993896	0.17497714443574	-10.839837095157
112.88800048828	0.17662979660244	-10.379587747846
113.88700103760	0.17852472299033	-9.9227354062713
114.88600158691	0.18068184793574	-9.4691562977724
115.88500213623	0.18312455831617	-9.0187375290926
116.88400268555	0.18587550981431	-8.5713575781298
117.88300323486	0.18895811562310	-8.1269034236583
118.88200378418	0.19239451349950	-7.6852782732084
119.88099670410	0.19619410601930	-7.2463792264922
120.87999725342	0.20038228342757	-6.8101072637149
121.87899780273	0.20496590733996	-6.3763647527121
122.87799835205	0.20996326193259	-5.9450828842902
123.87699890137	0.21537860029754	-5.5161550244399
124.87599945068	0.22122388065414	-5.0894980155216
125.87500000000	0.22749933876690	-4.6650403222182
126.87400054932	0.23421633561313	-4.2427020509129
127.87300109863	0.24137145659308	-3.8223967771188
128.87199401855	0.24896507735504	-3.4040597971494
129.87100219727	0.25699529148621	-2.9876094634079
130.86999511719	0.26545844464536	-2.5729710039606
131.86900329590	0.27435390309994	-2.1600780977762
132.86799621582	0.28367011300382	-1.7488405570066
133.86700439453	0.29340065619194	-1.3392008759324
134.86599731445	0.30353364203880	-0.93107780055131
135.86500549316	0.31406426136007	-0.52438608683401
136.86399841309	0.32497899020915	-0.11907115776052
137.86300659180	0.33626768452828	0.28495621539192
138.86199951172	0.34792054997355	0.68776639146645
139.86099243164	0.35992515425017	1.0894406377822
140.86000061035	0.37227328176458	1.4900653708084
141.85899353027	0.38495260042967	1.8897146283554
142.85800170898	0.39795053644855	2.2884663133745
143.85699462891	0.41126113054755	2.6864051854507
144.85600280762	0.42487940377993	3.0836266712324
145.85499572754	0.43879535290076	3.4801959881508
146.85400390625	0.45300541051613	3.8762078108999
147.85299682617	0.46750507713188	4.2717618202792
148.85200500488	0.48229175432375	4.6669284115767
149.85099792480	0.49737204845849	5.0618087176300
150.85000610352	0.51273951328718	5.4564754725574
151.84899902344	0.52840108652507	5.8510366209327
152.84800720215	0.54436673639691	6.2455787357664
153.84700012207	0.56064015284018	6.6401903316248
154.84599304199	0.57723358309992	7.0349654081125
155.84500122070	0.59416073432303	7.4299835665316
156.84399414063	0.61143811918658	7.8253560409905
157.84300231934	0.62908001261801	8.2211503577519
158.84199523926	0.64710341147763	8.6174802597710
159.84100341797	0.66553931337351	9.0144255017147
160.83999633789	0.68440235370324	9.4120748918838
161.83900451660	0.70371889812053	9.8105129238473
162.83799743652	0.72351971685391	10.209851964845
163.83700561523	0.74383467244901	10.610153014641
164.83599853516	0.76468655330863	11.011520883260
165.83500671387	0.78611230717061	11.414037524391
166.83399963379	0.80814657317513	11.817800585309
167.83299255371	0.83082242763770	12.222880621204
168.83200073242	0.85417274094464	12.629370939602
169.83099365234	0.87823916344894	13.037361990298
170.83000183105	0.90305568397922	13.446935174767
171.82899475098	0.92866017751132	13.858182899235
172.82800292969	0.95508947500912	14.271171317191
173.82699584961	0.98239232619915	14.686013768402
174.82600402832	1.0105990674181	15.102784733133
175.82499694824	1.0397580040512	15.521570694357
176.82400512695	1.0699063475358	15.942468405310
177.82299804688	1.1010821060055	16.365557562535
178.82200622559	1.1333434246998	16.790928493654
179.82099914551	1.1667147470754	17.218680094631
180.82000732422	1.2012585277007	17.648914805104
181.81900024414	1.2370097068759	18.081703602911
182.81799316406	1.2740131572875	18.517170115085
183.81700134277	1.3123273564061	18.955405134795
184.81599426270	1.3519844699624	19.396509920130
185.81500244141	1.3930516866496	19.840595266513
186.81399536133	1.4355751264957	20.287781113858
187.81300354004	1.4796068020927	20.738171286339
188.81199645996	1.5252011373497	21.191871577413
189.81100463867	1.5724306769837	21.649021639588
190.80999755859	1.6213395108503	22.109736574386
191.80900573730	1.6720107836913	22.574153237047
192.80799865723	1.7244977932815	23.042385523436
193.80700683594	1.7788825925791	23.514595964448
194.80599975586	1.8352364584821	23.990901463247
195.80499267578	1.8936467548312	24.471472967879
196.80400085449	1.9541991640589	24.956444187212
197.80299377441	2.0169818229627	25.445992309985
198.80200195313	2.0820977389237	25.940252714206
199.80099487305	2.1496387451778	26.439400612861
200.80000305176	2.2197320628413	26.943629195330
201.79899597168	2.2924782340290	27.453068744434
202.79800415039	2.3680140110199	27.967941251024
203.79699707031	2.4464698913558	28.488414931388
204.79600524902	2.5279823165808	29.014681725724
205.79499816895	2.6126941833254	29.546939868262
206.79400634766	2.7007760505434	30.085394703305
207.79299926758	2.7923958886402	30.630258298569
208.79200744629	2.8877247512471	31.181726623650
209.79100036621	2.9869469940315	31.740017560615
210.78999328613	3.0902750579414	32.305371154675
211.78900146484	3.1979143906610	32.878016709102
212.78799438477	3.3100856836125	33.458170991975
213.78700256348	3.4270312580883	34.046074008165
214.78599548340	3.5489987977208	34.641989160787
215.78500366211	3.6762461198089	35.246148179490
216.78399658203	3.8090664668913	35.858832568502
217.78300476074	3.9477369619332	36.480277552822
218.78199768066	4.0925815266519	37.110779068068
219.78100585938	4.2439321508115	37.750603125259
220.77999877930	4.4021262357148	38.400020347656
221.77900695801	4.5675388085541	39.059347266360
222.77799987793	4.7405573690537	39.728880716805
223.77699279785	4.9215937648058	40.408904597338
224.77600097656	5.1110790705447	41.099738457151
225.77499389648	5.3094786973776	41.801709606903
226.77400207520	5.5172867045377	42.515155046801
227.77299499512	5.7350128852292	43.240397746538
228.77200317383	5.9632012116999	43.977782709560
229.77099609375	6.2024531124486	44.727675059206
230.77000427246	6.4533652099391	45.490436563185
231.76899719238	6.7166213112861	46.266425696066
232.76800537109	6.9929035055227	47.056026823866
233.76699829102	7.2829668309796	47.859624897291
234.76600646973	7.5876092841464	48.677611097211
235.76499938965	7.9076651769785	49.510384369225
236.76400756836	8.2440615791247	50.358352491332
237.76300048828	8.5977537661396	51.221906254804
238.76199340820	8.9697847038925	52.101483033494
239.76100158691	9.3612561895614	52.997470500049
240.75999450684	9.7733622446539	53.910301019348
241.75900268555	10.207365168437	54.840351635144
242.75799560547	10.664631320398	55.788026682943
243.75700378418	11.146623646068	56.753729046379
244.75599670410	11.654898230337	57.737820171538
245.75500488281	12.191144676194	58.740636876255
246.75399780273	12.757162660218	59.762495093685
247.75300598145	13.354899033473	60.803721858561
248.75199890137	13.986425593504	61.864511767799
249.75100708008	14.653964680476	62.945033274534
250.75000000000	15.359935181876	64.045456353071
251.74899291992	16.106893408257	65.165786322254
252.74800109863	16.897597397433	66.305958988974
253.74699401855	17.735010818351	67.465817090024
254.74600219727	18.622300458284	68.645012136293
255.74499511719	19.562849465781	69.843109510768
256.74398803711	20.560293181039	71.059452296134
257.74301147461	21.618486854102	72.293082316449
258.74200439453	22.741562123672	73.542960232854
259.74099731445	23.933897997797	74.807573246887
260.73999023438	25.200157766100	76.085145733966
261.73901367188	26.545261590218	77.373549109861
262.73800659180	27.974408183289	78.670105364568
263.73699951172	29.493039254408	79.971663099856
264.73599243164	31.106855902495	81.274482991316
265.73498535156	32.821799807191	82.574129359874
266.73400878906	34.643973095190	83.865449138621
267.73300170898	36.579630218783	85.142392425586
268.73199462891	38.635134667615	86.397941639579
269.73098754883	40.816788679292	87.624064606800
270.73001098633	43.130852375210	88.811535321026
271.72900390625	45.583300670521	89.949840312900
272.72799682617	48.179711494003	91.027056030020
273.72698974609	50.925074083381	92.029843136477
274.72601318359	53.823547188154	92.943219339683
275.72500610352	56.878166576484	93.750586770125
276.72399902344	60.090559289080	94.433723892919
277.72299194336	63.460522813480	94.972729843718
278.72198486328	66.985744830362	95.346256189574
279.72100830078	70.661233907252	95.531463284303
280.72000122070	74.478962088060	95.504422650883
281.71899414063	78.427381747567	95.240461889688
282.71798706055	82.491037293013	94.714666045131
283.71701049805	86.650141490579	93.902360741508
284.71600341797	90.880299613448	92.780123826078
285.71499633789	95.152404877595	91.326445341763
286.71398925781	99.432648989006	89.522803291295
287.71301269531	103.68273688506	87.354746542082
288.71200561523	107.86046497894	84.812940682000
289.71099853516	111.92045218814	81.894158675765
290.70999145508	115.81523412680	78.602256364570
291.70901489258	119.49659244579	74.948679343250
292.70800781250	122.91713739188	70.953058422886
293.70700073242	126.03185251332	66.642953205783
294.70599365234	128.79991871217	62.053629208220
295.70498657227	131.18616006432	57.227093777315
296.70401000977	133.16254904457	52.211028979052
297.70300292969	134.70911453535	47.057077533505
298.70199584961	135.81469411307	41.819254551849
299.70098876953	136.47702702379	36.551985988402
300.70001220703	136.70259421319	31.308413122718
301.69900512695	136.50589971856	26.138708227469
302.69799804688	135.90851867407	21.088699890038
303.69699096680	134.93781061601	16.198801752661
304.69601440430	133.62553067132	11.503310071700
305.69500732422	132.00654693204	7.0300849807020
306.69400024414	130.11737403046	2.8004890370972
307.69299316406	127.99500991560	-1.1703576932157
308.69198608398	125.67586396899	-4.8731194201178
309.69100952148	123.19491126211	-8.3036424090614
310.69000244141	120.58505716656	-11.462256910339
311.68899536133	117.87667499682	-14.353056958124
312.68798828125	115.09730312438	-16.983171423251
313.68701171875	112.27159318124	-19.362110599796
314.68600463867	109.42118240032	-21.501096959649
315.68499755859	106.56488329593	-23.412588836127
316.68399047852	103.71877590080	-25.109760596987
317.68301391602	100.89645136947	-26.606147446273
318.68200683594	98.109166409264	-27.915307153757
319.68099975586	95.366173754309	-29.050613371195
320.67999267578	92.674867038360	-30.025039690550
321.67898559570	90.041068516178	-30.851042742093
322.67800903320	87.469226292797	-31.540443745410
323.67700195313	84.962587825347	-32.104396903761
324.67599487305	82.523449792252	-32.553367874784
325.67498779297	80.153217647561	-32.897088416540
326.67401123047	77.852647540677	-33.144598965883
327.67300415039	75.621897044797	-33.304244682623
328.67199707031	73.460660741547	-33.383743621718
329.67098999023	71.368295472661	-33.390164899062
330.67001342773	69.343816508354	-33.330013697758
331.66900634766	67.386019766203	-33.209241623625
332.66799926758	65.493551413778	-33.033314141263
333.66699218750	63.664918226342	-32.807225447007
334.66598510742	61.898496903434	-32.535545584223
335.66500854492	60.192667799280	-32.222459870255
336.66400146484	58.545753119894	-31.871793498272
337.66299438477	56.955998711169	-31.487057463748
338.66198730469	55.421737860462	-31.071468020579
339.66101074219	53.941215783648	-30.627970454129
340.66000366211	52.512811915423	-30.159270342386
341.65899658203	51.134823727969	-29.667846144852
342.65798950195	49.805652871609	-29.155993834912
343.65701293945	48.523661504896	-28.625795609620
344.65600585938	47.287368439549	-28.079214544936
345.65499877930	46.095176225559	-27.517999009155
346.65399169922	44.945651762880	-26.943817624670
347.65301513672	43.837355091916	-26.358179210834
348.65200805664	42.768869055489	-25.762480454964
349.65100097656	41.738825897075	-25.158009601817
350.64999389648	40.745930797900	-24.545968390992
351.64898681641	39.788871926761	-23.927447843106
352.64801025391	38.866411539825	-23.303473106890
353.64700317383	37.977326127110	-22.674958869159
354.64599609375	37.120439026031	-22.042778497938
355.64498901367	36.294614129399	-21.407720924343
356.64401245117	35.498721505160	-20.770512814981
357.64300537109	34.731700621318	-20.131829016901
358.64199829102	33.992484860389	-19.492268805409
359.64099121094	33.280068976470	-18.852390194424
360.64001464844	32.593459640934	-18.212704177096
361.63900756836	31.931710335820	-17.573672058638
362.63800048828	31.293880768727	-16.935708364656
363.63699340820	30.679087380914	-16.299190230265
364.63598632813	30.086445785527	-15.664444289627
365.63500976563	29.515121188015	-15.031779673545
366.63400268555	28.964295870110	-14.401448309904
367.63299560547	28.433190483794	-13.773695375272
368.63198852539	27.921025184641	-13.148702322604
369.63101196289	27.427083693432	-12.526657793906
370.63000488281	26.950651395421	-11.907695018960
371.62899780273	26.491045254669	-11.291939671972
372.62799072266	26.047604569837	-10.679476760774
373.62701416016	25.619696363083	-10.070381169685
374.62600708008	25.206715824553	-9.4647019471256
375.62500000000	24.808082706193	-8.8624722673708
376.62399291992	24.423228575472	-8.2637096743784
377.62298583984	24.051627668514	-7.6683975715528
378.62200927734	23.692759072915	-7.0765324785052
379.62100219727	23.346136026189	-6.4880703331230
380.61999511719	23.011290707540	-5.9029659504088
381.61898803711	22.687781827367	-5.3211609247333
382.61801147461	22.375187902642	-4.7425836219928
383.61700439453	22.073103424870	-4.1671674437067
384.61599731445	21.781151855135	-3.5948105815736
385.61499023438	21.498974316105	-3.0254264510447
386.61401367188	21.226229680149	-2.4589230495308
387.61300659180	20.962599060871	-1.8951783754491
388.61199951172	20.707783280863	-1.3340955719590
389.61099243164	20.461500165503	-0.77556220602542
390.60998535156	20.223485293474	-0.21946162314294
391.60900878906	19.993493680805	0.33432200946939
392.60800170898	19.771292930314	0.88590901002900
393.60699462891	19.556668574457	1.4354082799797
394.60598754883	19.349424746110	1.9829318772349
395.60501098633	19.149368444983	2.5286002983949
396.60400390625	18.956336931979	3.0725265177523
397.60299682617	18.770162978879	3.6148058163619
398.60198974609	18.590704397698	4.1555507542328
399.60101318359	18.417822924243	4.6948547925932
400.60000610352	18.251392534105	5.2328286300949
401.59899902344	18.091290550329	5.7695421836320
402.59799194336	17.937411333588	6.3051032112680
