#Parameters = {a=1500; t=0.1}
#"Frequency / GHz"	"Z1,1 [Real/Imaginary Part] [Re]"	"Z1,1 [Real/Imaginary Part] [Im]"
#-------------------------------------------------------------------------------------
1.0000000000000	52.074437790415	12.551648472062
1.9989999532700	54.140760406093	25.761411921547
2.9979999065399	57.991675505778	40.430874625748
3.9969999790192	64.425142326248	57.628238880610
4.9959998130798	75.090205394277	78.958941243335
5.9949998855591	93.622620173812	106.99783127774
6.9939999580383	129.09164725567	145.76621467378
7.9930000305176	208.21301699746	198.08758956118
8.9919996261597	415.08594066003	218.46827296116
9.9910001754761	655.97979965531	-164.05977404313
10.989999771118	279.99380620554	-414.89522041661
11.989000320435	97.433410428602	-314.18337922326
12.987999916077	43.397092992969	-235.35135153525
13.987000465393	23.650146169114	-186.30965145459
14.986000061035	14.974019158272	-153.99577930565
15.984999656677	10.638387882027	-131.21904416280
16.983999252319	8.2728760553247	-114.26268667762
17.982999801636	6.9063041329453	-101.09841987566
18.982000350952	6.0864767047583	-90.548755802499
19.981000900269	5.5742765652446	-81.888532124498
20.979999542236	5.2255454244858	-74.643731835190
21.979000091553	4.9434405114814	-68.483457804270
22.978000640869	4.6603474876864	-63.159921553733
23.976999282837	4.3329337422501	-58.475566215520
24.975999832153	3.9423158271788	-54.267171644828
25.975000381470	3.4942971145408	-50.400995359335
26.974000930786	3.0160136646896	-46.774123232989
27.972999572754	2.5481089782248	-43.316683260662
28.972000122070	2.1340162245562	-39.991046821631
29.971000671387	1.8098058683640	-36.786632922362
30.969999313354	1.5973435495959	-33.711386180906
31.968999862671	1.5017974269225	-30.782527421179
32.967998504639	1.5123905555530	-28.018666418594
33.966999053955	1.6051371408817	-25.433542999189
34.965999603271	1.7466014847383	-23.031471594566
35.965000152588	1.8986506355430	-20.803774522670
36.964000701904	2.0245860741731	-18.726749262344
37.963001251221	2.0964688451063	-16.762340208569
38.962001800537	2.1022059359321	-14.862415478434
39.960998535156	2.0500157215198	-12.977034276273
40.959999084473	1.9679756490191	-11.064017297281
41.958999633789	1.8987241675966	-9.0972079730800
42.958000183105	1.8912745924290	-7.0704947943157
43.957000732422	1.9930475946073	-4.9978689185249
44.956001281738	2.2438004283438	-2.9109130708830
45.955001831055	2.6712943239253	-0.85599737059085
46.953998565674	3.2871832953266	1.1081861163212
47.952999114990	4.0814467673638	2.9137200305329
48.951999664307	5.0151041796839	4.4898632423669
49.951000213623	6.0137907989665	5.7760351969936
50.950000762939	6.9684234412793	6.7422586068480
51.949001312256	7.7506984215766	7.4118085515174
52.948001861572	8.2455464707334	7.8728393880413
53.946998596191	8.3894204999296	8.2654418578177
54.945999145508	8.1930966054186	8.7442929423624
55.944999694824	7.7347775635336	9.4354389107304
56.944000244141	7.1297435427502	10.410022214507
57.943000793457	6.4962329570638	11.682713092729
58.942001342773	5.9328012344517	13.226556636240
59.941001892090	5.5101071388924	14.991478287585
60.939998626709	5.2720570463299	16.918513043578
61.938999176025	5.2403496852764	18.948333516480
62.937999725342	5.4187719240336	21.025859911498
63.937000274658	5.7964627837494	23.103428787008
64.935997009277	6.3507764524447	25.143968229969
65.934997558594	7.0512994424137	27.124420487360
66.933998107910	7.8658246353744	29.038116730003
67.932998657227	8.7679698690960	30.894521313507
68.931999206543	9.7445436014168	32.714930732797
69.930999755859	10.800369238712	34.524766804649
70.930000305176	11.958838522051	36.344087031358
71.929000854492	13.258033042393	38.178802435457
72.928001403809	14.743463961079	40.014323815921
73.927001953125	16.458666255874	41.812473934313
74.926002502441	18.434688120422	43.512057719109
75.925003051758	20.679473659332	45.033776598459
76.924003601074	23.168711778652	46.290077011918
77.922996520996	25.840939961301	47.200262419159
78.921997070313	28.600530846076	47.708927316612
79.920997619629	31.331065850189	47.802785954321
80.919998168945	33.918009725548	47.519284761379
81.918998718262	36.274542660698	46.941615170674
82.917999267578	38.361741741003	46.179775771988
83.916999816895	40.195935719725	45.343628615458
84.916000366211	41.841411387712	44.516378569692
85.915000915527	43.392311477137	43.735564245800
86.914001464844	44.948771893209	42.983942865339
87.913002014160	46.591963405939	42.190391783506
88.912002563477	48.359516870297	41.239832357232
89.911003112793	50.223630357655	39.993926050885
90.910003662109	52.076533524051	38.324632423084
91.908996582031	53.734072203043	36.159779947611
92.907997131348	54.968737339795	33.528951972768
93.906997680664	55.574218522780	30.586060658403
94.905998229980	55.439727041468	27.584924415999
95.904998779297	54.596034799827	24.808075955523
96.903999328613	53.205427380393	22.481594538942
97.902999877930	51.503646642589	20.718450514808
98.902000427246	49.728679724206	19.509508654386
99.901000976563	48.066719459647	18.750915552960
100.90000152588	46.625247164420	18.285354465647
101.89900207520	45.426919814511	17.941812399088
102.89800262451	44.416049891063	17.570138460291
103.89700317383	43.475099979872	17.071563373430
104.89600372314	42.453605035888	16.423284756105
105.89499664307	41.210374367648	15.688433374501
106.89399719238	39.659183782884	15.000566381014
107.89299774170	37.799046150306	14.522041740827
108.89199829102	35.713122091352	14.392386504798
109.89099884033	33.538345308456	14.690606183211
110.88999938965	31.424129880166	15.424735063681
111.88899993896	29.499683041106	16.544428447886
112.88800048828	27.857751196211	17.962718047110
113.88700103760	26.551773550178	19.575699935011
114.88600158691	25.599153576210	21.275864501547
115.88500213623	24.985188164337	22.960384737880
116.88400268555	24.665775093736	24.538036874012
117.88300323486	24.570234670641	25.937401689455
118.88200378418	24.607513721669	27.116809311013
119.88099670410	24.678599090410	28.072974927669
120.87999725342	24.694601011612	28.843068187551
121.87899780273	24.595271596165	29.496073078736
122.87799835205	24.360410917955	30.114397483924
123.87699890137	24.009172395414	30.772533040914
124.87599945068	23.588333776174	31.520549069597
125.87500000000	23.155419469494	32.377218518527
126.87400054932	22.762912584791	33.332451680915
127.87300109863	22.447391931889	34.355711588895
128.87199401855	22.224159734698	35.406783162192
129.87100219727	22.087260392181	36.446681961748
130.86999511719	22.013706476311	37.446774575527
131.86900329590	21.971264138707	38.395006469707
132.86799621582	21.927956623966	39.297385347610
133.86700439453	21.861019229843	40.174659642690
134.86599731445	21.762587593142	41.055063256815
135.86500549316	21.640535591814	41.965278716000
136.86399841309	21.514762063428	42.923017997281
137.86300659180	21.410442466508	43.932752261264
138.86199951172	21.350626774125	44.985650432901
139.86099243164	21.350165168507	46.062772072281
140.86000061035	21.412167800939	47.140893494296
141.85899353027	21.527604933409	48.198735492710
142.85800170898	21.678251001281	49.222974604327
143.85699462891	21.841915066866	50.211598084811
144.85600280762	21.999003534878	51.174291861412
145.85499572754	22.138200680660	52.129304829026
146.85400390625	22.259593061097	53.097805927865
147.85299682617	22.374370358413	54.097514828291
148.85200500488	22.501528099433	55.137621298716
149.85099792480	22.662485703161	56.215998118199
150.85000610352	22.875242123165	57.319409599155
151.84899902344	23.149378949433	58.426297105076
152.84800720215	23.482932281114	59.511508201754
153.84700012207	23.861586582815	60.551942028404
154.84599304199	24.260638745292	61.532077477576
155.84500122070	24.649216945606	62.447930094954
156.84399414063	24.995821886919	63.308660773237
157.84300231934	25.273957888616	64.135415938076
158.84199523926	25.466174363711	64.957790145729
159.84100341797	25.565921703622	65.809260921148
160.83999633789	25.577050981495	66.722687418282
161.83900451660	25.511659859332	67.727146469888
162.83799743652	25.387299307726	68.846472633692
163.83700561523	25.224316494342	70.098935062204
164.83599853516	25.044050331215	71.498259425192
165.83500671387	24.867782097358	73.054658157092
166.83399963379	24.716394337023	74.775816646409
167.83299255371	24.610370540280	76.667888378535
168.83200073242	24.569995918401	78.735801860289
169.83099365234	24.615407560494	80.983712360028
170.83000183105	24.766665874213	83.415403533877
171.82899475098	25.043759674090	86.034875254256
172.82800292969	25.466913509830	88.847222151809
173.82699584961	26.057204473458	91.859635887511
174.82600402832	26.837864955528	95.082651352305
175.82499694824	27.836254281178	98.531097823821
176.82400512695	29.086723812666	102.22463103692
177.82299804688	30.634066166424	106.18784227237
178.82200622559	32.538036640838	110.44908710780
179.82099914551	34.878387054949	115.03850200059
180.82000732422	37.761056626206	119.98425918685
181.81900024414	41.325530126089	125.30658518187
182.81799316406	45.753511898122	131.00827906913
183.81700134277	51.278944791029	137.05941286470
184.81599426270	58.198164441476	143.37273574675
185.81500244141	66.876236795792	149.76444620737
186.81399536133	77.740850326022	155.89462722467
187.81300354004	91.245830166086	161.18214416770
188.81199645996	107.77102836303	164.70069578538
189.81100463867	127.41307633885	165.09223713033
190.80999755859	149.63178768487	160.59938146586
191.80900573730	172.81356824807	149.39645667468
192.80799865723	194.04187931404	130.37494210584
193.80700683594	209.58402116634	104.19323918815
194.80599975586	216.31177674796	73.791086138930
195.80499267578	213.27499366052	43.540683021414
196.80400085449	202.08638075581	17.398981132716
197.80299377441	185.83237623940	-2.4864599943499
198.80200195313	167.59466382619	-15.881147540730
199.80099487305	149.59782976228	-23.728410476052
200.80000305176	133.09052145762	-27.365865063982
201.79899597168	118.58887945674	-28.055308285323
202.79800415039	106.16951664466	-26.804687574097
203.79699707031	95.688275631689	-24.352151939291
204.79600524902	86.912560785818	-21.212077079733
205.79499816895	79.591076076526	-17.732245435263
206.79400634766	73.485878338713	-14.143020507160
207.79299926758	68.383983758708	-10.594000339608
208.79200744629	64.099174852459	-7.1792760601968
209.79100036621	60.469787840165	-3.9537589797432
210.78999328613	57.355832570027	-0.94315679208091
211.78900146484	54.637098666980	1.8500196360222
212.78799438477	52.212915220551	4.4423166140029
213.78700256348	50.003269529879	6.8652775671208
214.78599548340	47.950258780775	9.1603414298332
215.78500366211	46.018496113481	11.372520754962
216.78399658203	44.193388223118	13.543636446117
217.78300476074	42.477011934809	15.706456819331
218.78199768066	40.882250612841	17.880922441378
219.78100585938	39.426368217086	20.072982710134
220.77999877930	38.125274935669	22.275826732056
221.77900695801	36.989016016489	24.472773238009
222.77799987793	36.018978442410	26.641169465534
223.77699279785	35.206567783137	28.756711076114
224.77600097656	34.533523486704	30.797812310238
225.77499389648	33.973864630577	32.749589048164
226.77400207520	33.497300858273	34.606833763619
227.77299499512	33.073879481168	36.375272987571
228.77200317383	32.678791006977	38.070524899276
229.77099609375	32.296282079845	39.714823434236
230.77000427246	31.921449945389	41.332193040091
231.76899719238	31.559469679748	42.943445153718
232.76800537109	31.222567042412	44.562293539229
233.76699829102	30.925619909076	46.193462980871
234.76600646973	30.681638707874	47.833152311041
235.76499938965	30.498195282107	49.471526395527
236.76400756836	30.375428043011	51.096417059186
237.76300048828	30.306203067835	52.697473841009
238.76199340820	30.278193948710	54.269610426146
239.76100158691	30.277490823282	55.815082511077
240.75999450684	30.292608563028	57.343192519370
241.75900268555	30.317956793131	58.868123343427
242.75799560547	30.355491118804	60.405217352620
243.75700378418	30.414217210311	61.966992447396
244.75599670410	30.507820629399	63.560127919512
245.75500488281	30.650926422959	65.183907179941
246.75399780273	30.855395856120	66.831057230254
247.75300598145	31.127318824473	68.490076945914
248.75199890137	31.465881727565	70.149039239476
249.75100708008	31.864048805197	71.799333202415
250.75000000000	32.311378112779	73.438450690196
251.74899291992	32.797893927594	75.071318378483
252.74800109863	33.318087479939	76.708812419961
253.74699401855	33.873644540771	78.364727890931
254.74600219727	34.474135714914	80.051596169574
255.74499511719	35.135263281153	81.776680602985
256.74398803711	35.875477557280	83.539619477699
257.74301147461	36.711648679400	85.332099986151
258.74200439453	37.655206872772	87.139871034707
259.74099731445	38.709944480923	88.946566263140
260.73999023438	39.872125608486	90.738414969475
261.73901367188	41.133124388823	92.507996555959
262.73800659180	42.484106244143	94.256440463585
263.73699951172	43.921188833561	95.992395383343
264.73599243164	45.449521527574	97.728552116636
265.73498535156	47.084991627972	99.476013284353
266.73400878906	48.852623447708	101.23866932372
267.73300170898	50.782307399792	103.00902268984
268.73199462891	52.902847355778	104.76675511249
269.73098754883	55.236191407039	106.48051958028
270.73001098633	57.793205863450	108.11253120025
271.72900390625	60.572771509551	109.62474619130
272.72799682617	63.564415226116	110.98451110205
273.72698974609	66.753855975103	112.16773057413
274.72601318359	70.129621481810	113.15774699747
275.72500610352	73.688114732268	113.94037685576
276.72399902344	77.434248634683	114.49583014853
277.72299194336	81.377068725650	114.79108046793
278.72198486328	85.520756972518	114.77558526322
279.72100830078	89.853126499456	114.38256280356
280.72000122070	94.335626677639	113.53715119416
281.71899414063	98.898661223647	112.16970501617
282.71798706055	103.44455502120	110.23107126309
283.71701049805	107.85875729554	107.70429825959
284.71600341797	112.02597146436	104.60886711177
285.71499633789	115.84547349530	100.99511076007
286.71398925781	119.24012854204	96.931965086134
287.71301269531	122.15603424546	92.493194579573
288.71200561523	124.55482477437	87.748742942931
289.71099853516	126.40368879183	82.763919848436
290.70999145508	127.66927464235	77.606127436120
291.70901489258	128.31932788365	72.354061267135
292.70800781250	128.33160569197	67.103267997617
293.70700073242	127.70655420806	61.964229572652
294.70599365234	126.47673602030	57.051395426703
295.70498657227	124.70869766056	52.467731061353
296.70401000977	122.49560023616	48.290219889033
297.70300292969	119.94308185204	44.561497086325
298.70199584961	117.15392517617	41.290225233903
299.70098876953	114.21569239868	38.458427939595
300.70001220703	111.19463444407	36.032733617592
301.69900512695	108.13573986617	33.975617024578
302.69799804688	105.06757083283	32.253821413225
303.69699096680	102.00948879318	30.842375966581
304.69601440430	98.978578192993	29.724409768849
305.69500732422	95.994500072019	28.887673608806
306.69400024414	93.081177694255	28.319774035948
307.69299316406	90.265506232271	28.003814969639
308.69198608398	87.573953641761	27.915790969235
309.69100952148	85.028527170885	28.024373623519
310.69000244141	82.643166426905	28.292774009512
311.68899536133	80.421488032038	28.682102450960
312.68798828125	78.356299507170	29.155446799930
313.68701171875	76.430789707457	29.681773596431
314.68600463867	74.621246599517	30.239102378947
315.68499755859	72.900967183232	30.816358224162
316.68399047852	71.244516839993	31.413543110832
317.68301391602	69.631776628161	32.040122596380
318.68200683594	68.051011305238	32.711934627373
319.68099975586	66.500245769109	33.447163293041
320.67999267578	64.986996990655	34.262260566668
321.67898559570	63.526258747666	35.168509172165
322.67800903320	62.137646430972	36.169882364281
323.67700195313	60.842048546379	37.262244479373
324.67599487305	59.658585627555	38.433872532969
325.67498779297	58.602159866065	39.666882183652
326.67401123047	57.681799766344	40.939292014736
327.67300415039	56.899806394358	42.227360362893
328.67199707031	56.251773661301	43.507937348055
329.67098999023	55.727341716076	44.760664528227
330.67001342773	55.311622139667	45.969722407469
331.66900634766	54.987254178790	47.125014064541
332.66799926758	54.736676449435	48.222412870614
333.66699218750	54.544344525433	49.263103172155
334.66598510742	54.398569763430	50.252059826492
335.66500854492	54.292319476179	51.195879805789
336.66400146484	54.223113571597	52.100481224289
337.66299438477	54.191887765754	52.969275970798
338.66198730469	54.201033357212	53.801933642156
339.66101074219	54.252372670895	54.594393067181
340.66000366211	54.345178229629	55.339671437852
341.65899658203	54.475020919585	56.029624774827
342.65798950195	54.633515186011	56.656974111024
343.65701293945	54.809154845131	57.217230814966
344.65600585938	54.988919573292	57.709896820581
345.65499877930	55.160376246056	58.138810696499
346.65399169922	55.313513068487	58.511223000372
347.65301513672	55.441944837576	58.836268266155
348.65200805664	55.543019877581	59.122944611194
349.65100097656	55.617010885247	59.378442593028
350.64999389648	55.665508692927	59.607275698108
351.64898681641	55.689649651119	59.811313613227
352.64801025391	55.688820455732	59.990811072696
353.64700317383	55.660006675228	60.145987932730
354.64599609375	55.598267209486	60.278588097720
355.64498901367	55.498028308036	60.393038273630
356.64401245117	55.354702008480	60.496594589075
357.64300537109	55.166278146468	60.598632556767
358.64199829102	54.934233344410	60.709054655516
359.64099121094	54.663514287259	60.836604140009
360.64001464844	54.361551736331	60.987227451963
361.63900756836	54.036735901667	61.163373101307
362.63800048828	53.696521056474	61.363951459743
363.63699340820	53.346035812776	61.585399070964
364.63598632813	52.987496228360	61.823235276173
365.63500976563	52.619974403676	62.073521899511
366.63400268555	52.240629010700	62.334332568540
367.63299560547	51.845874307895	62.606291996546
368.63198852539	51.432887892738	62.892434091836
369.63101196289	51.000627829776	63.197363447379
370.63000488281	50.550365805361	63.526019669811
371.62899780273	50.085327618334	63.882511337398
372.62799072266	49.610032752784	64.269309724734
373.62701416016	49.128985634603	64.686913314158
374.62600708008	48.646061027485	65.134383298715
375.62500000000	48.163698721072	65.609967118954
376.62399291992	47.683008653417	66.112031616111
377.62298583984	47.204134917248	66.639715398784
378.62200927734	46.727249633243	67.193375699839
379.62100219727	46.252896309822	67.774084233311
380.61999511719	45.782858399930	68.383340906859
381.61898803711	45.319960745937	69.022103122837
382.61801147461	44.867749724321	69.690220462245
383.61700439453	44.429624295334	70.385985057245
384.61599731445	44.008171339335	71.106517802363
385.61499023438	43.604378542859	71.848169652337
386.61401367188	43.217529442624	72.607531571961
387.61300659180	42.845416417262	73.382244128988
388.61199951172	42.485236069076	74.171826932227
389.61099243164	42.134255572958	74.977410606689
390.60998535156	41.791147270069	75.801824723139
391.60900878906	41.456266676781	76.648451888280
392.60800170898	41.131881126173	77.520305508196
393.60699462891	40.821593590341	78.419090190988
394.60598754883	40.529566550250	79.344774047302
395.60501098633	40.259405590079	80.295542350958
396.60400390625	40.013242022519	81.268279215831
397.60299682617	39.791573738457	82.259814914280
398.60198974609	39.593113404732	83.267637686488
399.60101318359	39.415687631435	84.290914629157
400.60000610352	39.257235072210	85.330703549502
401.59899902344	39.116811054968	86.389583181107
402.59799194336	38.995444161110	87.471002340676
403.59698486328	38.896220223363	88.577915537923
404.59600830078	38.823848239815	89.711901952474
405.59500122070	38.783704949846	90.872230325842
406.59399414063	38.780570162182	92.056120447865
407.59298706055	38.817552580494	93.259107889226
408.59201049805	38.895482722981	94.476298454598
409.59100341797	39.013021639008	95.703631782500
410.58999633789	39.167411848487	96.939103513992
