#Parameters = {a=1500; t=0.1}
#"Frequency / GHz"	"Z1,1 [Real/Imaginary Part] [Re]"	"Z1,1 [Real/Imaginary Part] [Im]"
#-------------------------------------------------------------------------------------
1.0000000000000	52.373622984083	-0.28687867134368
1.9989999532700	51.622196096851	-0.27548790713056
2.9979999065399	50.614094691888	0.23923343543535
3.9969999790192	49.619919443294	1.3265041964895
4.9959998130798	48.891475621047	2.9303357442450
5.9949998855591	48.620795970448	4.9072815638123
6.9939999580383	48.927492604609	7.0613392730220
7.9930000305176	49.855296558981	9.1648218864212
8.9919996261597	51.361030629985	10.972122906458
9.9910001754761	53.291151872125	12.244415715355
10.989999771118	55.359882501857	12.805664790244
11.989000320435	57.165845709587	12.634603411158
12.987999916077	58.289153841328	11.953890278378
13.987000465393	58.459932830702	11.233613171221
14.986000061035	57.699245190916	11.058346147633
15.984999656677	56.318926753587	11.928912420321
16.983999252319	54.786702484477	14.141770343066
17.982999801636	53.575800278055	17.809127400989
18.982000350952	53.096838354593	22.966206083483
19.981000900269	53.724692211798	29.689321604004
20.979999542236	55.896547058387	38.196173586306
21.979000091553	60.286048060776	48.945835435877
22.978000640869	68.142159849109	62.778944983147
23.976999282837	82.094271213731	81.136280964326
24.975999832153	108.45734957955	106.21907813001
25.975000381470	165.04376040482	138.96920590015
26.974000930786	306.52310060582	149.86394669434
27.972999572754	493.07392821703	-115.62209291658
28.972000122070	201.94914981586	-325.68493246903
29.971000671387	56.506814980004	-235.45051603042
30.969999313354	19.330909394884	-168.57063936990
31.968999862671	8.1523097466847	-128.51919490690
32.967998504639	4.5207799100358	-102.74205581964
33.966999053955	3.5488747762753	-84.873488771402
34.965999603271	3.6468039242198	-71.762690544086
35.965000152588	4.2091528789633	-61.737569180970
36.964000701904	4.9705006644156	-53.847459991784
37.963001251221	5.7921557607650	-47.518212515626
38.962001800537	6.5819971733508	-42.380710728455
39.960998535156	7.2632980058007	-38.176845266058
40.959999084473	7.7666248080508	-34.703656000373
41.958999633789	8.0354610633964	-31.780138684657
42.958000183105	8.0395673153316	-29.233318617502
43.957000732422	7.7874506373636	-26.901465203718
44.956001281738	7.3291223069750	-24.648876211957
45.955001831055	6.7450795410547	-22.381478547906
46.953998565674	6.1262656437617	-20.053152515036
47.952999114990	5.5544433102140	-17.659958607637
48.951999664307	5.0901537378852	-15.226988263657
49.951000213623	4.7693512426896	-12.794466595845
50.950000762939	4.6054973923043	-10.407347574567
51.949001312256	4.5933087683225	-8.1090965375632
52.948001861572	4.7118324598212	-5.9379825331854
53.946998596191	4.9264463460826	-3.9239000948647
54.945999145508	5.1908380431834	-2.0842625776837
55.944999694824	5.4508387807288	-0.41900056871008
56.944000244141	5.6515942120032	1.0937950257234
57.943000793457	5.7478975003560	2.4984703719061
58.942001342773	5.7149210350369	3.8565008353948
59.941001892090	5.5550076053820	5.2352996636543
60.939998626709	5.2973268759360	6.6949094709671
61.938999176025	4.9907601164482	8.2774253011340
62.937999725342	4.6934836889401	10.002196706158
63.937000274658	4.4634001085577	11.866620794446
64.935997009277	4.3515231329193	13.849787523771
65.934997558594	4.3982678158184	15.916707006200
66.933998107910	4.6308951400485	18.021598119617
67.932998657227	5.0606990412761	20.110845584349
68.931999206543	5.6791371275851	22.127112672346
69.930999755859	6.4539616381377	24.016805033654
70.930000305176	7.3284817923072	25.741667355411
71.929000854492	8.2279429699974	27.292962536856
72.928001403809	9.0754988078341	28.702413716991
73.927001953125	9.8150580417235	30.042978782484
74.926002502441	10.432717913431	31.415678467604
75.925003051758	10.967959687897	32.926479195529
76.924003601074	11.511867675271	34.662251853681
77.922996520996	12.197117151962	36.672637979194
78.921997070313	13.186939882525	38.957717503727
79.920997619629	14.666306184766	41.455184519755
80.919998168945	16.830544497695	44.018933274344
81.918998718262	19.856983494623	46.385462945122
82.917999267578	23.835800411771	48.139117171080
83.916999816895	28.639095623386	48.720128671510
84.916000366211	33.757127348635	47.561111099468
85.915000915527	38.253289596255	44.410658553422
86.914001464844	41.058409386252	39.686676149130
87.913002014160	41.548581430438	34.457804231760
88.912002563477	39.896481853496	29.913500104245
89.911003112793	36.849421454190	26.800183087134
90.910003662109	33.243932070568	25.289186799728
91.908996582031	29.700792537714	25.186168240543
92.907997131348	26.579102739628	26.174746457915
93.906997680664	24.052176064602	27.953237115704
94.905998229980	22.193541446374	30.276205968495
95.904998779297	21.035245015464	32.948031320413
96.903999328613	20.596675175291	35.799186128740
97.902999877930	20.890417615838	38.660336097501
98.902000427246	21.909102269383	41.341711103726
99.901000976563	23.596301980363	43.626657776403
100.90000152588	25.809822843218	45.291070437108
101.89900207520	28.298104841797	46.156749825456
102.89800262451	30.720996231565	46.167140401077
103.89700317383	32.731627950604	45.442475870700
104.89600372314	34.089139422308	44.263037462685
105.89499664307	34.733849136604	42.975118255468
106.89399719238	34.778679928784	41.875292739247
107.89299774170	34.436031840451	41.138750135133
108.89199829102	33.934716426414	40.810860838005
109.89099884033	33.463576176028	40.838278240381
110.88999938965	33.147179815875	41.109799496778
111.88899993896	33.041227963364	41.490970727097
112.88800048828	33.137406527348	41.851046417389
113.88700103760	33.373324143897	42.085345169260
114.88600158691	33.648838894165	42.134044311427
115.88500213623	33.850302633306	41.994299412611
116.88400268555	33.879702089491	41.719538656426
117.88300323486	33.680230387831	41.403088052357
118.88200378418	33.248659069452	41.150658202173
119.88099670410	32.630722700898	41.052183366829
120.87999725342	31.903576019491	41.162790207407
121.87899780273	31.154188399349	41.496769712630
122.87799835205	30.460919136796	42.032030030420
123.87699890137	29.881607529056	42.720410467363
124.87599945068	29.447382514229	43.499237649405
125.87500000000	29.161462011289	44.303197678559
126.87400054932	29.001130661237	45.074685693843
127.87300109863	28.923703818189	45.773445244982
128.87199401855	28.875659382167	46.383027673058
129.87100219727	28.804267762041	46.912897984606
130.86999511719	28.669491960778	47.394973123224
131.86900329590	28.452319869356	47.874320785599
132.86799621582	28.157673091140	48.397572333696
133.86700439453	27.811084786688	49.001785461526
134.86599731445	27.450921765974	49.706879017867
135.86500549316	27.119184980305	50.513100555473
136.86399841309	26.852459299241	51.402168542841
137.86300659180	26.675239983492	52.342234435618
138.86199951172	26.595542005478	53.294216988844
139.86099243164	26.603639080303	54.219590477789
140.86000061035	26.673728510111	55.087834622852
141.85899353027	26.768990005953	55.882974684442
142.85800170898	26.849269378035	56.607235802066
143.85699462891	26.879834736172	57.280594560665
144.85600280762	26.838936164092	57.936167123714
145.85499572754	26.722110901991	58.612476757390
146.85400390625	26.542128169936	59.344850148416
147.85299682617	26.324995289258	60.158348627460
148.85200500488	26.103513348857	61.063521337564
149.85099792480	25.910171084177	62.055696748578
150.85000610352	25.770770827975	63.117069696538
151.84899902344	25.699693355167	64.221167354184
152.84800720215	25.697433669163	65.338694567962
153.84700012207	25.750680179449	66.443756325281
154.84599304199	25.835101412106	67.519811303823
155.84500122070	25.920553244827	68.563805706841
156.84399414063	25.977865960215	69.587517734222
157.84300231934	25.985405810448	70.615557862173
158.84199523926	25.933950923928	71.680558252599
159.84100341797	25.828633065733	72.816681546035
160.83999633789	25.687647655953	74.053414473919
161.83900451660	25.538447766446	75.410735832687
162.83799743652	25.412553936600	76.896891116635
163.83700561523	25.340163219245	78.508263933357
164.83599853516	25.345586472520	80.231797298631
165.83500671387	25.443886790136	82.048595525692
166.83399963379	25.639477276985	83.938859067681
167.83299255371	25.926765757912	85.886845212124
168.83200073242	26.292997395123	87.885488937529
169.83099365234	26.722918283955	89.939256839273
170.83000183105	27.204447530273	92.064904828368
171.82899475098	27.734243192727	94.289384012388
172.82800292969	28.321778744537	96.645726365716
173.82699584961	28.991273405992	99.167547488750
174.82600402832	29.781096656401	101.88355704495
175.82499694824	30.741171677089	104.81276136411
176.82400512695	31.928744640212	107.96154825141
177.82299804688	33.403585083487	111.32273039275
178.82200622559	35.223216642022	114.87675098340
179.82099914551	37.439263984488	118.59533339423
180.82000732422	40.095908040468	122.44691194752
181.81900024414	43.231938129790	126.40356859099
182.81799316406	46.887422261181	130.44704643125
183.81700134277	51.115598322453	134.57215551644
184.81599426270	55.998933830848	138.78346392756
185.81500244141	61.667444406302	143.08365286293
186.81399536133	68.316153093925	147.44953259985
187.81300354004	76.217116332811	151.79426998543
188.81199645996	85.719349930102	155.91153367079
189.81100463867	97.223424042013	159.39885553841
190.80999755859	111.10643670825	161.56220272327
191.80900573730	127.55792115093	161.32514925507
192.80799865723	146.28728810872	157.21718338764
193.80700683594	166.12458826420	147.59208727722
194.80599975586	184.72377002263	131.25140560362
195.80499267578	198.82353787327	108.40504961429
196.80400085449	205.40606291357	81.333533615859
197.80299377441	203.23122284978	53.864935641174
198.80200195313	193.45494108950	29.732571748236
199.80099487305	178.78334912732	11.121446139755
200.80000305176	162.06584282148	-1.5923715834519
201.79899597168	145.40415143889	-9.2010384564069
202.79800415039	129.98854237296	-12.908083802727
203.79699707031	116.31613298240	-13.861279130071
204.79600524902	104.47089356159	-12.974717808039
205.79499816895	94.332899043183	-10.912523680229
206.79400634766	85.703480444697	-8.1333428855383
207.79299926758	78.369778793751	-4.9448859557143
208.79200744629	72.133725385153	-1.5501888376241
209.79100036621	66.822307870666	1.9180727675246
210.78999328613	62.288858238697	5.3737211276851
211.78900146484	58.410533052938	8.7610661247405
212.78799438477	55.084498290681	12.044440947721
213.78700256348	52.224046183606	15.201564041970
214.78599548340	49.755209840305	18.219509967626
215.78500366211	47.614076117146	21.092369977767
216.78399658203	45.744957547604	23.820045255051
217.78300476074	44.099299256843	26.407551961587
218.78199768066	42.635372012912	28.864517910187
219.78100585938	41.318352223452	31.204438649697
220.77999877930	40.120616203355	33.443591378486
221.77900695801	39.021869997387	35.599551786632
222.77799987793	38.008813136744	37.689484069405
223.77699279785	37.074295617983	39.728431279936
224.77600097656	36.215867286240	41.727967575956
225.77499389648	35.433984635647	43.695377393674
226.77400207520	34.730021712267	45.633485793615
227.77299499512	34.104509691556	47.541303097694
228.77200317383	33.555675773215	49.415136642392
229.77099609375	33.078623795321	51.250198991724
230.77000427246	32.665258025301	53.042420066174
231.76899719238	32.304869677960	54.790008823971
232.76800537109	31.985559121704	56.494745894731
233.76699829102	31.695936123437	58.162447884149
234.76600646973	31.426991468819	59.802557804813
235.76499938965	31.173584963984	61.426911948994
236.76400756836	30.935276672744	63.048080757691
237.76300048828	30.716162565773	64.677198438476
238.76199340820	30.524065978951	66.322398327172
239.76100158691	30.368758300263	67.987451444959
240.75999450684	30.260075547107	69.671485760811
241.75900268555	30.205893843315	71.369529584796
242.75799560547	30.210585307231	73.073722818408
243.75700378418	30.274081764749	74.775254405784
244.75599670410	30.391901896970	76.466546135162
245.75500488281	30.556134030646	78.143168406319
246.75399780273	30.757142693278	79.805201631867
247.75300598145	30.986005455597	81.457824285652
248.75199890137	31.236696350474	83.110522813891
249.75100708008	31.507928504714	84.775531321377
250.75000000000	31.804085624772	86.465376249408
251.74899291992	32.134799916847	88.190551116606
252.74800109863	32.513695578078	89.957253965408
253.74699401855	32.956156771071	91.766178113475
254.74600219727	33.476806548135	93.612287869278
255.74499511719	34.087091420776	95.485807480415
256.74398803711	34.793541352475	97.374103511224
257.74301147461	35.596966783118	99.264366302407
258.74200439453	36.493042046330	101.14642382984
259.74099731445	37.474185184287	103.01494682744
260.73999023438	38.532324889963	104.87098925934
261.73901367188	39.662331375570	106.72159193292
262.73800659180	40.864920442540	108.57808080266
263.73699951172	42.148593521455	110.45301207441
264.73599243164	43.529970012577	112.35649927410
265.73498535156	45.032461824126	114.29255536316
266.73400878906	46.683460935101	116.25643865304
267.73300170898	48.510604194973	118.23347623383
268.73199462891	50.537680402096	120.19939036900
269.73098754883	52.781246029648	122.12262998176
270.73001098633	55.248416167485	123.96791111592
271.72900390625	57.936635055515	125.70059706233
272.72799682617	60.835685169503	127.29047393658
273.72698974609	63.931379265819	128.71450257527
274.72601318359	67.210526549111	129.95670790444
275.72500610352	70.665117734217	131.00551911711
276.72399902344	74.294900415936	131.84873489973
277.72299194336	78.106534182316	132.46739356162
278.72198486328	82.109525472361	132.83010124206
279.72100830078	86.308990477204	132.89001609049
280.72000122070	90.696738392500	132.58540187123
281.71899414063	95.242823590820	131.84477753175
282.71798706055	99.889620966194	130.59674132164
283.71701049805	104.55091006888	128.78225742005
284.71600341797	109.11725800204	126.36700238298
285.71499633789	113.46713979685	123.35053806585
286.71398925781	117.48151890183	119.76889856212
287.71301269531	121.05800500675	115.68984007772
288.71200561523	124.12026460799	111.20225035844
289.71099853516	126.62064618033	106.40299775700
290.70999145508	128.53612889957	101.38600513887
291.70901489258	129.86047032813	96.236336157010
292.70800781250	130.59598561886	91.029694437692
293.70700073242	130.74873256210	85.836633905292
294.70599365234	130.32791983633	80.727533163331
295.70498657227	129.34956613320	75.776167291391
296.70401000977	127.84189258895	71.059225983445
297.70300292969	125.84992134351	66.651801857297
298.70199584961	123.43669130022	62.620268874790
299.70098876953	120.68026655303	59.014844312914
300.70001220703	117.66745029980	55.864588792269
301.69900512695	114.48557467084	53.175645188811
302.69799804688	111.21486641532	50.933463958073
303.69699096680	107.92277949478	49.107640442918
304.69601440430	104.66104788578	47.658104151731
305.69500732422	101.46558601359	46.541288802884
306.69400024414	98.358323744019	45.715189313533
307.69299316406	95.350603827897	45.142876456616
308.69198608398	92.446919224534	44.794166238494
309.69100952148	89.648466838574	44.645706848549
310.69000244141	86.956019012020	44.679847019267
311.68899536133	84.371720885017	44.882756848610
312.68798828125	81.899682419341	45.242318315793
313.68701171875	79.545763822976	45.746332736906
314.68600463867	77.316537893306	46.381239203814
315.68499755859	75.218015767624	47.131620472509
316.68399047852	73.254353013680	47.980316678414
317.68301391602	71.426897473174	48.909240633502
318.68200683594	69.733651600583	49.900400875789
319.68099975586	68.169272596616	50.937130129246
320.67999267578	66.725641311088	52.005253793708
321.67898559570	65.392822494200	53.093852807556
322.67800903320	64.160270977330	54.195653867445
323.67700195313	63.018204283374	55.306883316920
324.67599487305	61.958684016174	56.426586717017
325.67498779297	60.976417538906	57.555541120417
326.67401123047	60.069056286839	58.694979147554
327.67300415039	59.236838681677	59.845288386354
328.67199707031	58.481896473803	61.005019144595
329.67098999023	57.807057953039	62.170254204583
330.67001342773	57.214657437433	63.334598229660
331.66900634766	56.705335097247	64.489595033298
332.66799926758	56.277296373762	65.625694512178
333.66699218750	55.925832614244	66.733315652671
334.66598510742	55.643610271230	67.804258140230
335.66500854492	55.421321827215	68.832618842101
336.66400146484	55.248841274586	69.815435090166
337.66299438477	55.116531597076	70.752735572154
338.66198730469	55.016408270463	71.647111193167
339.66101074219	54.943013023041	72.502485904999
340.66000366211	54.893624784182	73.322925595084
341.65899658203	54.867873728841	74.111294270893
342.65798950195	54.866810515394	74.868393843457
343.65701293945	54.891545457054	75.592404475602
344.65600585938	54.941983576368	76.279319383314
345.65499877930	55.015654880654	76.923704326330
346.65399169922	55.107182166569	77.520072657176
347.65301513672	55.208415652010	78.064339533367
348.65200805664	55.309218432835	78.555127234705
349.65100097656	55.398825090533	78.994470101488
350.64999389648	55.467424401163	79.387973391304
351.64898681641	55.507636413420	79.744075247538
352.64801025391	55.515495700564	80.072776064800
353.64700317383	55.490750193394	80.383956438730
354.64599609375	55.436383681826	80.685931093632
355.64498901367	55.357393681806	80.984247526231
356.64401245117	55.259435450670	81.281190952605
357.64300537109	55.147159867367	81.576118589696
358.64199829102	55.023112382391	81.866331080110
359.64099121094	54.887070942721	82.148408008588
360.64001464844	54.736108122923	82.419678328015
361.63900756836	54.565457644857	82.679485357921
362.63800048828	54.369442661671	82.929828745855
363.63699340820	54.143248752303	83.175508722065
364.63598632813	53.884069414270	83.423517474434
365.63500976563	53.591715513339	83.681765697017
366.63400268555	53.269249492070	83.957906282742
367.63299560547	52.921988331481	84.257731610267
368.63198852539	52.556998937043	84.584621834953
369.63101196289	52.181347440193	84.938870127495
370.63000488281	51.800955693651	85.318078921304
371.62899780273	51.419721359190	85.718100002740
372.62799072266	51.038791691973	86.134097431863
373.62701416016	50.656650238266	86.561840794388
374.62600708008	50.269921918556	86.998931958945
375.62500000000	49.874177772860	87.445325315156
376.62399291992	49.465499639697	87.903655109003
377.62298583984	49.041277047802	88.378545363691
378.62200927734	48.601396918690	88.875881369950
379.62100219727	48.148150240891	89.401399539728
380.61999511719	47.686349760693	89.959800698468
381.61898803711	47.222120129020	90.553573092454
382.61801147461	46.762040286603	91.182601349241
383.61700439453	46.312058813420	91.844512553398
384.61599731445	45.876240285937	92.534896463918
385.61499023438	45.456512819556	93.248760481902
386.61401367188	45.052057832580	93.980990891584
387.61300659180	44.660399839037	94.728246197235
388.61199951172	44.277537616588	95.488909496047
389.61099243164	43.899676014500	96.264066601223
390.60998535156	43.523839286860	97.056708977026
391.60900878906	43.149063057874	97.871457195831
392.60800170898	42.776777651261	98.713206229809
393.60699462891	42.410699527028	99.586258641291
394.60598754883	42.056273883452	100.49305526434
395.60501098633	41.719893047856	101.43395472550
396.60400390625	41.407481942042	102.40656052083
397.60299682617	41.123752163566	103.40663447297
398.60198974609	40.871271481194	104.42860389402
399.60101318359	40.650082334974	105.46664988019
400.60000610352	40.457985016735	106.51595793654
401.59899902344	40.291126609895	107.57342151790
402.59799194336	40.145030183175	108.63853661977
403.59698486328	40.015786022553	109.71303356906
404.59600830078	39.901071033712	110.80067895694
405.59500122070	39.800967586611	111.90616322214
406.59399414063	39.718006356366	113.03387606819
407.59298706055	39.656892656977	114.18696614593
408.59201049805	39.623703348980	115.36621455291
409.59100341797	39.624634532926	116.56988965730
410.58999633789	39.664836806830	117.79372641212
