#Parameters = {t=0.1; a=9000; ep_eff=6}
#"Frequency / GHz"	"Z1,1 [Real/Imaginary Part] [Re]"	"Z1,1 [Real/Imaginary Part] [Im]"
#-------------------------------------------------------------------------------------
1.0000000000000	107.28043309673	-2819.7944327176
1.9989999532700	138.00919192255	-1461.1491875513
2.9979999065399	122.34781303938	-1026.4669462447
3.9969999790192	90.197453959747	-813.95462283625
4.9959998130798	51.801558478418	-676.92895436441
5.9949998855591	20.300051036758	-569.02578389901
6.9939999580383	3.6689684297692	-480.06515395357
7.9930000305176	0.00020190094512525	-410.31502562101
8.9919996261597	3.0431636078556	-358.61798977167
9.9910001754761	7.4622714060331	-321.43451055574
10.989999771118	10.049229135836	-294.46014004417
11.989000320435	9.5457793284829	-273.45405728481
12.987999916077	6.5470856723814	-254.85418273618
13.987000465393	2.9818442755632	-236.70653320084
14.986000061035	0.72835952338057	-219.03617878251
15.984999656677	0.44121171571774	-202.94331959017
16.983999252319	1.5749397706444	-189.36167584386
17.982999801636	3.0786665891265	-178.49657795357
18.982000350952	3.9992418797201	-169.85613663486
19.981000900269	3.8538577001491	-162.51166299116
20.979999542236	2.8047276908440	-155.50402763684
21.979000091553	1.5053217034898	-148.30335023555
22.978000640869	0.62878449075193	-140.99831495572
23.976999282837	0.45473413955583	-134.04965944645
24.975999832153	0.81642040115190	-127.88273456782
25.975000381470	1.3154377227676	-122.63827656224
26.974000930786	1.5834537827772	-118.14380664372
27.972999572754	1.4739728010947	-114.04139454276
28.972000122070	1.1159918554452	-110.00354575757
29.971000671387	0.79304694486016	-105.91865983702
30.969999313354	0.73075962625358	-101.91565227524
31.968999862671	0.95593292255926	-98.227152211846
32.967998504639	1.3046445266274	-95.016718745750
33.966999053955	1.5352002826785	-92.275109208974
34.965999603271	1.4717767983932	-89.819569058957
35.965000152588	1.1111016975369	-87.391928196396
36.964000701904	0.62501464707241	-84.809127316015
37.963001251221	0.24666228922907	-82.064351876600
38.962001800537	0.12679881132688	-79.304223108720
39.960998535156	0.26542916473478	-76.717495819497
40.959999084473	0.54182145896189	-74.425970840294
41.958999633789	0.79820343258062	-72.434274588311
42.958000183105	0.92623703657133	-70.646628246180
43.957000732422	0.91583660344542	-68.934738184110
44.956001281738	0.84006169541977	-67.217430368967
45.955001831055	0.78815949949594	-65.499095980476
46.953998565674	0.79753741285703	-63.844530812368
47.952999114990	0.83195525492246	-62.314894008959
48.951999664307	0.81396495423880	-60.912973795106
49.951000213623	0.68615943403757	-59.571657916949
50.950000762939	0.46109886190438	-58.193333538765
51.949001312256	0.22351096673734	-56.715229166229
52.948001861572	0.081003715329823	-55.153405086917
53.946998596191	0.10011867248867	-53.594638947539
54.945999145508	0.27110683133089	-52.146879846204
55.944999694824	0.51639513101024	-50.883745711444
56.944000244141	0.73120499644866	-49.810614870470
57.943000793457	0.83507311179202	-48.865779386707
58.942001342773	0.80900294701464	-47.955945691725
59.941001892090	0.69644042487720	-47.007455101575
60.939998626709	0.56751585080864	-46.000238108529
61.938999176025	0.47348411559209	-44.963645380589
62.937999725342	0.42302041121839	-43.942818433400
63.937000274658	0.39109658847519	-42.963510582746
64.935997009277	0.34833673746657	-42.017602011274
65.934997558594	0.28869253670377	-41.075617394619
66.933998107910	0.23634737744025	-40.114911881347
67.932998657227	0.22832964112822	-39.141966053108
68.931999206543	0.28675223379983	-38.192700861698
69.930999755859	0.40065782604416	-37.312195880681
70.930000305176	0.52854792109860	-36.527785758707
71.929000854492	0.61926274397308	-35.832047588099
72.928001403809	0.63890501797058	-35.185764729750
73.927001953125	0.58741911801049	-34.539318569421
74.926002502441	0.49423824165917	-33.858707710855
75.925003051758	0.39714911963210	-33.138662580643
76.924003601074	0.32089658409129	-32.395850677542
77.922996520996	0.26997367244489	-31.650623779620
78.921997070313	0.23747891464981	-30.912276827225
79.920997619629	0.22013905481296	-30.178360061352
80.919998168945	0.22631961761287	-29.446329727079
81.918998718262	0.26995927186912	-28.726599978329
82.917999267578	0.35491264948811	-28.044959485738
83.916999816895	0.46205659955363	-27.429919491123
84.916000366211	0.55065924635636	-26.892105627573
85.915000915527	0.57706914999100	-26.409359129403
86.914001464844	0.52167238416568	-25.930850672899
87.913002014160	0.40578901864233	-25.402487015350
88.912002563477	0.28347189172654	-24.798862250680
89.911003112793	0.21109503212008	-24.139015482993
90.910003662109	0.21498469877750	-23.474963100645
91.908996582031	0.27703212511573	-22.860669930708
92.907997131348	0.34619853230527	-22.319668455727
93.906997680664	0.37061241445822	-21.829510991808
94.905998229980	0.33295801938421	-21.334637232151
95.904998779297	0.26585851141931	-20.783380877301
96.903999328613	0.23369679018639	-20.165370620055
97.902999877930	0.29216618571046	-19.523621542573
98.902000427246	0.45142283013799	-18.933961507793
99.901000976563	0.66294902536035	-18.464701649141
100.90000152588	0.83708002009772	-18.135609893494
101.89900207520	0.88721361154383	-17.897336899988
102.89800262451	0.78089681038818	-17.649171195366
103.89700317383	0.56373957243321	-17.292485025587
104.89600372314	0.33508513606382	-16.785666000398
105.89499664307	0.19294065228740	-16.162463670875
106.89399719238	0.18662047310817	-15.507708766290
107.89299774170	0.30009344652755	-14.912560727903
108.89199829102	0.46604099138945	-14.433272195116
109.89099884033	0.60117129511603	-14.068508782264
110.88999938965	0.64786205468992	-13.764909576333
111.88899993896	0.60077319146232	-13.450012301828
112.88800048828	0.50162371790141	-13.073366240268
113.88700103760	0.40752021858116	-12.628993065914
114.88600158691	0.35665770107776	-12.148044300010
115.88500213623	0.35226630044932	-11.672199213338
116.88400268555	0.36961880490923	-11.227102304513
117.88300323486	0.37772688188984	-10.810058710068
118.88200378418	0.36146836448238	-10.396970928852
119.88099670410	0.33069980768005	-9.9620301343744
120.87999725342	0.31195325943335	-9.4964845006721
121.87899780273	0.33021428370478	-9.0144456732837
122.87799835205	0.39349355154154	-8.5440722565574
123.87699890137	0.48875009280540	-8.1115283362205
124.87599945068	0.58980959165300	-7.7277995155785
125.87500000000	0.67133417075676	-7.3850710370125
126.87400054932	0.72033899330123	-7.0637196660321
127.87300109863	0.73876466904593	-6.7443201996221
128.87199401855	0.73710833518385	-6.4164107554952
129.87100219727	0.72502443583926	-6.0793729954259
130.86999511719	0.70578962677287	-5.7364301422716
131.86900329590	0.67757226106307	-5.3878497365727
132.86799621582	0.63920350298492	-5.0283141167497
133.86700439453	0.59544073224912	-4.6500060458618
134.86599731445	0.55768084504818	-4.2487279347354
135.86500549316	0.53978418149382	-3.8285113316036
136.86399841309	0.55183602429194	-3.4018620780450
137.86300659180	0.59543748999118	-2.9860277773424
138.86199951172	0.66228702261034	-2.5973276289252
139.86099243164	0.73597938291100	-2.2460852962962
140.86000061035	0.79575222665885	-1.9331170939005
141.85899353027	0.82145198612523	-1.6479993402753
142.85800170898	0.79933685186885	-1.3695642577008
143.85699462891	0.72814360843176	-1.0694007538981
144.85600280762	0.62328543562371	-0.71936150753639
145.85499572754	0.51612401931888	-0.30184566735043
146.85400390625	0.44650940694887	0.18103504320356
147.85299682617	0.44999338931946	0.70377096114793
148.85200500488	0.54409237214314	1.2221925050060
149.85099792480	0.71866505527600	1.6861868555405
150.85000610352	0.93520837511253	2.0573654476819
151.84899902344	1.1378588692236	2.3254706920979
152.84800720215	1.2743090958581	2.5149994860386
153.84700012207	1.3175382911661	2.6756636041521
154.84599304199	1.2753856313958	2.8599008294386
155.84500122070	1.1817269937704	3.1004752985099
156.84399414063	1.0758813427561	3.4017064105450
157.84300231934	0.98403811265420	3.7470817411670
158.84199523926	0.91275316826935	4.1156177019232
159.84100341797	0.85567109152476	4.4957075202458
160.83999633789	0.80674639437978	4.8884942084650
161.83900451660	0.77005352242976	5.3000265605121
162.83799743652	0.75915561414763	5.7289939293364
163.83700561523	0.78642306241500	6.1598906641196
164.83599853516	0.85002141394643	6.5673505119912
165.83500671387	0.92808791523786	6.9303502408350
166.83399963379	0.98589656239227	7.2477746822894
167.83299255371	0.99409136824428	7.5447519939415
168.83200073242	0.94749748871737	7.8628947006549
169.83099365234	0.87161210100971	8.2388310767175
170.83000183105	0.81161866045135	8.6839410803621
171.82899475098	0.81074045946351	9.1774714468544
172.82800292969	0.89021953092588	9.6755578751733
173.82699584961	1.0401593048997	10.130204598437
174.82600402832	1.2242796747957	10.509311452930
175.82499694824	1.3959885367795	10.808655095972
176.82400512695	1.5177808502741	11.050510936684
177.82299804688	1.5736807156133	11.270248661612
178.82200622559	1.5688654398239	11.500150733086
179.82099914551	1.5197511866501	11.760078322057
180.82000732422	1.4435031186184	12.058221641204
181.81900024414	1.3537581649115	12.397253917429
182.81799316406	1.2627188380442	12.778697853664
183.81700134277	1.1845927588384	13.202015631467
184.81599426270	1.1353923217872	13.660422961424
185.81500244141	1.1277737111730	14.138229727256
186.81399536133	1.1644861806337	14.613688270714
187.81300354004	1.2353499750673	15.066738015961
188.81199645996	1.3210115722053	15.487413017262
189.81100463867	1.4019785968609	15.879146525212
190.80999755859	1.4673621641691	16.254538231704
191.80900573730	1.5172901860403	16.626043500891
192.80799865723	1.5575348645050	16.998810745799
193.80700683594	1.5908346525814	17.370736483301
194.80599975586	1.6124141725521	17.739686979612
195.80499267578	1.6136810005712	18.111528824896
196.80400085449	1.5920625462863	18.501668018425
197.80299377441	1.5590096606879	18.927061028373
198.80200195313	1.5385416594264	19.393305127680
199.80099487305	1.5554791247023	19.886543739522
200.80000305176	1.6198048086057	20.376508052891
201.79899597168	1.7172229703291	20.831248646874
202.79800415039	1.8128972383006	21.235666473601
203.79699707031	1.8686227016164	21.602904712550
204.79600524902	1.8641615789201	21.969623004273
205.79499816895	1.8088130599992	22.376910587896
206.79400634766	1.7353683120375	22.848870193367
207.79299926758	1.6815021899422	23.383105584191
208.79200744629	1.6715860190433	23.957009610080
209.79100036621	1.7097409445183	24.543711548493
210.78999328613	1.7866165670402	25.126128492257
211.78900146484	1.8932598224421	25.699622111752
212.78799438477	2.0302078331557	26.262093920637
213.78700256348	2.2029708844654	26.800537744672
214.78599548340	2.4057706292599	27.287401537492
215.78500366211	2.6060190785938	27.694514620108
216.78399658203	2.7456384256150	28.019161755165
217.78300476074	2.7663196395707	28.303725318186
218.78199768066	2.6464543085773	28.628864087287
219.78100585938	2.4229345983404	29.077954490765
220.77999877930	2.1799149599631	29.695184504617
221.77900695801	2.0116058699798	30.463490026862
222.77799987793	1.9811333903468	31.312696363109
223.77699279785	2.0946319426298	32.151231080896
224.77600097656	2.3013761358779	32.907439675814
225.77499389648	2.5221501818384	33.561120865582
226.77400207520	2.6923287561873	34.145557598438
227.77299499512	2.7910679131450	34.717001980936
228.77200317383	2.8354838657348	35.315373259893
229.77099609375	2.8475570497137	35.948056407116
230.77000427246	2.8243981989485	36.608768844783
231.76899719238	2.7395912979852	37.314373909004
232.76800537109	2.5795943986311	38.125744364669
233.76699829102	2.3889570612334	39.127495108228
234.76600646973	2.2868130832227	40.372484894162
235.76499938965	2.4365338650011	41.822913077903
236.76400756836	2.9751481232147	43.318469276589
237.76300048828	3.9179153742410	44.596073415122
238.76199340820	5.0741541197075	45.391866350854
239.76100158691	6.0632658718465	45.621513200397
240.75999450684	6.5070985117721	45.513085787002
241.75900268555	6.2860293679977	45.517471431743
242.75799560547	5.6148758569486	46.042594799324
243.75700378418	4.8970582784171	47.256149630111
244.75599670410	4.5342992354466	49.060374010320
245.75500488281	4.7998582434450	51.154156132411
246.75399780273	5.7500170999453	53.119430108523
247.75300598145	7.1613996665176	54.563762593075
248.75199890137	8.5835035300297	55.326948902670
249.75100708008	9.5752758295996	55.602761476419
250.75000000000	9.9664178881032	55.808145850438
251.74899291992	9.8941705486429	56.304826050337
252.74800109863	9.6256949488950	57.237528390819
253.74699401855	9.3706115620710	58.569405518769
254.74600219727	9.2094491296211	60.214854560879
255.74499511719	9.1439390443121	62.157616811004
256.74398803711	9.2165443194855	64.480142833254
257.74301147461	9.6142086530236	67.281304645240
258.74200439453	10.680873029342	70.521533173363
259.74099731445	12.799780717749	73.860615269612
260.73999023438	16.110240246464	76.581894532819
261.73901367188	20.105677662642	77.819580561936
262.73800659180	23.533707580341	77.257809692091
263.73699951172	25.146245992230	75.737518308201
264.73599243164	24.717332365229	74.800643337810
265.73498535156	23.084527126721	75.632551059994
266.73400878906	21.458880861706	78.640174216860
267.73300170898	20.991402901178	83.643850477667
268.73199462891	22.731296810681	90.012328716835
269.73098754883	27.529857709771	96.491388514766
270.73001098633	35.434584851275	101.05352464983
271.72900390625	44.738725399329	101.66761635967
272.72799682617	52.297115605593	98.213072656149
273.72698974609	55.952720339604	93.100536875516
274.72601318359	56.032866111771	89.158189333758
275.72500610352	54.182570591677	87.833017879968
276.72399902344	51.916733990135	89.381149344876
277.72299194336	50.279428378090	93.674583686003
278.72198486328	50.137908676459	100.65650324986
279.72100830078	52.645324690326	110.39492984859
280.72000122070	59.783974585394	122.72723036184
281.71899414063	74.853509059965	136.08698545308
282.71798706055	101.55357679093	144.65714669935
283.71701049805	137.06044723190	136.14465780575
284.71600341797	162.37245632815	104.30646172801
285.71499633789	161.69730667924	67.806327871352
286.71398925781	145.54004656016	45.761722405649
287.71301269531	128.56038482154	38.067377203001
288.71200561523	116.17558725138	38.521483805539
289.71099853516	108.91813290317	42.816915276015
290.70999145508	106.25950725664	48.737497005839
291.70901489258	107.87702622808	55.113012270944
292.70800781250	114.00059087276	60.974340514970
293.70700073242	125.38979034974	64.637769675522
294.70599365234	142.40409874874	62.419142457939
295.70498657227	161.56275736569	48.235589370067
296.70401000977	171.10814255533	19.838328809996
297.70300292969	160.21356107410	-9.8869287298622
298.70199584961	136.79633116148	-24.765790125987
299.70098876953	115.30180609187	-24.667834747315
300.70001220703	101.29927217587	-16.902736528151
301.69900512695	94.739911356580	-6.5814203664478
302.69799804688	94.810419708056	3.6334951866879
303.69699096680	101.27803518613	11.494010713631
304.69601440430	113.57006130012	13.310655967542
305.69500732422	127.19118991262	3.9349863135184
306.69400024414	131.09605394780	-16.107276996004
307.69299316406	119.67425912635	-33.756137462722
308.69198608398	102.56461628974	-39.350617968490
309.69100952148	89.178665829172	-36.021116882642
310.69000244141	81.541506191295	-29.385807323946
311.68899536133	78.629620372746	-22.694270510855
312.68798828125	79.031652177623	-17.517235445999
313.68701171875	81.373607855713	-14.629842715665
314.68600463867	84.298136382192	-14.187499238663
315.68499755859	86.741507462746	-15.706507246215
316.68399047852	88.303707576768	-18.452407969449
317.68301391602	89.051029333887	-22.076613798207
318.68200683594	88.789862054350	-26.699166312301
319.68099975586	86.673693183042	-32.175189706930
320.67999267578	81.869370016012	-37.292833839631
321.67898559570	74.826992255689	-40.176613965856
322.67800903320	67.382741698607	-39.835159899146
323.67700195313	61.381425634261	-36.827684622033
324.67599487305	57.709850410055	-32.478807228597
325.67498779297	56.418428451918	-28.052032984935
326.67401123047	57.117678233417	-24.524674216490
327.67300415039	59.138980625789	-22.626801069995
328.67199707031	61.527100183400	-22.776983192239
329.67098999023	63.157860671477	-24.850021952630
330.67001342773	63.158415991439	-28.073099665760
331.66900634766	61.317144052590	-31.379810913679
332.66799926758	57.998221688978	-33.946556225237
333.66699218750	53.733079696983	-35.344311666628
334.66598510742	49.026755279466	-35.352571984534
335.66500854492	44.427306794253	-33.868732192899
336.66400146484	40.540035289087	-31.003714618159
337.66299438477	37.888452999529	-27.131000536565
338.66198730469	36.799551316458	-22.794360888151
339.66101074219	37.409636722643	-18.611495281633
340.66000366211	39.687691840197	-15.287016293384
341.65899658203	43.312352128187	-13.682455558843
342.65798950195	47.321822196348	-14.690907014554
343.65701293945	49.863376523869	-18.511489731554
344.65600585938	49.060477023807	-23.604030282560
345.65499877930	44.940407804446	-27.236080285885
346.65399169922	39.567145400389	-27.855885385457
347.65301513672	34.966525458653	-25.902742714297
348.65200805664	31.999039982535	-22.583401759269
349.65100097656	30.698252080843	-18.905845961711
350.64999389648	30.790761019460	-15.514424400048
351.64898681641	31.929605628417	-12.807598855040
352.64801025391	33.741966343043	-11.035701074024
353.64700317383	35.827275874412	-10.329120178078
354.64599609375	37.768008766097	-10.689545833424
355.64498901367	39.158682616943	-11.977523211718
356.64401245117	39.646473221607	-13.899842290905
357.64300537109	39.004471616787	-16.001033071894
358.64199829102	37.246925151729	-17.716165954714
359.64099121094	34.700539013221	-18.538614389082
360.64001464844	31.914940600287	-18.220134440711
361.63900756836	29.449527058285	-16.837699427072
362.63800048828	27.704993137926	-14.695570541251
363.63699340820	26.885945534008	-12.184649737344
364.63598632813	27.041468034802	-9.7018523684982
365.63500976563	28.098578368726	-7.6354990594436
366.63400268555	29.845040722620	-6.3648020301058
367.63299560547	31.873077843310	-6.2054633173541
368.63198852539	33.565581063064	-7.2545268693747
369.63101196289	34.258042036120	-9.1987592613896
370.63000488281	33.587997667500	-11.316106502161
371.62899780273	31.742491650847	-12.816102166536
372.62799072266	29.312862712663	-13.249983320064
373.62701416016	26.922409712933	-12.613723149008
374.62600708008	24.988076744547	-11.168500081433
375.62500000000	23.704183887309	-9.2362757731527
376.62399291992	23.125014086734	-7.1005537391711
377.62298583984	23.240848659967	-4.9961567006731
378.62200927734	24.012186206431	-3.1392513742623
379.62100219727	25.358478342693	-1.7621953766355
380.61999511719	27.104465524213	-1.1227038373970
381.61898803711	28.904589156969	-1.4457522934714
382.61801147461	30.220454593578	-2.7644064067672
383.61700439453	30.480217078408	-4.7256985239826
384.61599731445	29.430774265249	-6.5977533875338
385.61499023438	27.376643073072	-7.6295725817431
386.61401367188	25.000403842680	-7.4681326560819
387.61300659180	22.963103171225	-6.2335803777608
388.61199951172	21.673315034379	-4.3103621365162
389.61099243164	21.285034412188	-2.1425738164912
390.60998535156	21.767216537675	-0.14589041423423
391.60900878906	22.939157935411	1.3184756989508
392.60800170898	24.472360428598	1.9878425087149
393.60699462891	25.925430767099	1.7870390999187
394.60598754883	26.872339188421	0.89822299118919
395.60501098633	27.075874935949	-0.29624448968965
396.60400390625	26.558136187734	-1.3941920267302
397.60299682617	25.511278082510	-2.1244885008577
398.60198974609	24.163491984154	-2.3639424830090
399.60101318359	22.717614526830	-2.0755500373371
400.60000610352	21.360373865231	-1.2653255405858
401.59899902344	20.279870167946	0.014053699026210
402.59799194336	19.655762304459	1.6423921813760
