#Parameters = {t=0.1; a=9000; ep_eff=6}
#"Frequency / GHz"	"Z6,6 [Real/Imaginary Part] [Re]"	"Z6,6 [Real/Imaginary Part] [Im]"
#-------------------------------------------------------------------------------------
1.0000000000000	97.411163595552	-1603.9475461703
1.9989999532700	21.566136879750	-803.06688735902
2.9979999065399	7.6858446325849	-533.93699317850
3.9969999790192	3.0697874239085	-398.72818716608
4.9959998130798	1.1729623536208	-317.24282278429
5.9949998855591	0.35912163189481	-262.69070256284
6.9939999580383	0.052232013375552	-223.57597314165
7.9930000305176	-1.5792348122954e-05	-194.14221766306
8.9919996261597	0.073578148718047	-171.18374878408
9.9910001754761	0.20010536845291	-152.76953684120
10.989999771118	0.33597207315813	-137.66358832760
11.989000320435	0.45479454826249	-125.03572769332
12.987999916077	0.54170244151717	-114.30586362897
13.987000465393	0.59010273851877	-105.05563242130
14.986000061035	0.59961083425383	-96.975607096009
15.984999656677	0.57458663879183	-89.832601755711
16.983999252319	0.52269610330440	-83.448649209499
17.982999801636	0.45356121300698	-77.686891924317
18.982000350952	0.37737693111795	-72.441884653556
19.981000900269	0.30382227309534	-67.632165506910
20.979999542236	0.24087906316528	-63.194940052828
21.979000091553	0.19434266118869	-59.081444196896
22.978000640869	0.16739254457771	-55.253453749935
23.976999282837	0.16065221398844	-51.680308942449
24.975999832153	0.17244381037559	-48.336677068574
25.975000381470	0.19932290174183	-45.200718485961
26.974000930786	0.23662795112659	-42.252837986875
27.972999572754	0.27915571218483	-39.474785297272
28.972000122070	0.32176328465090	-36.849041811252
29.971000671387	0.35999274346458	-34.358619848970
30.969999313354	0.39053762973715	-31.987027399500
31.968999862671	0.41159999257794	-29.718489943993
32.967998504639	0.42310159652600	-27.538151318411
33.966999053955	0.42661578858692	-25.432648571766
34.965999603271	0.42517685107430	-23.390313192657
35.965000152588	0.42287534925003	-21.401598977159
36.964000701904	0.42437004791651	-19.459109040276
37.963001251221	0.43431453891441	-17.557618897411
38.962001800537	0.45687246567038	-15.693826241132
39.960998535156	0.49527198092244	-13.866000341556
40.959999084473	0.55154338177494	-12.073538203062
41.958999633789	0.62633853130290	-10.316423502584
42.958000183105	0.71894332543671	-8.5947069214997
43.957000732422	0.82741353317625	-6.9080086496829
44.956001281738	0.94887953718791	-5.2550882477232
45.955001831055	1.0799437789385	-3.6334339573087
46.953998565674	1.2172302850231	-2.0391173833053
47.952999114990	1.3579563531893	-0.46670652451476
48.951999664307	1.5005498967694	1.0904972039636
49.951000213623	1.6451405881611	2.6400973577061
50.950000762939	1.7939479243073	4.1900744328103
51.949001312256	1.9514164483346	5.7480176868205
52.948001861572	2.1241269488795	7.3205351286109
53.946998596191	2.3204964503826	8.9125850901163
54.945999145508	2.5502863930785	10.526977521498
55.944999694824	2.8240320106836	12.164094951245
56.944000244141	3.1523729773441	13.821727701120
57.943000793457	3.5454254696553	15.495068318569
58.942001342773	4.0121288171707	17.176977586026
59.941001892090	4.5596607331835	18.858294122796
60.939998626709	5.1929819710733	20.528387468403
61.938999176025	5.9144698855179	22.175846506356
62.937999725342	6.7238723842484	23.789374544613
63.937000274658	7.6185623986133	25.358618262043
64.935997009277	8.5942152449078	26.874998910768
65.934997558594	9.6459304167076	28.332103755807
66.933998107910	10.769459760197	29.725493432021
67.932998657227	11.962356894173	31.051844202582
68.931999206543	13.224606841377	32.307371214792
69.930999755859	14.558373121536	33.485952629796
70.930000305176	15.966664081505	34.577297904280
71.929000854492	17.450924294217	35.565684261912
72.928001403809	19.007845740886	36.430045904272
73.927001953125	20.625826962975	37.145556550664
74.926002502441	22.282182506363	37.687385401968
75.925003051758	23.941963026175	38.036058147622
76.924003601074	25.559757450389	38.183889353859
77.922996520996	27.084880211197	38.140463154491
78.921997070313	28.469611059083	37.935395858999
79.920997619629	29.678605788166	37.616601587646
80.919998168945	30.696744763567	37.243801664550
81.918998718262	31.533037657760	36.878638649035
82.917999267578	32.219311577975	36.574271633854
83.916999816895	32.804516243740	36.366935053785
84.916000366211	33.346375705693	36.271024951824
85.915000915527	33.902700500562	36.278271921238
86.914001464844	34.523324411263	36.359565056753
87.913002014160	35.243722898554	36.469229145706
88.912002563477	36.080157110546	36.550671773392
89.911003112793	37.026496531735	36.543373336074
90.910003662109	38.053136290638	36.391137127289
91.908996582031	39.108933106062	36.051066447937
92.907997131348	40.127188245557	35.502243903138
93.906997680664	41.035582381262	34.751546060902
94.905998229980	41.768902071128	33.834554043682
95.904998779297	42.281239300480	32.809879038172
96.903999328613	42.554075834701	31.747972177671
97.902999877930	42.597725471740	30.717517678606
98.902000427246	42.446099494178	29.773441345795
99.901000976563	42.146856975734	28.949510105997
100.90000152588	41.750511031563	28.256762088122
101.89900207520	41.300874221973	27.686598218566
102.89800262451	40.828898595639	27.217090572436
103.89700317383	40.349719425176	26.820408355423
104.89600372314	39.863135920695	26.470096551306
105.89499664307	39.356705356127	26.147171821839
106.89399719238	38.810833051512	25.844210832426
107.89299774170	38.204986941511	25.566864244389
108.89199829102	37.523674835456	25.332476803746
109.89099884033	36.761290256450	25.166345680109
110.88999938965	35.924390637675	25.096238979521
111.88899993896	35.031384588351	25.146846538148
112.88800048828	34.109789137108	25.335134786643
113.88700103760	33.192224503062	25.667777416205
114.88600158691	32.311986022986	26.140405771416
115.88500213623	31.499258560823	26.738686029196
116.88400268555	30.778212559814	27.440304616687
117.88300323486	30.165307692888	28.217622907014
118.88200378418	29.668366156626	29.040253487676
119.88099670410	29.286501475485	29.877695908296
120.87999725342	29.010608782517	30.701729674562
121.87899780273	28.824400761660	31.488614129489
122.87799835205	28.706145493967	32.221058059414
123.87699890137	28.630891221474	32.889495694454
124.87599945068	28.573239340405	33.492709982801
125.87500000000	28.510167712653	34.037292459708
126.87400054932	28.423552903916	34.536098276047
127.87300109863	28.301704807929	35.005775494141
128.87199401855	28.139868884286	35.463966977378
129.87100219727	27.939525547551	35.926748090549
130.86999511719	27.706733643350	36.406686230774
131.86900329590	27.450117392895	36.911905880034
132.86799621582	27.178682633848	37.445937650467
133.86700439453	26.900101194844	38.008632647868
134.86599731445	26.619631192599	38.597447771877
135.86500549316	26.339576834856	39.208856694786
136.86399841309	26.059616993324	39.839839292963
137.86300659180	25.777506940393	40.489010330299
138.86199951172	25.490178907843	41.157183077095
139.86099243164	25.194919940704	41.847372680753
140.86000061035	24.890383264931	42.564432935360
141.85899353027	24.577311170228	43.314250518395
142.85800170898	24.258738521702	44.102624479536
143.85699462891	23.939830757463	44.934379822079
144.85600280762	23.627242469619	45.812492258719
145.85499572754	23.328349286690	46.737764310401
146.85400390625	23.050240706288	47.708603123927
147.85299682617	22.798940928388	48.721449147183
148.85200500488	22.578703339704	49.771267274698
149.85099792480	22.391636959438	50.852308038887
150.85000610352	22.237616020334	51.958976823848
151.84899902344	22.114493207750	53.086619969218
152.84800720215	22.018640420087	54.232226031376
153.84700012207	21.945632495304	55.394753950637
154.84599304199	21.890998517038	56.575297908084
155.84500122070	21.851081793711	57.776899651680
156.84399414063	21.823498763627	59.004023826247
157.84300231934	21.807532058219	60.261901336124
158.84199523926	21.804157421707	61.556004876752
159.84100341797	21.815740846175	62.891259733648
160.83999633789	21.845605358634	64.271742964166
161.83900451660	21.897490709540	65.700557814876
162.83799743652	21.974844623898	67.179902689170
163.83700561523	22.080474312248	68.711569468925
164.83599853516	22.216193951048	70.297416413554
165.83500671387	22.382846549637	71.940103496796
166.83399963379	22.580610144441	73.643887595244
167.83299255371	22.809554525925	75.415063853938
168.83200073242	23.070304818627	77.262283057332
169.83099365234	23.364985842487	79.196872580374
170.83000183105	23.698055772351	81.232526252268
171.82899475098	24.077037039670	83.384943045694
172.82800292969	24.513069572040	85.671376313627
173.82699584961	25.021398141029	88.110055804885
174.82600402832	25.621559718922	90.719768431004
175.82499694824	26.337633675910	93.519474996935
176.82400512695	27.198418086897	96.528332856479
177.82299804688	28.237928899484	99.765812650290
178.82200622559	29.496312886095	103.25204314336
179.82099914551	31.021265466889	107.00842901640
180.82000732422	32.870482534049	111.05813910345
181.81900024414	35.115322223765	115.42623420983
182.81799316406	37.846094456789	120.13932149077
183.81700134277	41.179634352365	125.22344794719
184.81599426270	45.269396577861	130.69947626148
185.81500244141	50.319027504234	136.57362373226
186.81399536133	56.599208479743	142.81946855358
187.81300354004	64.466579279623	149.34619223886
188.81199645996	74.380477888865	155.94343259884
189.81100463867	86.903262490382	162.18996933153
190.80999755859	102.65312035488	167.31372907228
191.80900573730	122.14408594156	170.00801754472
192.80799865723	145.41034756699	168.27624013766
193.80700683594	171.33734572912	159.53686121417
194.80599975586	196.89570429217	141.41699171739
195.80499267578	217.10803728632	113.46108846225
196.80400085449	226.84743440958	78.783291444071
197.80299377441	223.89992461895	43.499818909203
198.80200195313	210.35507491456	13.557221589601
199.80099487305	190.81480018362	-8.0638727714262
200.80000305176	169.63698290594	-21.485118129108
201.79899597168	149.57907114507	-28.430954111442
202.79800415039	131.87495232197	-30.884427430425
203.79699707031	116.80756514259	-30.470618057302
204.79600524902	104.20325364544	-28.338981216856
205.79499816895	93.725493610321	-25.242971410958
206.79400634766	85.016618683880	-21.655581544093
207.79299926758	77.754663584054	-17.865638605272
208.79200744629	71.669348336926	-14.045508022508
209.79100036621	66.540960401547	-10.295355289988
210.78999328613	62.193317820193	-6.6710918824314
211.78900146484	58.485598033819	-3.2016700455589
212.78799438477	55.304889530373	0.10034221570392
213.78700256348	52.560065768908	3.2323422606461
214.78599548340	50.176959491083	6.1978549418647
215.78500366211	48.094705359536	9.0042561344113
216.78399658203	46.263036686619	11.661411855695
217.78300476074	44.640346610218	14.180846015411
218.78199768066	43.192284833080	16.575148366960
219.78100585938	41.890736574094	18.857483438527
220.77999877930	40.713077397080	21.041131156262
221.77900695801	39.641462139077	23.138991747636
222.77799987793	38.662252131216	25.163145982678
223.77699279785	37.765273618499	27.124385891787
224.77600097656	36.943148332854	29.031929865925
225.77499389648	36.190549708575	30.893221417395
226.77400207520	35.503451259384	32.713934568282
227.77299499512	34.878494312689	34.498125925163
228.77200317383	34.312425568493	36.248551089998
229.77099609375	33.801705057554	37.967085281355
230.77000427246	33.342321665232	39.655203874113
231.76899719238	32.929746143081	41.314457229278
232.76800537109	32.559131610853	42.946909888389
233.76699829102	32.225554832747	44.555439373005
234.76600646973	31.924455647768	46.143843853626
235.76499938965	31.652006472570	47.716833644652
236.76400756836	31.405515958316	49.279841903516
237.76300048828	31.183606413864	50.838595691780
238.76199340820	30.986372357091	52.398830671353
239.76100158691	30.815254121830	53.965756011502
240.75999450684	30.672800757493	55.543733618273
241.75900268555	30.562326445375	57.136050979450
242.75799560547	30.487468458284	58.744828716455
243.75700378418	30.451818366997	60.371109798825
244.75599670410	30.458572988695	62.015081884326
245.75500488281	30.510318272212	63.676396191752
246.75399780273	30.608954350647	65.354580628057
247.75300598145	30.755826943043	67.049346322153
248.75199890137	30.951924687316	68.760998332965
249.75100708008	31.198260314525	70.490530677890
250.75000000000	31.496266703937	72.239693335495
251.74899291992	31.848167477547	74.010819083245
252.74800109863	32.257311869452	75.806657821032
253.74699401855	32.728337159256	77.629748765987
254.74600219727	33.267227094351	79.482326447785
255.74499511719	33.881137160881	81.365600708323
256.74398803711	34.578171732429	83.279704007743
257.74301147461	35.367019542087	85.223393520397
258.74200439453	36.256715807985	87.193957236056
259.74099731445	37.256232629505	89.187497311376
260.73999023438	38.374378851028	91.198872181264
261.73901367188	39.619700957092	93.222080942721
262.73800659180	41.000624522263	95.250378785876
263.73699951172	42.525648802204	97.276361183972
264.73599243164	44.203721701504	99.291942925014
265.73498535156	46.044468498093	101.28774279200
266.73400878906	48.058361878460	103.25284409177
267.73300170898	50.256495036687	105.17384311802
268.73199462891	52.650307614135	107.03428107502
269.73098754883	55.250705589420	108.81386927018
270.73001098633	58.067033078645	110.48828641933
271.72900390625	61.105845240879	112.02895831894
272.72799682617	64.369609205614	113.40341758328
273.72698974609	67.855560934426	114.57639495680
274.72601318359	71.554799950203	115.51062567393
275.72500610352	75.451804454621	116.16843539934
276.72399902344	79.524585911944	116.51310493741
277.72299194336	83.744937300871	116.51004193702
278.72198486328	88.079246967799	116.12726649964
279.72100830078	92.488692223596	115.33598427887
280.72000122070	96.929530585699	114.11045034444
281.71899414063	101.35239521767	112.42844645606
282.71798706055	105.70150912960	110.27210848972
283.71701049805	109.91371995363	107.62951599026
284.71600341797	113.91816385044	104.49774869062
285.71499633789	117.63712648432	100.88656560260
286.71398925781	120.98886367017	96.822022557469
287.71301269531	123.89236621293	92.349733305944
288.71200561523	126.27355192673	87.535717461323
289.71099853516	128.07242384815	82.464950437641
290.70999145508	129.24912826993	77.236845634126
291.70901489258	129.78810013403	71.958250843424
292.70800781250	129.69928341593	66.735750143230
293.70700073242	129.01601895015	61.667801894189
294.70599365234	127.79054301494	56.838812703112
295.70498657227	126.08791586240	52.315555367030
296.70401000977	123.98008243462	48.146317603114
297.70300292969	121.54028155765	44.361679787769
298.70199584961	118.83909708607	40.977056916348
299.70098876953	115.94189154734	37.995643184305
300.70001220703	112.90758017248	35.411359287912
301.69900512695	109.78825971204	33.211229520146
302.69799804688	106.62943676235	31.377386711992
303.69699096680	103.47044000864	29.888442811780
304.69601440430	100.34475906271	28.720425597513
305.69500732422	97.280413226966	27.847630970378
306.69400024414	94.300193317068	27.243311979246
307.69299316406	91.421896188168	26.880349833669
308.69198608398	88.658648542725	26.731937943725
309.69100952148	86.019264043258	26.772188285800
310.69000244141	83.508705965769	26.976707357517
311.68899536133	81.128655349489	27.323096590833
312.68798828125	78.878153426575	27.791317034669
313.68701171875	76.754315345227	28.363877986767
314.68600463867	74.752990492404	29.025828313202
315.68499755859	72.869450111434	29.764665835377
316.68399047852	71.098836900460	30.569990084113
317.68301391602	69.436583417502	31.433160078968
318.68200683594	67.878664999157	32.346899436020
319.68099975586	66.421694573721	33.304862207960
320.67999267578	65.062891182651	34.301271658858
321.67898559570	63.799995458142	35.330611141522
322.67800903320	62.631053656811	36.387439304858
323.67700195313	61.554220845830	37.466237719429
324.67599487305	60.567549769406	38.561437610370
325.67498779297	59.668839952305	39.667524552058
326.67401123047	58.855573074993	40.779111870356
327.67300415039	58.124862878223	41.891092208307
328.67199707031	57.473570397897	42.998796091067
329.67098999023	56.898353094586	44.098029688837
330.67001342773	56.395952495958	45.185134949675
331.66900634766	55.963199266355	46.256891354363
332.66799926758	55.597280079272	47.310386058951
333.66699218750	55.295713158080	48.342848891529
334.66598510742	55.056365274339	49.351363425656
335.66500854492	54.877336479431	50.332758774399
336.66400146484	54.756767383780	51.283353453801
337.66299438477	54.692563173327	52.198968513294
338.66198730469	54.682056566935	53.074855325253
339.66101074219	54.721809874413	53.905935405005
340.66000366211	54.807332980185	54.687010188070
341.65899658203	54.932932541284	55.413112572578
342.65798950195	55.091795082873	56.079875198218
343.65701293945	55.276058625428	56.683947355167
344.65600585938	55.477057741981	57.223243026769
345.65499877930	55.685749069973	57.697155594969
346.65399169922	55.893087660620	58.106702409490
347.65301513672	56.090405516430	58.454362231131
348.65200805664	56.269745251744	58.743901420021
349.65100097656	56.424092300317	58.980147980820
350.64999389648	56.547504174485	59.168638192519
351.64898681641	56.635057043323	59.315393806499
352.64801025391	56.682818050968	59.426672609542
353.64700317383	56.687705646100	59.508853352124
354.64599609375	56.647436883260	59.568406810297
355.64498901367	56.560425390518	59.611870820068
356.64401245117	56.425829297844	59.645815264889
357.64300537109	56.243646685947	59.676905816132
358.64199829102	56.014721711088	59.711701056839
359.64099121094	55.740911944816	59.756587147842
360.64001464844	55.425009739924	59.817463258025
361.63900756836	55.070768373051	59.899629465682
362.63800048828	54.682675578491	60.007381705801
363.63699340820	54.265673064187	60.143969211209
364.63598632813	53.824950858992	60.311441160275
365.63500976563	53.365548876910	60.510679493218
366.63400268555	52.892060461078	60.741598218876
367.63299560547	52.408272604146	61.003201539552
368.63198852539	51.917338117983	61.294103023222
369.63101196289	51.421382461010	61.612657876032
370.63000488281	50.921777518591	61.957292830773
371.62899780273	50.419345883219	62.326840765145
372.62799072266	49.914436312839	62.720521660895
373.62701416016	49.407245327929	63.138072353220
374.62600708008	48.898077794453	63.579703274249
375.62500000000	48.387443577441	64.045911579887
376.62399291992	47.876165140672	64.537373995231
377.62298583984	47.365410854215	65.054722197722
378.62200927734	46.856560310577	65.598410377040
379.62100219727	46.351200352282	66.168692981967
380.61999511719	45.850824800256	66.765440578061
381.61898803711	45.356867475579	67.388337748588
382.61801147461	44.870500991004	68.036946901949
383.61700439453	44.392756236737	68.710791792863
384.61599731445	43.924287008107	69.409481806296
385.61499023438	43.465689858828	70.132830438232
386.61401367188	43.017558040619	70.880923649428
387.61300659180	42.580655754947	71.654098723893
388.61199951172	42.156010523196	72.452881556391
389.61099243164	41.744882875617	73.277685265826
390.60998535156	41.349051914985	74.129013761585
391.60900878906	40.970546520344	75.006969188546
392.60800170898	40.611648723918	75.911278424480
393.60699462891	40.274600432609	76.841101759149
394.60598754883	39.961686725591	77.795216948108
395.60501098633	39.674857943465	78.771961559496
396.60400390625	39.415512520070	79.769173402192
397.60299682617	39.184714248632	80.784716624827
398.60198974609	38.982935712347	81.816389520326
399.60101318359	38.810149641788	82.862210907674
400.60000610352	38.666038308244	83.920516916599
401.59899902344	38.550159072067	84.990124791325
402.59799194336	38.461894488561	86.070086350549
403.59698486328	38.400945366796	87.160059421782
404.59600830078	38.367225865447	88.259710062230
405.59500122070	38.360965368875	89.368876377536
406.59399414063	38.382685538525	90.487276622237
407.59298706055	38.433145974464	91.614363345221
408.59201049805	38.513099707245	92.749370387169
