#Parameters = {t=0.1; a=9000; ep_eff=6}
#"Frequency / GHz"	"Z2,2 [Real/Imaginary Part] [Re]"	"Z2,2 [Real/Imaginary Part] [Im]"
#-------------------------------------------------------------------------------------
1.0000000000000	1236.5286509168	-3608.6916737510
1.9989999532700	-4.7726352560379	-1824.4538151665
2.9979999065399	-100.04877924076	-1078.2689223960
3.9969999790192	-65.325562656803	-741.14194096811
4.9959998130798	-26.286708520422	-568.01343821941
5.9949998855591	0.82637733139710	-470.61327533407
6.9939999580383	14.828164420412	-412.15869629622
7.9930000305176	16.541870487480	-373.27607628772
8.9919996261597	9.2087344214927	-341.10850264936
9.9910001754761	-0.51012197113912	-308.70672321314
10.989999771118	-6.3675492754869	-276.26000643896
11.989000320435	-6.7460634457963	-247.34856824840
12.987999916077	-3.6076838328593	-224.29621058198
13.987000465393	0.36867791844834	-207.21420249955
14.986000061035	3.1231086702937	-194.82852298187
15.984999656677	3.5999416705374	-185.14259735104
16.983999252319	2.0347984178775	-176.06140953684
17.982999801636	-0.19884563024769	-166.33848902617
18.982000350952	-1.6056546570537	-156.13370080584
19.981000900269	-1.5829834035732	-146.45986934495
20.979999542236	-0.49957024896149	-138.21914344958
21.979000091553	0.81701461564645	-131.71701462650
22.978000640869	1.5748114806318	-126.63869228183
23.976999282837	1.3787442138596	-122.23903120449
24.975999832153	0.43388503216702	-117.72694219313
25.975000381470	-0.60617586721565	-112.73190180150
26.974000930786	-1.1224715379619	-107.47003921926
27.972999572754	-0.91280159609252	-102.46602155937
28.972000122070	-0.20106637833140	-98.161780708788
29.971000671387	0.57794128242220	-94.702544729505
30.969999313354	1.0206330180186	-91.909849367353
31.968999862671	0.95351015724364	-89.392021791774
32.967998504639	0.51646446742256	-86.768929394620
33.966999053955	0.045495267636436	-83.896891918432
34.965999603271	-0.17408645923152	-80.914230605764
35.965000152588	-0.077308491476622	-78.087516089809
36.964000701904	0.18778775231408	-75.614919127090
37.963001251221	0.38607931094122	-73.512929336357
38.962001800537	0.35018619209951	-71.619091791069
39.960998535156	0.089260324588176	-69.701499706463
40.959999084473	-0.22021331627650	-67.617508008227
41.958999633789	-0.36355277089818	-65.405532866647
42.958000183105	-0.23209157222879	-63.243950711572
43.957000732422	0.12054081340306	-61.328558407871
44.956001281738	0.51962167231287	-59.760840496561
45.955001831055	0.76588342776457	-58.494437274669
46.953998565674	0.74478721270856	-57.357397337482
47.952999114990	0.49341717028067	-56.149790195788
48.951999664307	0.17077930074192	-54.763772312253
49.951000213623	-0.053034831375515	-53.236128150687
50.950000762939	-0.099344200140731	-51.698632043531
51.949001312256	-0.0067577088557656	-50.280550549978
52.948001861572	0.11538345446276	-49.033330994777
53.946998596191	0.16568950057083	-47.911759285822
54.945999145508	0.11675821512199	-46.815315416346
55.944999694824	0.028038700513798	-45.664466011639
56.944000244141	-0.0039058250150475	-44.458425413507
57.943000793457	0.081203614365569	-43.272895059575
58.942001342773	0.26357889326789	-42.206107655578
59.941001892090	0.45211236490721	-41.313110076001
60.939998626709	0.53665383966371	-40.565216403542
61.938999176025	0.45639396168853	-39.858579879035
62.937999725342	0.24250484803420	-39.073643013762
63.937000274658	0.00034476039392272	-38.148790993762
64.935997009277	-0.15753543609280	-37.113132835351
65.934997558594	-0.17557367304159	-36.059121681050
66.933998107910	-0.076228509390684	-35.082963303021
67.932998657227	0.064354912151900	-34.233242949246
68.931999206543	0.16572476259320	-33.491748974775
69.930999755859	0.19022783201633	-32.793841450667
70.930000305176	0.15980728851495	-32.076144501108
71.929000854492	0.13128055749769	-31.319090810260
72.928001403809	0.14980937540889	-30.554482422019
73.927001953125	0.21537270396429	-29.836062995924
74.926002502441	0.28318384318928	-29.196878219964
75.925003051758	0.29548264464701	-28.621634526442
76.924003601074	0.22405757501400	-28.052445976461
77.922996520996	0.094234445759475	-27.426079347125
78.921997070313	-0.028757628970489	-26.717075849016
79.920997619629	-0.081217968075732	-25.954679595234
80.919998168945	-0.039492804035083	-25.203665634862
81.918998718262	0.068183777980894	-24.525020352652
82.917999267578	0.18044919044131	-23.941178783640
83.916999816895	0.24054202632720	-23.424584004115
84.916000366211	0.23102674620868	-22.917470943311
85.915000915527	0.18218506267344	-22.371585608773
86.914001464844	0.14726000459690	-21.779919982339
87.913002014160	0.16327028618247	-21.178277953018
88.912002563477	0.22502692089340	-20.617587210873
89.911003112793	0.28799515158985	-20.126911200429
90.910003662109	0.29762322165490	-19.689911574130
91.908996582031	0.22792145930828	-19.250815572961
92.907997131348	0.10361860864739	-18.748614533845
93.906997680664	-0.011470811071246	-18.157008986011
94.905998229980	-0.051522229401456	-17.502142833452
95.904998779297	0.014708977184391	-16.848339595478
96.903999328613	0.16840910132773	-16.264583471340
97.902999877930	0.35095820906944	-15.790819111344
98.902000427246	0.49331051398443	-15.419662897107
99.901000976563	0.55013059713680	-15.102743457886
100.90000152588	0.51935634345981	-14.779167569812
101.89900207520	0.43499699161409	-14.407928247802
102.89800262451	0.34057502898712	-13.982711272513
103.89700317383	0.26378498698427	-13.522842754016
104.89600372314	0.20844163528279	-13.051678452878
105.89499664307	0.16429491174382	-12.579605295106
106.89399719238	0.12390186908669	-12.101853617752
107.89299774170	0.092929464163691	-11.609756177668
108.89199829102	0.086759466473884	-11.104707276397
109.89099884033	0.11719552447952	-10.603110795681
110.88999938965	0.18037919450672	-10.128516059466
111.88899993896	0.25538810749860	-9.6965543542429
112.88800048828	0.31540550428609	-9.3038501686649
113.88700103760	0.34411637388527	-8.9293686708795
114.88600158691	0.34545733154272	-8.5484100669747
115.88500213623	0.33881308728742	-8.1491689731254
116.88400268555	0.34296882496130	-7.7393893457706
117.88300323486	0.36103758300081	-7.3377480741066
118.88200378418	0.37775915896481	-6.9564926072579
119.88099670410	0.37210391066494	-6.5879548538635
120.87999725342	0.33688518002368	-6.2062150323086
121.87899780273	0.29065213819286	-5.7848075634085
122.87799835205	0.27119609208542	-5.3187561480383
123.87699890137	0.31329496792178	-4.8349129136354
124.87599945068	0.42466053469096	-4.3824272689187
125.87500000000	0.57469457614810	-4.0075883306176
126.87400054932	0.70447364601868	-3.7256989706844
127.87300109863	0.75613070802493	-3.5065510397533
128.87199401855	0.70650300296927	-3.2863953548759
129.87100219727	0.58192041360807	-3.0026316268235
130.86999511719	0.44205355378545	-2.6284109063597
131.86900329590	0.34464743374245	-2.1835198363620
132.86799621582	0.31518130213078	-1.7174532432656
133.86700439453	0.33801624211035	-1.2779301886809
134.86599731445	0.37162361458133	-0.88332311133755
135.86500549316	0.37861945048756	-0.51434942924922
136.86399841309	0.35246703669465	-0.13068909166984
137.86300659180	0.32256552110713	0.29779077240092
138.86199951172	0.33409883338637	0.76676971866566
139.86099243164	0.41678780001288	1.2360876158411
140.86000061035	0.56222502236930	1.6512578027257
141.85899353027	0.72254661954820	1.9754279258902
142.85800170898	0.83293950007635	2.2145372422994
143.85699462891	0.84756860463872	2.4192593785747
144.85600280762	0.76685872501650	2.6589747459776
145.85499572754	0.63669545488727	2.9838079176593
146.85400390625	0.52107813057128	3.4005172671100
147.85299682617	0.46873896779197	3.8753027910086
148.85200500488	0.49348104970867	4.3565589606429
149.85099792480	0.57524065034548	4.8017923165496
150.85000610352	0.67744608751318	5.1947485994806
151.84899902344	0.76940402826419	5.5454752178178
152.84800720215	0.84008025875632	5.8751634375021
153.84700012207	0.89550329497345	6.1978603041262
154.84599304199	0.94401274268588	6.5124498524878
155.84500122070	0.98221950565432	6.8097459153585
156.84399414063	0.99306862464741	7.0879542577982
157.84300231934	0.95791516377079	7.3636139049434
158.84199523926	0.87373538298691	7.6682770053133
159.84100341797	0.76198941847161	8.0319466372853
160.83999633789	0.66163067963834	8.4647186012972
161.83900451660	0.61064676906933	8.9492109829399
162.83799743652	0.62789201795524	9.4481538544253
163.83700561523	0.70522303164316	9.9219344174381
164.83599853516	0.81343354002965	10.346317806748
165.83500671387	0.91828380090835	10.721087176640
166.83399963379	0.99716771923735	11.064975304407
167.83299255371	1.0462329845739	11.401063653230
168.83200073242	1.0744246844446	11.743380196586
169.83099365234	1.0909599770047	12.093864087692
170.83000183105	1.0968585361520	12.450164666040
171.82899475098	1.0871125862772	12.816185620839
172.82800292969	1.0612883374621	13.205644223872
173.82699584961	1.0331893385067	13.634292735024
174.82600402832	1.0303699551934	14.105817678252
175.82499694824	1.0816438012086	14.601748935274
176.82400512695	1.1992498091318	15.083761108402
177.82299804688	1.3663108081375	15.509341388282
178.82200622559	1.5385209697691	15.853979995927
179.82099914551	1.6624724236673	16.127807659257
180.82000732422	1.7024559995677	16.374437341797
181.81900024414	1.6592265122375	16.650070369599
182.81799316406	1.5678519587537	16.995473657679
183.81700134277	1.4770841893070	17.418917903331
184.81599426270	1.4248301465615	17.898601673498
185.81500244141	1.4238789021012	18.399685535953
186.81399536133	1.4635975931174	18.894404895984
187.81300354004	1.5240676704223	19.373461406675
188.81199645996	1.5926620997379	19.843290961361
189.81100463867	1.6714805631511	20.312223863442
190.80999755859	1.7709581807058	20.776779419885
191.80900573730	1.8945280246792	21.218730384337
192.80799865723	2.0262402891268	21.616310032231
193.80700683594	2.1315940051765	21.962774004092
194.80599975586	2.1738389750255	22.279249774844
195.80499267578	2.1365754979803	22.610963099347
196.80400085449	2.0371649903182	23.006690664227
197.80299377441	1.9210477032346	23.494362140298
198.80200195313	1.8409234547508	24.067903862031
199.80099487305	1.8335343872418	24.691554911827
200.80000305176	1.9059827998478	25.317481121587
201.79899597168	2.0367422854663	25.906792784003
202.79800415039	2.1897779402410	26.443862741973
203.79699707031	2.3332348188074	26.936646001569
204.79600524902	2.4514174882591	27.404578674485
205.79499816895	2.5431768468861	27.863469827888
206.79400634766	2.6102579698477	28.319054365838
207.79299926758	2.6466672860300	28.773216111954
208.79200744629	2.6388335907894	29.236714242424
209.79100036621	2.5780690735822	29.736751463279
210.78999328613	2.4764801916072	30.310801833938
211.78900146484	2.3738220766437	30.987994353336
212.78799438477	2.3284439557018	31.768935975475
213.78700256348	2.3953648572916	32.615536228888
214.78599548340	2.6005868114363	33.456993583142
215.78500366211	2.9220959469224	34.212011222350
216.78399658203	3.2876926967147	34.821932800991
217.78300476074	3.5965870266238	35.281792398764
218.78199768066	3.7600330895153	35.650725234013
219.78100585938	3.7405855902309	36.031158758289
220.77999877930	3.5666602107641	36.527162580408
221.77900695801	3.3168718206969	37.206539307113
222.77799987793	3.0883746107226	38.083776729023
223.77699279785	2.9669689198891	39.123867187819
224.77600097656	3.0073262125346	40.257484556205
225.77499389648	3.2232135682704	41.400149863088
226.77400207520	3.5859781723461	42.472360796917
227.77299499512	4.0314398569436	43.418895221380
228.77200317383	4.4759870771993	44.223777321798
229.77099609375	4.8390505238460	44.914628746574
230.77000427246	5.0644259765735	45.553994221157
231.76899719238	5.1317814496466	46.220734523235
232.76800537109	5.0553212719184	46.991311396040
233.76699829102	4.8744760294432	47.928505345664
234.76600646973	4.6449807898598	49.079084952977
235.76499938965	4.4360861910132	50.474814633680
236.76400756836	4.3334974950040	52.129592966150
237.76300048828	4.4416920525878	54.026940620366
238.76199340820	4.8755932723430	56.098289697402
239.76100158691	5.7302570848973	58.199783440070
240.75999450684	7.0210140163143	60.108831990102
241.75900268555	8.6077852194781	61.575541163781
242.75799560547	10.163059545111	62.452985175412
243.75700378418	11.270176455337	62.851710109909
244.75599670410	11.647211995062	63.172184883685
245.75500488281	11.330281126993	63.938706249467
246.75399780273	10.669708442394	65.564465890342
247.75300598145	10.197067194513	68.214103579258
248.75199890137	10.498635922328	71.762903819657
249.75100708008	12.106374965567	75.752060532590
250.75000000000	15.282549287824	79.332176378363
251.74899291992	19.621106010059	81.420146172015
252.74800109863	23.814123772928	81.377188536902
253.74699401855	26.294261528154	79.810335507802
254.74600219727	26.438905521095	78.331093749911
255.74499511719	24.871292811490	78.392054800932
256.74398803711	22.751898055840	80.646715062605
257.74301147461	21.189398712365	85.122590274294
258.74200439453	21.153984505428	91.511032024185
259.74099731445	23.574263532700	99.179613448745
260.73999023438	29.242040235909	106.93384370898
261.73901367188	38.251459560668	112.87143114498
262.73800659180	49.185712281802	115.01571739085
263.73699951172	59.267366933625	112.86058540109
264.73599243164	66.165869021835	108.10427085493
265.73498535156	69.478836051368	103.29184032980
266.73400878906	70.253376987462	100.19422572686
267.73300170898	69.836514448065	99.552400618650
268.73199462891	69.377067294574	101.57932011504
269.73098754883	69.924933938028	106.35661744387
270.73001098633	72.747104532290	113.91085165972
271.72900390625	79.711128266113	123.94929679295
272.72799682617	93.604720310672	134.98182722339
273.72698974609	117.44285818075	142.27489893316
274.72601318359	149.68719964692	135.99419993259
275.72500610352	176.08854055261	108.89024523904
276.72399902344	180.03473122880	73.450456492441
277.72299194336	166.38609659307	49.503552950741
278.72198486328	149.90607799695	40.910254823690
279.72100830078	138.31923536267	42.344156948858
280.72000122070	133.73425344870	48.914197253262
281.71899414063	136.94033670592	57.391943304772
282.71798706055	149.11267525407	64.563661947236
283.71701049805	171.23741371604	64.854587993483
284.71600341797	199.65064101584	48.691358524556
285.71499633789	218.13605950782	9.6514689827176
286.71398925781	207.31378785293	-36.716954829764
287.71301269531	174.48406394554	-64.397252059102
288.71200561523	141.26716826937	-69.971585289698
289.71099853516	117.10079075759	-63.683299576500
290.70999145508	101.89658249447	-53.263205937891
291.70901489258	93.555916343687	-42.240438393146
292.70800781250	90.483921004905	-32.087471972893
293.70700073242	91.842821347998	-23.717198738452
294.70599365234	97.194822382665	-18.362844026476
295.70498657227	105.61488680917	-18.147440451001
296.70401000977	113.90338892651	-25.610766000552
297.70300292969	115.58075548436	-40.164398793901
298.70199584961	106.31535202809	-54.221387701266
299.70098876953	90.939197869085	-59.823137318239
300.70001220703	77.225216845901	-57.133136325171
301.69900512695	68.329613696202	-50.447183209249
302.69799804688	63.982825050755	-43.039536846432
303.69699096680	63.085477173336	-36.607874823088
304.69601440430	64.564430048172	-32.062100855119
305.69500732422	67.322746227175	-29.967145544563
306.69400024414	70.083960639503	-30.483955207882
307.69299316406	71.589429137638	-33.091435662248
308.69198608398	71.155115178454	-36.662648985350
309.69100952148	68.919843787706	-40.108264920123
310.69000244141	65.384364876083	-42.875145702660
311.68899536133	60.883524050130	-44.748819078384
312.68798828125	55.627210932816	-45.420127323988
313.68701171875	50.080902014432	-44.472089753966
314.68600463867	45.055328586075	-41.772064382971
315.68499755859	41.357681065820	-37.702884148939
316.68399047852	39.465541109842	-32.986018258037
317.68301391602	39.505936170078	-28.423207093221
318.68200683594	41.348189276585	-24.832813854921
319.68099975586	44.533629595599	-23.110301072695
320.67999267578	47.949923393869	-24.089170807943
321.67898559570	49.644781667285	-27.772501902825
322.67800903320	47.861961771890	-32.334867019933
323.67700195313	43.013971567711	-34.966124510931
324.67599487305	37.456964907375	-34.407960011320
325.67498779297	33.175768507771	-31.454154330105
326.67401123047	30.839044036040	-27.488780721282
327.67300415039	30.309666624406	-23.579077135725
328.67199707031	31.160693772399	-20.407263534688
329.67098999023	32.839461778008	-18.385886449078
330.67001342773	34.698455427602	-17.656582242143
331.66900634766	36.120303891261	-18.014601354345
332.66799926758	36.758482290414	-18.973801029461
333.66699218750	36.647108692293	-20.055533900894
334.66598510742	36.006531404257	-21.041286616552
335.66500854492	34.953633506177	-21.928380438382
336.66400146484	33.419899130008	-22.681462357828
337.66299438477	31.330487582232	-23.060392030305
338.66198730469	28.844171877971	-22.709219434341
339.66101074219	26.386732043915	-21.421032473571
340.66000366211	24.445789020770	-19.295988143267
341.65899658203	23.360173819645	-16.673390707494
342.65798950195	23.257436372226	-13.982983977735
343.65701293945	24.079819727548	-11.653765136037
344.65600585938	25.597499333461	-10.072912257457
345.65499877930	27.394235575534	-9.5169266969813
346.65399169922	28.907700642827	-10.016432127406
347.65301513672	29.619519501113	-11.247588503314
348.65200805664	29.321449315930	-12.632220799498
349.65100097656	28.198486341783	-13.641080010068
350.64999389648	26.637102473759	-14.021128085588
351.64898681641	24.983581312564	-13.773708334833
352.64801025391	23.453504494238	-13.006136170060
353.64700317383	22.172299729100	-11.827409000814
354.64599609375	21.240354350639	-10.332834242484
355.64498901367	20.759446916901	-8.6368248267454
356.64401245117	20.815792672336	-6.9056070619790
357.64300537109	21.438710511916	-5.3676148290186
358.64199829102	22.547931678584	-4.2949314057970
359.64099121094	23.901005746837	-3.9407753559555
360.64001464844	25.083714224691	-4.4153192715775
361.63900756836	25.622767743106	-5.5417853161379
362.63800048828	25.230767744370	-6.8412497706370
363.63699340820	23.998129749944	-7.7530303757943
364.63598632813	22.322555448617	-7.9296257819114
365.63500976563	20.656567189809	-7.3405270608033
366.63400268555	19.320279743088	-6.1665656546768
367.63299560547	18.468113755886	-4.6527474335560
368.63198852539	18.137993001813	-3.0253784600239
369.63101196289	18.304602584546	-1.4741472607207
370.63000488281	18.904845169392	-0.16481367819645
371.62899780273	19.832590261402	0.74763312951538
372.62799072266	20.913994436142	1.1294221612238
373.62701416016	21.891053946952	0.91748979194026
374.62600708008	22.457304777814	0.19602068397840
375.62500000000	22.371514196282	-0.76232746257866
376.62399291992	21.593701331970	-1.5682765623078
377.62298583984	20.322675565301	-1.8851001836929
378.62200927734	18.891078151345	-1.5646856737248
379.62100219727	17.615189249953	-0.65677443962155
380.61999511719	16.708383145895	0.67049983743414
381.61898803711	16.273375801976	2.2130491064622
382.61801147461	16.330851391350	3.7755092298831
383.61700439453	16.847203733433	5.1823549103545
384.61599731445	17.745339424988	6.2734028784938
385.61499023438	18.895596898113	6.9022871612393
386.61401367188	20.094685385412	6.9573763024325
387.61300659180	21.059845381210	6.4192080440165
388.61199951172	21.483358639343	5.4367862120475
389.61099243164	21.164814226210	4.3499361268549
390.60998535156	20.144525913075	3.5837410264621
391.60900878906	18.709746599839	3.4588683883622
392.60800170898	17.257453078877	4.0672742440012
393.60699462891	16.137061151770	5.2869179548161
394.60598754883	15.571838360029	6.8697092730326
395.60501098633	15.648750305212	8.5173228002246
396.60400390625	16.322856722778	9.9260037769325
397.60299682617	17.411487792908	10.831500394517
398.60198974609	18.603992546861	11.084111421021
399.60101318359	19.538870927073	10.732114678210
400.60000610352	19.951190223056	10.029698865177
401.59899902344	19.789346570110	9.3170835967143
