#Parameters = {a=529; eps_eff=6; r_i=50; r_o=52.9; t=0.1}
#"Frequency / GHz"	"Z1,1 (2) [Real/Imaginary Part] [Re]"	"Z1,1 (2) [Real/Imaginary Part] [Im]"
#---------------------------------------------------------------------------------------------
1.0000000000000	1357.2399760655	-1945.1813775912
1.4989999532700	736.54070874370	-1588.0526681024
1.9980000257492	447.68062578668	-1292.9783513701
2.4969999790192	296.56870021381	-1077.2221160723
2.9960000514984	209.16273872867	-918.46548006306
3.4949998855591	154.52588216181	-798.49242024378
3.9939999580383	118.27035536341	-705.28646419959
4.4930000305176	93.060051345727	-631.06895609265
4.9920001029968	74.863796808820	-570.70800587408
5.4910001754761	61.325018060804	-520.72338800865
5.9899997711182	50.995603291390	-478.68852206125
6.4889998435974	42.947115078318	-442.86731367424
6.9879999160767	36.562626039378	-411.98859049825
7.4869999885559	31.419956036624	-385.10198220974
7.9860000610352	27.221694751874	-361.48399153906
8.4849996566772	23.754184011753	-340.57456093802
8.9840002059937	20.860504950020	-321.93372215570
9.4829998016357	18.423139120066	-305.21156163024
9.9820003509521	16.353264403952	-290.12611804840
10.480999946594	14.582197485753	-276.44785770794
10.979999542236	13.056616804385	-263.98818260423
11.479000091553	11.734211901388	-252.59059306971
11.977999687195	10.581506909829	-242.12433582817
12.477000236511	9.5714298201596	-232.47914539315
12.975999832153	8.6821263277333	-223.56150877560
13.475000381470	7.8956071113909	-215.29160775773
13.973999977112	7.1971303763386	-207.60089161840
14.472999572754	6.5744466466176	-200.43016817175
14.972000122070	6.0173205516371	-193.72799001534
15.470999717712	5.5172191622096	-187.44950668519
15.970000267029	5.0668666051578	-181.55548554339
16.468999862671	4.6601347489572	-176.01137049146
16.968000411987	4.2917439167360	-170.78654130013
17.466999053955	3.9572830431610	-165.85400073410
17.965999603271	3.6528773421341	-161.18957321984
18.465000152588	3.3751453633454	-156.77182516557
18.964000701904	3.1212728533370	-152.58144430235
19.462999343872	2.8887359596807	-148.60111703335
19.961999893188	2.6753143468247	-144.81529701115
20.461000442505	2.4791267356266	-141.20986932848
20.959999084473	2.2984853926271	-137.77206281290
21.458999633789	2.1318517056888	-134.49034863581
21.958000183105	1.9779611771749	-131.35418502994
22.457000732422	1.8356628363027	-128.35393802833
22.955999374390	1.7038807955970	-125.48087319726
23.454999923706	1.5817375357511	-122.72693062116
23.954000473022	1.4683780601847	-120.08475980006
24.452999114990	1.3630679910337	-117.54757645540
24.951999664307	1.2651578995039	-115.10916825773
25.451000213623	1.1740564103222	-112.76375987735
25.950000762939	1.0892283805902	-110.50607520520
26.448999404907	1.0101553639087	-108.33115685355
26.947999954224	0.93644073965614	-106.23449759528
27.447000503540	0.86768922922140	-104.21189429122
27.945999145508	0.80350265533060	-102.25931473081
28.444999694824	0.74360055045757	-100.37316548929
28.944000244141	0.68764919492361	-98.550193160044
29.443000793457	0.63536255706884	-96.786970198042
29.941999435425	0.58653503480394	-95.080775355124
30.440999984741	0.54090922668479	-93.428633551589
30.940000534058	0.49827093617145	-91.828074251850
31.438999176025	0.45843001253282	-90.276715390740
31.937999725342	0.42122456719539	-88.772107686307
32.437000274658	0.38647389861151	-87.312236483052
32.936000823975	0.35403265981198	-85.895163823191
33.435001373291	0.32375270403123	-84.518875853517
33.933998107910	0.29551301666436	-83.181593770858
34.432998657227	0.26917887032592	-81.881693554959
34.931999206543	0.24465625319619	-80.617556878696
35.430999755859	0.22182445713525	-79.387705446303
35.930000305176	0.20059449531064	-78.190775886348
36.429000854492	0.18087685878684	-77.025404747907
36.928001403809	0.16257966526569	-75.890262679253
37.426998138428	0.14564386335416	-74.784254981100
37.925998687744	0.12995763385050	-73.706217627720
38.424999237061	0.11548615874985	-72.655025157283
38.923999786377	0.10213977664390	-71.629748050865
39.423000335693	0.089885713229507	-70.629292649559
39.922000885010	0.078628347789804	-69.652866801335
40.421001434326	0.068350932033525	-68.699512477739
40.919998168945	0.058974262018307	-67.768454206841
41.418998718262	0.050464697235372	-66.858855818884
41.917999267578	0.042762900972029	-65.969951449820
42.416999816895	0.035848555505250	-65.101048029969
42.916000366211	0.029653757271111	-64.251485101816
43.415000915527	0.024162351536410	-63.420570929455
43.914001464844	0.019318243369321	-62.607674725520
44.412998199463	0.015106434261083	-61.812228712467
44.911998748779	0.011472508060802	-61.033626173015
45.410999298096	0.0083962464309112	-60.271325077042
45.909999847412	0.0058472167117273	-59.524842350082
46.409000396729	0.0037807826581696	-58.793637203094
46.908000946045	0.0022086997955223	-58.077233979894
47.407001495361	0.0010568221738343	-57.375173467304
47.905998229980	0.00033467999773492	-56.687023157144
48.404998779297	-4.1659110335207e-06	-56.012362071237
48.903999328613	3.0975178776187e-05	-55.350752224064
49.402999877930	0.00041712722895945	-54.701850000253
49.902000427246	0.0011314611127351	-54.065249387692
50.401000976563	0.0021488786172308	-53.440599071788
50.900001525879	0.0034494367441696	-52.827562127094
51.398998260498	0.0050195641368809	-52.225777884830
51.897998809814	0.0068405669438774	-51.634949502394
52.396999359131	0.0088873182637980	-51.054754792281
52.895999908447	0.011152987166565	-50.484909278521
53.395000457764	0.013622468389711	-49.925126821409
53.894001007080	0.016274876595136	-49.375108900635
54.393001556396	0.019084177966633	-48.834615289696
54.891998291016	0.022061958998923	-48.303368509913
55.390998840332	0.025173828341331	-47.781135751487
55.889999389648	0.028421598162631	-47.267658355227
56.388999938965	0.031774994532184	-46.762732794873
56.888000488281	0.035235221530574	-46.266119653620
57.387001037598	0.038775163613828	-45.777596063094
57.886001586914	0.042408134778101	-45.296971492581
58.384998321533	0.046102604082717	-44.824029014847
58.883998870850	0.049858581142946	-44.358580372890
59.382999420166	0.053652738083264	-43.900433899216
59.881999969482	0.057493108488737	-43.449404994315
60.381000518799	0.061355989910164	-43.005322958539
60.880001068115	0.065240827170585	-42.568006002077
61.379001617432	0.069139928473840	-42.137305940633
61.877998352051	0.073031603087371	-41.713032726876
62.376998901367	0.076920886061787	-41.295057295274
62.875999450684	0.080798462164447	-40.883210927395
63.375000000000	0.084653240928548	-40.477365349240
63.874000549316	0.088483343903944	-40.077349282423
64.373001098633	0.092273625453261	-39.683046171058
64.872001647949	0.096026094414387	-39.294322472139
65.371002197266	0.099736148413250	-38.911028147617
65.870002746582	0.10338179375713	-38.533061775767
66.369003295898	0.10697757885725	-38.160288584246
66.867996215820	0.11051060355035	-37.792574428361
67.366996765137	0.11397228557749	-37.429825822232
67.865997314453	0.11736544514916	-37.071911496864
68.364997863770	0.12067376551436	-36.718726355249
68.863998413086	0.12391373666582	-36.370183404444
69.362998962402	0.12705972833650	-36.026146851975
69.861999511719	0.13012270806803	-35.686534497392
70.361000061035	0.13309294823490	-35.351237511784
70.860000610352	0.13596805018365	-35.020161488420
71.359001159668	0.13874621141658	-34.693225889745
71.858001708984	0.14142723917836	-34.370316113322
72.357002258301	0.14401310788492	-34.051373041520
72.856002807617	0.14648931257594	-33.736282219557
73.355003356934	0.14886087011822	-33.424972870897
73.853996276855	0.15113207697953	-33.117371068935
74.352996826172	0.15329148963942	-32.813371250008
74.851997375488	0.15534486933262	-32.512923995838
75.350997924805	0.15728876180478	-32.215931338802
75.849998474121	0.15912437072984	-31.922331776817
76.348999023438	0.16084815224305	-31.632042614518
76.847999572754	0.16246964819885	-31.345008421866
77.347000122070	0.16397746653641	-31.061153302027
77.846000671387	0.16537319861638	-30.780399542932
78.345001220703	0.16666493011386	-30.502695668810
78.844001770020	0.16785087015389	-30.227982953101
79.343002319336	0.16892813606712	-29.956173832844
79.842002868652	0.16989583457589	-29.687227675924
80.341003417969	0.17076463354972	-29.421085098432
80.839996337891	0.17153179021505	-29.157690800174
81.338996887207	0.17219278736601	-28.896965503641
81.837997436523	0.17275828193647	-28.638883753151
82.336997985840	0.17322208748577	-28.383381428698
82.835998535156	0.17359866049600	-28.130405261302
83.334999084473	0.17387882027383	-27.879896486459
83.833999633789	0.17406353501108	-27.631819205509
84.333000183105	0.17416064651805	-27.386099466891
84.832000732422	0.17417802769812	-27.142731169075
85.331001281738	0.17410377300273	-26.901636365712
85.830001831055	0.17395425823460	-26.662786686436
86.329002380371	0.17372854924214	-26.426119486602
86.828002929688	0.17341890561753	-26.191605633012
87.327003479004	0.17305181711057	-25.959216296805
87.825996398926	0.17260458398313	-25.728871492234
88.324996948242	0.17209481692100	-25.500573120168
88.823997497559	0.17152771306520	-25.274264695292
89.322998046875	0.17089390421033	-25.049901082769
89.821998596191	0.17021170476476	-24.827466361391
90.320999145508	0.16947326381115	-24.606899058369
90.819999694824	0.16868872353068	-24.388178551024
91.319000244141	0.16785681068305	-24.171267638666
91.818000793457	0.16698419064214	-23.956149362320
92.317001342773	0.16607341240985	-23.742755979600
92.816001892090	0.16512061549652	-23.531089436891
93.315002441406	0.16414701263946	-23.321107668492
93.814002990723	0.16314070695786	-23.112767774825
94.313003540039	0.16211024026752	-22.906057903866
94.811996459961	0.16105815426115	-22.700940523767
95.310997009277	0.15998578262594	-22.497389066238
95.809997558594	0.15890149022448	-22.295383095106
96.308998107910	0.15781142668860	-22.094889809665
96.807998657227	0.15671192853419	-21.895888021780
97.306999206543	0.15560241918905	-21.698334677001
97.805999755859	0.15449544684291	-21.502235632589
98.305000305176	0.15339604784019	-21.307547725752
98.804000854492	0.15229440041563	-21.114254535618
99.303001403809	0.15120321212365	-20.922320602405
99.802001953125	0.15012581057977	-20.731734441460
100.30100250244	0.14906423100189	-20.542478734480
100.80000305176	0.14801399616258	-20.354523110195
101.29900360107	0.14699529087352	-20.167859582262
101.79799652100	0.14598823809492	-19.982456532817
102.29699707031	0.14501106920202	-19.798295661516
102.79599761963	0.14406475443369	-19.615364235368
103.29499816895	0.14314628632308	-19.433643977475
103.79399871826	0.14225890546437	-19.253099756768
104.29299926758	0.14141004517916	-19.073737998111
104.79199981689	0.14059887271350	-18.895525675603
105.29100036621	0.13982812417591	-18.718454268419
105.79000091553	0.13909907404778	-18.542512005529
106.28900146484	0.13841314494982	-18.367660893559
106.78800201416	0.13777706198149	-18.193917126687
107.28700256348	0.13718159593417	-18.021237109664
107.78600311279	0.13663785183592	-17.849608347836
108.28500366211	0.13614327928445	-17.679037836030
108.78399658203	0.13570246799147	-17.509497332870
109.28299713135	0.13531178321584	-17.340974214213
109.78199768066	0.13497765738720	-17.173451409619
110.28099822998	0.13469539940882	-17.006928975746
110.77999877930	0.13447605900492	-16.841373016602
111.27899932861	0.13430741819687	-16.676791150152
111.77799987793	0.13419938287285	-16.513153735302
112.27700042725	0.13414914970324	-16.350467626712
112.77600097656	0.13416193043774	-16.188706650745
113.27500152588	0.13422906050564	-16.027863738764
113.77400207520	0.13435817865076	-15.867923527277
114.27300262451	0.13454606042229	-15.708877419710
114.77200317383	0.13479895581804	-15.550723646984
115.27100372314	0.13510884460504	-15.393434918038
115.76999664307	0.13548403408488	-15.237015400470
116.26899719238	0.13591615001000	-15.081438468345
116.76799774170	0.13640840805421	-14.926701457918
117.26699829102	0.13695831011373	-14.772807779803
117.76599884033	0.13756549813079	-14.619721774413
118.26499938965	0.13824015733315	-14.467457436784
118.76399993896	0.13896957903425	-14.315989324982
119.26300048828	0.13975769070747	-14.165314426977
119.76200103760	0.14059933655738	-14.015426177731
120.26100158691	0.14149932524923	-13.866301718748
120.76000213623	0.14245726023805	-13.717945484178
121.25900268555	0.14347008243139	-13.570351042953
121.75800323486	0.14453438363139	-13.423499969282
122.25700378418	0.14565584321565	-13.277373956874
122.75599670410	0.14682914514657	-13.131990163890
123.25499725342	0.14804854518488	-12.987321480839
123.75399780273	0.14932297405680	-12.843366809386
124.25299835205	0.15064467869231	-12.700112330000
124.75199890137	0.15201391042555	-12.557546249091
125.25099945068	0.15342549747612	-12.415670375101
125.75000000000	0.15488735265013	-12.274479145080
126.24900054932	0.15638695739352	-12.133947599750
126.74800109863	0.15793712890500	-11.994081226783
127.24700164795	0.15952216410085	-11.854861254222
127.74600219727	0.16114817002696	-11.716292694902
128.24499511719	0.16281053940566	-11.578352382889
128.74400329590	0.16451114398031	-11.441050547414
129.24299621582	0.16624978648309	-11.304350967916
129.74200439453	0.16802303517001	-11.168282578144
130.24099731445	0.16982664537221	-11.032813897993
130.74000549316	0.17166294696506	-10.897936033635
131.23899841309	0.17352742814551	-10.763647494964
131.73800659180	0.17542280118138	-10.629942459346
132.23699951172	0.17734167578227	-10.496810788207
132.73599243164	0.17929154442665	-10.364247405827
133.23500061035	0.18126018587311	-10.232229506076
133.73399353027	0.18325721273083	-10.100778749962
134.23300170898	0.18527598907547	-9.9698590511101
134.73199462891	0.18731535501955	-9.8394733851889
135.23100280762	0.18937255584534	-9.7096165908428
135.72999572754	0.19144969105965	-9.5802755697941
136.22900390625	0.19354677635420	-9.4514549534583
136.72799682617	0.19565617254228	-9.3231364718991
137.22700500488	0.19778282717825	-9.1953120190575
137.72599792480	0.19992321629436	-9.0679737010499
138.22500610352	0.20208096619206	-8.9411255526406
138.72399902344	0.20424762739343	-8.8147507208278
139.22300720215	0.20642803492056	-8.6888407727384
139.72200012207	0.20861969964218	-8.5633937767479
140.22099304199	0.21081925275038	-8.4384010859211
140.72000122070	0.21302741566077	-8.3138466838161
141.21899414063	0.21524996908627	-8.1897424854972
141.71800231934	0.21747844198887	-8.0660606454648
142.21699523926	0.21971486883326	-7.9428047336144
142.71600341797	0.22195897326315	-7.8199606000796
143.21499633789	0.22421215017903	-7.6975389989983
143.71400451660	0.22646747795872	-7.5755158687283
144.21299743652	0.22873577307313	-7.4538817496972
144.71200561523	0.23100822872854	-7.3326493132646
145.21099853516	0.23328713863487	-7.2117946060098
145.71000671387	0.23557496828468	-7.0913138825358
146.20899963379	0.23787036197085	-6.9712055388085
146.70799255371	0.24016918933760	-6.8514609255778
147.20700073242	0.24247647553992	-6.7320724939990
147.70599365234	0.24479367300399	-6.6130396755070
148.20500183105	0.24711656910654	-6.4943414549528
148.70399475098	0.24944577025233	-6.3759859670987
149.20300292969	0.25178834915940	-6.2579565535927
149.70199584961	0.25413389689158	-6.1402550726722
150.20100402832	0.25649463374676	-6.0228749611459
150.69999694824	0.25886241533730	-5.9058023157966
151.19900512695	0.26123914378644	-5.7890399544857
151.69799804688	0.26363003397943	-5.6725765816615
152.19700622559	0.26603827849210	-5.5564160853849
152.69599914551	0.26845385222741	-5.4405305618747
153.19500732422	0.27088901490680	-5.3249389274690
153.69400024414	0.27333400224016	-5.2096256428072
154.19299316406	0.27579835549457	-5.0945786412591
154.69200134277	0.27828037546461	-4.9798021572916
155.19099426270	0.28078102886840	-4.8652874313225
155.69000244141	0.28330065894204	-4.7510283561083
156.18899536133	0.28584040167574	-4.6370225091104
156.68800354004	0.28840219557393	-4.5232630064357
157.18699645996	0.29099107718148	-4.4097423858091
157.68600463867	0.29360224012622	-4.2964649514218
158.18499755859	0.29624317756239	-4.1834175407218
158.68400573730	0.29890484921523	-4.0705927102178
159.18299865723	0.30160141045343	-3.9580011216551
159.68200683594	0.30432519230011	-3.8456168203386
160.18099975586	0.30708401515444	-3.7334513143439
160.67999267578	0.30987336527375	-3.6214969403041
161.17900085449	0.31269769271275	-3.5097470452946
161.67799377441	0.31556298794031	-3.3982054848177
162.17700195313	0.31846075652033	-3.2868473762566
162.67599487305	0.32139903590452	-3.1756952449221
163.17500305176	0.32437838337032	-3.0647237781466
163.67399597168	0.32740221388307	-2.9539446978630
164.17300415039	0.33046883021496	-2.8433496474949
164.67199707031	0.33357931196315	-2.7329317946587
165.17100524902	0.33673709420941	-2.6226900974044
165.66999816895	0.33994713284759	-2.5126236355095
166.16900634766	0.34320040942260	-2.4027186872880
166.66799926758	0.34651430338445	-2.2929867653849
167.16700744629	0.34987312658439	-2.1834200662329
167.66600036621	0.35329140826625	-2.0740118843285
168.16499328613	0.35676342681536	-1.9647607392164
168.66400146484	0.36028841755753	-1.8556599517211
169.16299438477	0.36387689373181	-1.7467141056811
169.66200256348	0.36752352931656	-1.6379163528816
170.16099548340	0.37123354332916	-1.5292597587705
170.66000366211	0.37500198834831	-1.4207547614898
171.15899658203	0.37883747136806	-1.3123886381550
171.65800476074	0.38273392903551	-1.2041662286817
172.15699768066	0.38669983014732	-1.0960746634866
172.65600585938	0.39072912246478	-0.98811876230253
173.15499877930	0.39482799242274	-0.88030342613494
173.65400695801	0.39899589584299	-0.77260983261357
174.15299987793	0.40323576129475	-0.66504892670769
174.65199279785	0.40754507839252	-0.55761361133191
175.15100097656	0.41192417254296	-0.45030282677209
175.64999389648	0.41637641219439	-0.34311578768370
176.14900207520	0.42090221561795	-0.23604544571080
176.64799499512	0.42550030806136	-0.12910274524667
177.14700317383	0.43017420748061	-0.022268835183478
177.64599609375	0.43491964757445	0.084451276606713
178.14500427246	0.43974313743792	0.19104664155327
178.64399719238	0.44464188764308	0.29754202196260
179.14300537109	0.44961945615165	0.40392061327511
179.64199829102	0.45467165758703	0.51018908365771
180.14100646973	0.45979724891417	0.61635447569589
180.63999938965	0.46500288418670	0.72241018485836
181.13900756836	0.47028418817501	0.82836622399601
181.63800048828	0.47564334187563	0.93421590094701
182.13699340820	0.48107906752261	1.0399662094138
182.63600158691	0.48659055479321	1.1456119087198
183.13499450684	0.49217924547950	1.2511660876420
183.63400268555	0.49784770292763	1.3566175483460
184.13299560547	0.50358783245286	1.4619850435726
184.63200378418	0.50940449470608	1.5672457895384
185.13099670410	0.51529831901908	1.6724241208363
185.63000488281	0.52126397867842	1.7775152709430
186.12899780273	0.52730697141447	1.8825140084326
186.62800598145	0.53342278409168	1.9874273598921
187.12699890137	0.53961240991507	2.0922501025910
187.62600708008	0.54587489119070	2.1970007465645
188.12500000000	0.55220914269362	2.3016625535411
188.62399291992	0.55861215311519	2.4062420880029
189.12300109863	0.56508632075964	2.5107523475934
189.62199401855	0.57162868534075	2.6151822059744
190.12100219727	0.57824224980000	2.7195383689947
190.61999511719	0.58492509339101	2.8238158761243
191.11900329590	0.59166962299270	2.9280329164504
191.61799621582	0.59848060407021	3.0321793943663
192.11700439453	0.60535716498427	3.1362549464342
192.61599731445	0.61229820180812	3.2402732418086
193.11500549316	0.61929725592946	3.3442284912800
193.61399841309	0.62636007447670	3.4481282340863
194.11300659180	0.63348405410154	3.5519727288861
194.61199951172	0.64066118760743	3.6557567268623
195.11099243164	0.64789881117175	3.7594871964793
195.61000061035	0.65519091699126	3.8631765758959
196.10899353027	0.66253895981891	3.9668084241108
196.60800170898	0.66993963234626	4.0704071824244
197.10699462891	0.67738997514135	4.1739552179928
197.60600280762	0.68489354889443	4.2774718229230
