#Parameters = {Z=50; d_bond=150; eps_eff=6; h_bond=180; l_bond=700; l_f=4971; p1=175; p2=250; r_bond=25; t=0.1; w=24}
#"Frequency / GHz"	"Z2,2 [Real/Imaginary Part] [Re]"	"Z2,2 [Real/Imaginary Part] [Im]"
#-------------------------------------------------------------------------------------
1.0000000000000	25.804464522427	-2575.6401178506
1.9989999532700	29.143469540890	-1301.3257684073
2.9979999065399	23.594374714798	-878.82176623334
3.9969999790192	16.007926612146	-666.95710836987
4.9959998130798	8.7567689335062	-537.38041668234
5.9949998855591	3.4461777009278	-448.26514529380
6.9939999580383	0.66386030887950	-382.80332265515
7.9930000305176	0.00029051344249568	-333.16626782887
8.9919996261597	0.52994092047491	-294.94452739550
9.9910001754761	1.3322152510844	-265.10746851130
10.989999771118	1.7905357828186	-241.31297518581
11.989000320435	1.6892524388052	-221.71667105763
12.987999916077	1.1699876791431	-204.96734786812
13.987000465393	0.56614942968037	-190.23167242760
14.986000061035	0.18112541108061	-177.12746440221
15.984999656677	0.13206468710646	-165.54148625141
16.983999252319	0.33543902745917	-155.42194304831
17.982999801636	0.59936985501368	-146.64420056679
18.982000350952	0.74293043925407	-138.97860639683
19.981000900269	0.68438678464983	-132.13695117421
20.979999542236	0.46737581857287	-125.85744446747
21.979000091553	0.21761542660256	-119.98068881626
22.978000640869	0.059809814233560	-114.46952496903
23.976999282837	0.048890585132240	-109.36565771442
24.975999832153	0.15400330832299	-104.71797076882
25.975000381470	0.29167091844327	-100.52812928306
26.974000930786	0.37905363175420	-96.735799202242
27.972999572754	0.37713268792884	-93.241857199413
28.972000122070	0.30399994208759	-89.951581081675
29.971000671387	0.21363184672951	-86.811610267360
30.969999313354	0.15708478337825	-83.818627140747
31.968999862671	0.15223698487021	-80.998234447797
32.967998504639	0.17954559208910	-78.371684519500
33.966999053955	0.20159884254290	-75.932524822508
34.965999603271	0.19078163860166	-73.645389533972
35.965000152588	0.14764459726533	-71.464595924624
36.964000701904	0.099140545798287	-69.359109947579
37.963001251221	0.078911708665767	-67.327184293910
38.962001800537	0.10407437836477	-65.391259002922
39.960998535156	0.16384757758043	-63.577927356790
40.959999084473	0.22601181747715	-61.896881535137
41.958999633789	0.25608534373260	-60.330940694115
42.958000183105	0.23735303566407	-58.842690463343
43.957000732422	0.17988655374092	-57.393504723048
44.956001281738	0.11323082842289	-55.962302665511
45.955001831055	0.068000415509727	-54.553312778419
46.953998565674	0.058970089432051	-53.187861424139
47.952999114990	0.079687362443487	-51.887850266012
48.951999664307	0.11024247598500	-50.661537924401
49.951000213623	0.13166015544626	-49.500099874190
50.950000762939	0.13748861069138	-48.385191313974
51.949001312256	0.13539122624661	-47.301773478552
52.948001861572	0.13867539491725	-46.247402841872
53.946998596191	0.15431207785936	-45.231191313028
54.945999145508	0.17630972296491	-44.264188840736
55.944999694824	0.18890610218405	-43.348021231658
56.944000244141	0.17744929509738	-42.470088405943
57.943000793457	0.13966567454409	-41.608461603493
58.942001342773	0.089579260522126	-40.744322308052
59.941001892090	0.050819560246274	-39.873373838982
60.939998626709	0.043372454088055	-39.008990968188
61.938999176025	0.072207159826670	-38.174790714189
62.937999725342	0.12449093355908	-37.391418594562
63.937000274658	0.17646529000997	-36.665580412820
64.935997009277	0.20588913280713	-35.986722507895
65.934997558594	0.20292147960408	-35.333116346498
66.933998107910	0.17350022791647	-34.683398767763
67.932998657227	0.13379259182718	-34.026575486607
68.931999206543	0.10006488016386	-33.364560748891
69.930999755859	0.080803665440491	-32.707230968273
70.930000305176	0.075306276247674	-32.064301322733
71.929000854492	0.078164187729942	-31.439887348893
72.928001403809	0.085364091723527	-30.832662316601
73.927001953125	0.097336609291899	-30.240211678673
74.926002502441	0.11700917166168	-29.663690653149
75.925003051758	0.14487481199428	-29.108696669928
76.924003601074	0.17524804195201	-28.581341161963
77.922996520996	0.19718200767707	-28.082526893555
78.921997070313	0.20003548282448	-27.604430141641
79.920997619629	0.18031620440346	-27.132694804084
80.919998168945	0.14496834823383	-26.653379798322
81.918998718262	0.10847126993867	-26.160341251070
82.917999267578	0.085290549925793	-25.658410742604
83.916999816895	0.082488541397212	-25.160133536476
84.916000366211	0.096942306058872	-24.678457014556
85.915000915527	0.11848624022858	-24.219897910546
86.914001464844	0.13667017617631	-23.782261375156
87.913002014160	0.14666840148313	-23.357888488611
88.912002563477	0.15062907736837	-22.939847199184
89.911003112793	0.15383778159682	-22.526585811534
90.910003662109	0.15906598348978	-22.121766785341
91.908996582031	0.16331525335707	-21.729675333807
92.907997131348	0.15958001636067	-21.349771557058
93.906997680664	0.14257125628045	-20.974635647651
94.905998229980	0.11422109122380	-20.593352324363
95.904998779297	0.084864002547349	-20.198341515963
96.903999328613	0.068562772447275	-19.791210657368
97.902999877930	0.075398039033044	-19.383357514005
98.902000427246	0.10533879004385	-18.990717693162
99.901000976563	0.14761743584389	-18.625642196718
100.90000152588	0.18595350307122	-18.290478056475
101.89900207520	0.20671448177902	-17.976672669202
102.89800262451	0.20532863921500	-17.669719921160
103.89700317383	0.18713494400586	-17.356900249790
104.89600372314	0.16277508111363	-17.032902509761
105.89499664307	0.14153690069368	-16.700159558977
106.89399719238	0.12726543166731	-16.364629397296
107.89299774170	0.11892818428864	-16.030662360028
108.89199829102	0.11459997437475	-15.698740475555
109.89099884033	0.11513847205337	-15.367393298663
110.88999938965	0.12455696651729	-15.037331490810
111.88899993896	0.14644694970418	-14.714088079181
112.88800048828	0.17921175158152	-14.406668502547
113.88700103760	0.21383209728440	-14.122192044818
114.88600158691	0.23669965199766	-13.860072470226
115.88500213623	0.23654159631493	-13.609757897241
116.88400268555	0.21148815870999	-13.354537834003
117.88300323486	0.17152518406040	-13.079782520419
118.88200378418	0.13411508996658	-12.780832840573
119.88099670410	0.11546301474567	-12.465519673646
120.87999725342	0.12249637572101	-12.149995426533
121.87899780273	0.15006820461952	-11.850244770999
122.87799835205	0.18461577021437	-11.574381724748
123.87699890137	0.21186884823115	-11.319665000865
124.87599945068	0.22404915514606	-11.075698682567
125.87500000000	0.22244295792812	-10.831371865941
126.87400054932	0.21422218431605	-10.581044238723
127.87300109863	0.20631953644236	-10.325960912009
128.87199401855	0.20083614838715	-10.070837333686
129.87100219727	0.19491982782872	-9.8185551161271
130.86999511719	0.18477466013514	-9.5670277545894
131.86900329590	0.17051787845898	-9.3106048529462
132.86799621582	0.15798218520912	-9.0448645663010
133.86700439453	0.15601847946993	-8.7713201896513
134.86599731445	0.17077767366779	-8.4983449406035
135.86500549316	0.20100032331428	-8.2375002850789
136.86399841309	0.23742072106219	-7.9971494050760
137.86300659180	0.26705856715124	-7.7775169811311
138.86199951172	0.27988974253914	-7.5702083855868
139.86099243164	0.27392362384289	-7.3627274467134
140.86000061035	0.25543172441097	-7.1451316726145
141.85899353027	0.23440872370728	-6.9145731948233
142.85800170898	0.21856816477893	-6.6750275952924
143.85699462891	0.20982983742643	-6.4329771787870
144.85600280762	0.20533268022175	-6.1922538827987
145.85499572754	0.20178814554251	-5.9518905266902
146.85400390625	0.19976703710899	-5.7082223530741
147.85299682617	0.20450308328767	-5.4596876966743
148.85200500488	0.22235993597916	-5.2105905553440
149.85099792480	0.25525735361386	-4.9707067971364
150.85000610352	0.29691191225359	-4.7504263676772
151.84899902344	0.33386868083200	-4.5540659203535
152.84800720215	0.35151454864114	-4.3755808807726
153.84700012207	0.34197242256662	-4.1997232421004
154.84599304199	0.30915827698146	-4.0089159884723
155.84500122070	0.26765033183225	-3.7919018527770
156.84399414063	0.23580036008603	-3.5492785674113
157.84300231934	0.22712843635926	-3.2928423155192
158.84199523926	0.24458042239338	-3.0395897472214
159.84100341797	0.28023834981346	-2.8037874453151
160.83999633789	0.32004079621215	-2.5911527087860
161.83900451660	0.35074586853648	-2.3977605578304
162.83799743652	0.36533391712615	-2.2135631846431
163.83700561523	0.36440934882483	-2.0280956439106
164.83599853516	0.35360810950860	-1.8348893473599
165.83500671387	0.33936464278608	-1.6326010957910
166.83399963379	0.32583325525782	-1.4230819519058
167.83299255371	0.31445390377550	-1.2084694159903
168.83200073242	0.30560756202612	-0.98953111548247
169.83099365234	0.30054265161928	-0.76606757973982
170.83000183105	0.30192308714203	-0.53871430445476
171.82899475098	0.31259138449680	-0.31036981452871
172.82800292969	0.33344007890659	-0.086149643425242
173.82699584961	0.36192837003901	0.12845318508763
174.82600402832	0.39228559253565	0.32997457124134
175.82499694824	0.41734336918592	0.51878100346204
176.82400512695	0.43106728746904	0.69923425027651
177.82299804688	0.43062831014828	0.87832951583764
178.82200622559	0.41720861991545	1.0635372420722
179.82099914551	0.39550203569833	1.2607001673939
180.82000732422	0.37245232819001	1.4726953056093
181.81900024414	0.35561058040020	1.6987443703881
182.81799316406	0.35143908674488	1.9345064918868
183.81700134277	0.36368385941917	2.1727662303745
184.81599426270	0.39204325263013	2.4050294193550
185.81500244141	0.43171328924380	2.6237445238906
186.81399536133	0.47435125367403	2.8248454999281
187.81300354004	0.51049627711269	3.0093626728600
188.81199645996	0.53276440296990	3.1832905545406
189.81100463867	0.53830105905617	3.3554597509061
190.80999755859	0.52939456797718	3.5343131663991
191.80900573730	0.51190497248335	3.7251722487447
192.80799865723	0.49255820798966	3.9293815561356
193.80700683594	0.47670694611884	4.1452441230167
194.80599975586	0.46764657434894	4.3699483358427
195.80499267578	0.46743176973032	4.6008081910150
196.80400085449	0.47801107728788	4.8351076506914
197.80299377441	0.50129217754122	5.0689340724755
198.80200195313	0.53773335396055	5.2963205655400
199.80099487305	0.58415572593404	5.5101936884832
200.80000305176	0.63265125257987	5.7052182952045
201.79899597168	0.67199992544292	5.8813251143904
202.79800415039	0.69172376441361	6.0456881383742
203.79699707031	0.68705086272488	6.2113242877914
204.79600524902	0.66192426829306	6.3923926356062
205.79499816895	0.62819900224966	6.5983687361013
206.79400634766	0.60111624661238	6.8300175838915
207.79299926758	0.59337436397173	7.0793158617288
208.79200744629	0.61063318870489	7.3328655298166
209.79100036621	0.65027576855707	7.5771156416901
210.78999328613	0.70332768146028	7.8026997906070
211.78900146484	0.75819580963660	8.0065721296503
212.78799438477	0.80422554751480	8.1915324051169
213.78700256348	0.83379999597450	8.3643454733764
214.78599548340	0.84302985067017	8.5339194480158
215.78500366211	0.83186191906850	8.7099731285894
216.78399658203	0.80446164403383	8.9019267625297
217.78300476074	0.76951355803063	9.1170225178311
218.78199768066	0.73932815737501	9.3576064550176
219.78100585938	0.72684183962266	9.6188729377092
220.77999877930	0.74099314912902	9.8887413361358
221.77900695801	0.78234291979336	10.151186732082
222.77799987793	0.84156184406494	10.392182185544
223.77699279785	0.90232274238295	10.605864712939
224.77600097656	0.94798114928898	10.797570518289
225.77499389648	0.96895575220639	10.981493781030
226.77400207520	0.96658427585870	11.173853607809
227.77299499512	0.95120298596207	11.385324439349
228.77200317383	0.93569145000408	11.617251226854
229.77099609375	0.92863540210675	11.863499157083
230.77000427246	0.93132135506747	12.116373392195
231.76899719238	0.94014956822160	12.372419286221
232.76800537109	0.95253134435055	12.634060205679
233.76699829102	0.97189139987520	12.905855547980
234.76600646973	1.0076748539436	13.187650483318
235.76499938965	1.0695803822987	13.469865536942
236.76400756836	1.1591302008871	13.734672042297
237.76300048828	1.2639290804551	13.963802529708
238.76199340820	1.3592171312780	14.149458242633
239.76100158691	1.4175560293128	14.301997280195
240.75999450684	1.4223674046331	14.448709872442
241.75900268555	1.3775506509589	14.622939793911
242.75799560547	1.3069365580074	14.849110990419
243.75700378418	1.2438984990377	15.132198171228
244.75599670410	1.2171017328966	15.456746700059
245.75500488281	1.2397199689011	15.794939690717
246.75399780273	1.3064596475659	16.118677592393
247.75300598145	1.3985623459142	16.410042169454
248.75199890137	1.4934054655583	16.665567073228
249.75100708008	1.5733325939127	16.893441884423
250.75000000000	1.6294528770993	17.106671607793
251.74899291992	1.6598051554071	17.317299795655
252.74800109863	1.6652511120507	17.534894420808
253.74699401855	1.6474885261220	17.768772542297
254.74600219727	1.6111018479111	18.030092101880
255.74499511719	1.5674420058809	18.330170945001
256.74398803711	1.5360565403997	18.674608137907
257.74301147461	1.5405731446850	19.056769150481
258.74200439453	1.5997084380805	19.455194275522
259.74099731445	1.7174018253322	19.838054525076
260.73999023438	1.8773243818296	20.174232847595
261.73901367188	2.0458675346798	20.446549395943
262.73800659180	2.1840108596856	20.661048921280
263.73699951172	2.2633141321128	20.846127847244
264.73599243164	2.2775714727280	21.040992891163
265.73498535156	2.2438562380277	21.279674807699
266.73400878906	2.1933233946463	21.579182834241
267.73300170898	2.1581477293368	21.936866152002
268.73199462891	2.1615482935826	22.335705968146
269.73098754883	2.2142447744792	22.752710235047
270.73001098633	2.3160554327495	23.165330002978
271.72900390625	2.4591486643327	23.554163514925
272.72799682617	2.6296003934522	23.903265284478
273.72698974609	2.8066101151889	24.201317412514
274.72601318359	2.9622067600704	24.446095526885
275.72500610352	3.0655164484759	24.650900185098
276.72399902344	3.0932108332673	24.847726094840
277.72299194336	3.0423484254332	25.081861444345
278.72198486328	2.9376891400692	25.397183160198
279.72100830078	2.8277654432032	25.818597552604
280.72000122070	2.7700365853933	26.339996404707
281.71899414063	2.8113845228662	26.923285461601
282.71798706055	2.9711663349383	27.508851485848
283.71701049805	3.2325837651580	28.034396578365
284.71600341797	3.5462127484736	28.456299738283
285.71499633789	3.8465025853902	28.765862201157
286.71398925781	4.0754166194810	28.991914904842
287.71301269531	4.2020875357437	29.187773510686
288.71200561523	4.2287285887800	29.410124031373
289.71099853516	4.1825574756399	29.701751576081
290.70999145508	4.1019292186469	30.085233768695
291.70901489258	4.0258522748859	30.565742153464
292.70800781250	3.9902927560744	31.136104838060
293.70700073242	4.0283597740980	31.778414633283
294.70599365234	4.1687340093858	32.461471816843
295.70498657227	4.4283727222205	33.137920695553
296.70401000977	4.7999448892609	33.747669368022
297.70300292969	5.2401229987102	34.232561934922
298.70199584961	5.6693989151174	34.561791068193
299.70098876953	5.9923529394438	34.756869764410
300.70001220703	6.1358760432934	34.898182779856
301.69900512695	6.0859397735274	35.101473534599
302.69799804688	5.8996468872185	35.473631333513
303.69699096680	5.6856998712344	36.071962902988
304.69601440430	5.5669232317008	36.885607880257
305.69500732422	5.6424751448858	37.839997680452
306.69400024414	5.9588752353241	38.817595797897
307.69299316406	6.4928245665335	39.689835179664
308.69198608398	7.1513957359400	40.357432991871
309.69100952148	7.7973133473974	40.788906705595
310.69000244141	8.2976190377868	41.037753630293
311.68899536133	8.5747429598452	41.222925276674
312.68798828125	8.6315594576882	41.481150701097
313.68701171875	8.5399499832741	41.918883425281
314.68600463867	8.4074757752106	42.586712133154
315.68499755859	8.3439406537734	43.478376652119
316.68399047852	8.4391448564913	44.542792135182
317.68301391602	8.7511345735245	45.698606345527
318.68200683594	9.2994809612114	46.847330670343
319.68099975586	10.059618687234	47.887097449146
320.67999267578	10.959722536362	48.731136674087
321.67898559570	11.886221766748	49.332208131965
322.67800903320	12.705493643772	49.706345041937
323.67700195313	13.301785190539	49.942239544611
324.67599487305	13.618530013590	50.184542924556
325.67498779297	13.682867669775	50.593320721681
326.67401123047	13.601820627747	51.297348848808
327.67300415039	13.535661805084	52.359473244986
328.67199707031	13.662534587898	53.760278950792
329.67098999023	14.142649551360	55.394857274869
330.67001342773	15.079820230806	57.078699568459
331.66900634766	16.475704678325	58.570655946479
332.66799926758	18.186861317708	59.631444888821
333.66699218750	19.922457617685	60.124270966224
334.66598510742	21.327557293093	60.116675417936
335.66500854492	22.139758308397	59.897862021695
336.66400146484	22.320346247915	59.869228941002
337.66299438477	22.066359713071	60.379145476865
338.66198730469	21.719830341273	61.611788760236
339.66101074219	21.660126913248	63.562269754203
340.66000366211	22.228682490118	66.053946015071
341.65899658203	23.671142299331	68.755875692634
342.65798950195	26.058842931408	71.208083380896
343.65701293945	29.187376774926	72.910782078944
344.65600585938	32.535083813234	73.525474295536
345.65499877930	35.414693695529	73.110152244288
346.65399169922	37.308672612491	72.167941246010
347.65301513672	38.134024537042	71.401690752188
348.65200805664	38.219505107267	71.378020966731
349.65100097656	38.087652356797	72.360251479463
350.64999389648	38.258940909484	74.330864447146
351.64898681641	39.162621312765	77.076401623783
352.64801025391	41.110830540861	80.244173830165
353.64700317383	44.269168316483	83.363894011285
354.64599609375	48.587923439361	85.878438187395
355.64498901367	53.713573604176	87.247908728052
356.64401245117	58.971771101074	87.159710686489
357.64300537109	63.541660114309	85.761622720254
358.64199829102	66.812300583124	83.712517099060
359.64099121094	68.692083638321	81.933453799452
360.64001464844	69.638339259444	81.222000998365
361.63900756836	70.446699233762	81.999941646432
362.63800048828	72.018710845744	84.263306190030
363.63699340820	75.225631159027	87.603571724316
364.63598632813	80.800960000876	91.166275607744
365.63500976563	89.080290510021	93.561594421384
366.63400268555	99.453833574306	93.004513414026
367.63299560547	109.86075058810	88.178100943740
368.63198852539	117.39904164108	79.664769121625
369.63101196289	120.38523832414	70.207240108972
370.63000488281	119.65444971473	62.794224959259
371.62899780273	117.53238319716	58.797702664553
372.62799072266	116.22135254587	57.935018925524
373.62701416016	117.18129743974	59.072698923941
374.62600708008	121.20028827913	60.718409288159
375.62500000000	128.44009102425	61.100220246848
376.62399291992	138.14278074884	58.243025125362
377.62298583984	148.18776782006	50.575222079876
378.62200927734	155.35909718121	38.215288592048
379.62100219727	157.10116339503	23.748419023495
380.61999511719	153.44849645750	10.861971146446
381.61898803711	146.75437883572	1.9300259290222
382.61801147461	139.77645422372	-2.8164553368514
383.61700439453	134.40776026128	-4.4686923019666
384.61599731445	131.57014966569	-4.5099264149571
385.61499023438	131.51138886602	-4.4370563185706
386.61401367188	133.94248751870	-5.7425627853029
387.61300659180	137.86985798546	-9.8735066832318
388.61199951172	141.30801937338	-17.770104320829
389.61099243164	141.55490534337	-28.851457644168
390.60998535156	136.75872893929	-40.411910099216
391.60900878906	127.68218763928	-49.030996046957
392.60800170898	117.18585088439	-53.041097336817
393.60699462891	107.98406316601	-53.116608833771
394.60598754883	101.40576042423	-51.004814506818
395.60501098633	97.595810946692	-48.394906260150
396.60400390625	96.042296709077	-46.564530796204
397.60299682617	95.852289762636	-46.372095828705
398.60198974609	95.842344141290	-48.190190024943
399.60101318359	94.732814379542	-51.698527529447
400.60000610352	91.641259542237	-55.807680638144
