#Parameters = {C=5e-15; L=3e-08; a=4000; eps_eff=6; r_i=49.75; r_o=53.15; t=0.1}
#"Frequency / GHz"	"Z1,1 [Real/Imaginary Part] [Re]"	"Z1,1 [Real/Imaginary Part] [Im]"
#-------------------------------------------------------------------------------------
1.0000000000000	116.28087477339	-3159.7946330810
1.9989999532700	28.917999704362	-1582.1503749674
2.9979999065399	12.706260937573	-1054.9759870952
3.9969999790192	7.0299760244134	-791.17578027382
4.9959998130798	4.4033809957986	-632.81209425455
5.9949998855591	2.9771110439114	-527.18707844456
6.9939999580383	2.1186759390875	-451.70477297188
7.9930000305176	1.5625842806044	-395.06443170805
8.9919996261597	1.1829486635263	-350.98661152515
9.9910001754761	0.91261455193328	-315.70326601067
10.989999771118	0.71407512086167	-286.81619400769
11.989000320435	0.56442291103734	-262.72663010671
12.987999916077	0.44932786170453	-242.32758879333
13.987000465393	0.35925879565437	-224.82840955025
14.986000061035	0.28786636834025	-209.64919851156
15.984999656677	0.23072581367577	-196.35498786289
16.983999252319	0.18457425096054	-184.61329330968
17.982999801636	0.14706585180556	-174.16536727592
18.982000350952	0.11644428263101	-164.80701440043
19.981000900269	0.091444984461598	-156.37480503313
20.979999542236	0.071012578821827	-148.73652498814
21.979000091553	0.054331624539631	-141.78395966363
22.978000640869	0.040811992424207	-135.42770632452
23.976999282837	0.029895004355593	-129.59325881344
24.975999832153	0.021214707638480	-124.21803375294
25.975000381470	0.014388359452651	-119.24912129021
26.974000930786	0.0091474504890245	-114.64135794590
27.972999572754	0.0053101605258869	-110.35608706870
28.972000122070	0.0026111826107305	-106.36000929975
29.971000671387	0.00093813606483611	-102.62419209725
30.969999313354	9.9317293877808e-05	-99.123511724494
31.968999862671	-3.7026471136801e-06	-95.835933869004
32.967998504639	0.00053599931843939	-92.742085287120
33.966999053955	0.0015808407342016	-89.824917121715
34.965999603271	0.0030869942233618	-87.069273206426
35.965000152588	0.0049637629626145	-84.461707853880
36.964000701904	0.0071482846180916	-81.990245814562
37.963001251221	0.0095716368049337	-79.644148805979
38.962001800537	0.012198876377537	-77.413727154093
39.960998535156	0.014985194637900	-75.290354688225
40.959999084473	0.017855719387644	-73.266184554873
41.958999633789	0.020811581043585	-71.334148872440
42.958000183105	0.023810755672216	-69.487755643586
43.957000732422	0.026808069742598	-67.721223248301
44.956001281738	0.029782089209901	-66.029197610642
45.955001831055	0.032715522412885	-64.406777118961
46.953998565674	0.035585249665975	-62.849548189788
47.952999114990	0.038370266289499	-61.353387168715
48.951999664307	0.041051735143709	-59.914546546447
49.951000213623	0.043614640599638	-58.529586368660
50.950000762939	0.046061482742489	-57.195324242707
51.949001312256	0.048370052977533	-55.908766540655
52.948001861572	0.050535033397708	-54.667267546355
53.946998596191	0.052554133806044	-53.468251706420
54.945999145508	0.054427410427830	-52.309361596492
55.944999694824	0.056142492228881	-51.188464272648
56.944000244141	0.057707172841337	-50.103508565390
57.943000793457	0.059123505288067	-49.052636368863
58.942001342773	0.060388626030089	-48.034073446377
59.941001892090	0.061516425028094	-47.046189471927
60.939998626709	0.062503557846121	-46.087441930606
61.938999176025	0.063362682309109	-45.156413395696
62.937999725342	0.064095995747690	-44.251734901824
63.937000274658	0.064719312809407	-43.372166662066
64.935997009277	0.065238374288227	-42.516505656230
65.934997558594	0.065657875335090	-41.683665199940
66.933998107910	0.065991747573754	-40.872622553053
67.932998657227	0.066260085843864	-40.082337428670
68.931999206543	0.066462475364945	-39.311930527128
69.930999755859	0.066621871321010	-38.560528197856
70.930000305176	0.066740330352946	-37.827296931199
71.929000854492	0.066829605509271	-37.111477094474
72.928001403809	0.066907969378220	-36.412339277539
73.927001953125	0.066981183214621	-35.729171985298
74.926002502441	0.067067336755223	-35.061319789937
75.925003051758	0.067173747854281	-34.408214079097
76.924003601074	0.067305130311289	-33.769213092092
77.922996520996	0.067476901298725	-33.143806510756
78.921997070313	0.067699366765343	-32.531443283508
79.920997619629	0.067979343042050	-31.931633585260
80.919998168945	0.068326132762668	-31.343927327088
81.918998718262	0.068746578525289	-30.767812735456
82.917999267578	0.069242909321010	-30.202933199879
83.916999816895	0.069821339195436	-29.648852459924
84.916000366211	0.070493695135675	-29.105179898317
85.915000915527	0.071263417297618	-28.571563895227
86.914001464844	0.072125775280386	-28.047638268320
87.913002014160	0.073084511984618	-27.533078008485
88.912002563477	0.074146125485629	-27.027560621666
89.911003112793	0.075302967587820	-26.530776075280
90.910003662109	0.076564039977096	-26.042440352457
91.908996582031	0.077925353903741	-25.562277109672
92.907997131348	0.079386567832595	-25.090005591183
93.906997680664	0.080943901759044	-24.625384350821
94.905998229980	0.082596779625754	-24.168158954246
95.904998779297	0.084339319062388	-23.718102799860
96.903999328613	0.086175944808867	-23.274970870691
97.902999877930	0.088087888483361	-22.838559804213
98.902000427246	0.090080211190688	-22.408649200140
99.901000976563	0.092155413206143	-21.985055989253
100.90000152588	0.094294956030749	-21.567562277454
101.89900207520	0.096508212317330	-21.155998039112
102.89800262451	0.098777372730731	-20.750170505274
103.89700317383	0.10110995426593	-20.349918650147
104.89600372314	0.10349423782417	-19.955060017391
105.89499664307	0.10592879728835	-19.565430116096
106.89399719238	0.10840450449263	-19.180875877758
107.89299774170	0.11092534573786	-18.801250599336
108.89199829102	0.11349003336909	-18.426397264967
109.89099884033	0.11608449863630	-18.056167533679
110.88999938965	0.11871207796480	-17.690441663183
111.88899993896	0.12137532421461	-17.329075097200
112.88800048828	0.12407122438119	-16.971930223923
113.88700103760	0.12678957845581	-16.618895615559
114.88600158691	0.12953591055871	-16.269833704789
115.88500213623	0.13231673147888	-15.924637922998
116.88400268555	0.13512230783670	-15.583186857891
117.88300323486	0.13795579147565	-15.245365410167
118.88200378418	0.14081931664997	-14.911081919875
119.88099670410	0.14371436798777	-14.580226609066
120.87999725342	0.14664730332041	-14.252685500250
121.87899780273	0.14961608334388	-13.928373779068
122.87799835205	0.15262645591681	-13.607191862868
123.87699890137	0.15567830747859	-13.289050238640
124.87599945068	0.15878246222902	-12.973866606419
125.87500000000	0.16192901035287	-12.661543315461
126.87400054932	0.16514016075017	-12.351996734105
127.87300109863	0.16840833681823	-12.045161668489
128.87199401855	0.17173700833787	-11.740941591776
129.87100219727	0.17513551336616	-11.439280393516
130.86999511719	0.17861075102006	-11.140086992903
131.86900329590	0.18215776331975	-10.843309232741
132.86799621582	0.18579463218209	-10.548855838452
133.86700439453	0.18951482056424	-10.256689339703
134.86599731445	0.19332750696385	-9.9667246795655
135.86500549316	0.19723846978136	-9.6789070424398
136.86399841309	0.20124614427585	-9.3931744257483
137.86300659180	0.20536076684726	-9.1094678536657
138.86199951172	0.20958452583508	-8.8277489669022
139.86099243164	0.21391668653584	-8.5479327677138
140.86000061035	0.21836573086530	-8.2699843835302
141.85899353027	0.22292958467788	-7.9938523664060
142.85800170898	0.22761780369827	-7.7194782156791
143.85699462891	0.23242676215937	-7.4468229130504
144.85600280762	0.23735950260549	-7.1758305057726
145.85499572754	0.24241960343913	-6.9064518576386
146.85400390625	0.24760990538109	-6.6386504201589
147.85299682617	0.25292959616852	-6.3723791110649
148.85200500488	0.25837795327426	-6.1075949632772
149.85099792480	0.26396186281982	-5.8442478359317
150.85000610352	0.26967389064919	-5.5823060437939
151.84899902344	0.27552101313040	-5.3217219866433
152.84800720215	0.28150177250805	-5.0624475724632
153.84700012207	0.28761688253939	-4.8044598756610
154.84599304199	0.29386784531471	-4.5476989798492
155.84500122070	0.30025148469359	-4.2921425746585
156.84399414063	0.30677067097037	-4.0377512923858
157.84300231934	0.31342746913581	-3.7844671525934
158.84199523926	0.32021656063593	-3.5322752290920
159.84100341797	0.32714309468745	-3.2811305996494
160.83999633789	0.33420747884503	-3.0309951553689
161.83900451660	0.34140721471629	-2.7818242190062
162.83799743652	0.34874555626903	-2.5335982033594
163.83700561523	0.35622445743487	-2.2862625667609
164.83599853516	0.36384326548436	-2.0397976267511
165.83500671387	0.37160566728948	-1.7941662226014
166.83399963379	0.37950928945583	-1.5493203997866
167.83299255371	0.38756311095258	-1.3052357656793
168.83200073242	0.39576276944562	-1.0618761704186
169.83099365234	0.40411649671889	-0.81921792009148
170.83000183105	0.41262241666533	-0.57720745666992
171.82899475098	0.42128896091933	-0.33582734769604
172.82800292969	0.43011408565616	-0.095036462034554
173.82699584961	0.43910710712176	0.14518830814304
174.82600402832	0.44826930819529	0.38488777801862
175.82499694824	0.45760444129336	0.62409061571949
176.82400512695	0.46712193047097	0.86282554590425
177.82299804688	0.47682448612995	1.1011268454917
178.82200622559	0.48671602281032	1.3390231179161
179.82099914551	0.49680162187866	1.5765422511798
180.82000732422	0.50709313308667	1.8137190010207
181.81900024414	0.51758812889621	2.0505685397881
182.81799316406	0.52829920905789	2.2871436345229
183.81700134277	0.53923040139420	2.5234478054162
184.81599426270	0.55038690967828	2.7595208718557
185.81500244141	0.56178055850577	2.9953791861651
186.81399536133	0.57341489551504	3.2310685912608
187.81300354004	0.58529673476489	3.4666039090257
188.81199645996	0.59743411914106	3.7020138083985
189.81100463867	0.60983184817931	3.9373257664216
190.80999755859	0.62249853494496	4.1725612496521
191.80900573730	0.63544419663242	4.4077424297506
192.80799865723	0.64867200188293	4.6429028907681
193.80700683594	0.66219159298422	4.8780645398999
194.80599975586	0.67600846641247	5.1132541066327
195.80499267578	0.69013029599421	5.3484945010193
196.80400085449	0.70456805384185	5.5838078872297
197.80299377441	0.71932240848329	5.8192266150305
198.80200195313	0.73440518050170	6.0547681456851
199.80099487305	0.74982438747547	6.2904596285289
200.80000305176	0.76558733861259	6.5263242156546
201.79899597168	0.78169887742110	6.7623881802097
202.79800415039	0.79816461787565	6.9986687712766
203.79699707031	0.81499801046760	7.2352075870853
204.79600524902	0.83220714055675	7.4720132914670
205.79499816895	0.84979419134519	7.7091207058518
206.79400634766	0.86777058620358	7.9465603770856
207.79299926758	0.88614094232844	8.1843327340038
208.79200744629	0.90492043438816	8.4224883594631
209.79100036621	0.92411083058662	8.6610421555207
210.78999328613	0.94372502846264	8.9000306655982
211.78900146484	0.96377162539342	9.1394648176622
212.78799438477	0.98426325094719	9.3793870371920
213.78700256348	1.0052028804811	9.6198195640519
214.78599548340	1.0266022665295	9.8607804072154
215.78500366211	1.0484757934483	10.102299359900
216.78399658203	1.0708318323801	10.344420966052
217.78300476074	1.0936764784543	10.587153332825
218.78199768066	1.1170355482899	10.830538016677
219.78100585938	1.1409037877087	11.074594773222
220.77999877930	1.1653104695188	11.319366364296
221.77900695801	1.1902580246207	11.564868748301
222.77799987793	1.2157620096030	11.811133272324
223.77699279785	1.2418399008588	12.058199377588
224.77600097656	1.2685036054605	12.306085122120
225.77499389648	1.2957707841912	12.554831386226
226.77400207520	1.3236618484646	12.804467369891
227.77299499512	1.3521840113806	13.055012964339
228.77200317383	1.3813620271036	13.306519906149
229.77099609375	1.4112111241516	13.558999310272
230.77000427246	1.4417498145541	13.812499266628
231.76899719238	1.4729982741901	14.067035622352
232.76800537109	1.5049813186330	14.322664960712
233.76699829102	1.5377097574762	14.579398845955
234.76600646973	1.5712110025854	14.837279193621
235.76499938965	1.6055107964490	15.096326599513
236.76400756836	1.6406270893052	15.356598217449
237.76300048828	1.6765783227085	15.618107167884
238.76199340820	1.7134061560670	15.880896834694
239.76100158691	1.7511155431431	16.145001662660
240.75999450684	1.7897491783154	16.410461389354
241.75900268555	1.8293228454049	16.677295580250
242.75799560547	1.8698597309708	16.945548763869
243.75700378418	1.9114025906701	17.215258804407
244.75599670410	1.9539729681432	17.486462035096
245.75500488281	1.9975995799859	17.759196266037
246.75399780273	2.0423210026429	18.033500820989
247.75300598145	2.0881598242332	18.309391419171
248.75199890137	2.1351513224358	18.586942978693
249.75100708008	2.1833269474116	18.866165209060
250.75000000000	2.2327290985354	19.147112373983
251.74899291992	2.2833847106063	19.429817008395
252.74800109863	2.3353286594754	19.714313572109
253.74699401855	2.3886121072961	20.000666233141
254.74600219727	2.4432650709277	20.288901377455
255.74499511719	2.4993303245094	20.579053959237
256.74398803711	2.5568449519888	20.871182279192
257.74301147461	2.6158572916203	21.165324581783
258.74200439453	2.6764107840163	21.461522329369
259.74099731445	2.7385478982084	21.759829601475
260.73999023438	2.8023249671266	22.060284480956
261.73901367188	2.8677796242912	22.362939182905
262.73800659180	2.9349648297368	22.667850629131
263.73699951172	3.0039378965405	22.975040049832
264.73599243164	3.0747569665597	23.284586668609
265.73498535156	3.1474763433759	23.596530961111
266.73400878906	3.2221414532205	23.910914420529
267.73300170898	3.2988281106837	24.227815092102
268.73199462891	3.3775962574153	24.547261956722
269.73098754883	3.4585149919761	24.869321167242
270.73001098633	3.5416382554735	25.194043593574
271.72900390625	3.6270542218050	25.521493984279
272.72799682617	3.7148275074723	25.851723714660
273.72698974609	3.8050400913840	26.184793843508
274.72601318359	3.8977534595000	26.520751226657
275.72500610352	3.9930783604319	26.859686898120
276.72399902344	4.0910777713070	27.201620095049
277.72299194336	4.1918558084555	27.546654208640
278.72198486328	4.2954913905380	27.894827155730
279.72100830078	4.4020993481281	28.246210938226
280.72000122070	4.5117621364660	28.600871087609
281.71899414063	4.6245901617050	28.958865872084
282.71798706055	4.7406985175452	29.320275995671
283.71701049805	4.8601964480411	29.685160768633
284.71600341797	4.9831986479082	30.053586062996
285.71499633789	5.1098271268049	30.425605316484
286.71398925781	5.2402130773190	30.801328513393
287.71301269531	5.3744952028803	31.180795354365
288.71200561523	5.5127978415346	31.564071875742
289.71099853516	5.6552730065656	31.951247948357
290.70999145508	5.8020694066977	32.342384472009
291.70901489258	5.9533429375176	32.737553600945
292.70800781250	6.1092502989639	33.136822524114
293.70700073242	6.2699741218698	33.540277248349
294.70599365234	6.4356726480359	33.947972308594
295.70498657227	6.6065457740622	34.359997892002
296.70401000977	6.7827750335073	34.776410295047
297.70300292969	6.9645580746449	35.197284981211
298.70199584961	7.1521053051970	35.622698477946
299.70098876953	7.3456277589993	36.052708072334
300.70001220703	7.5453622129514	36.487395301679
301.69900512695	7.7515319933904	36.926835314046
302.69799804688	7.9643804829944	37.371074478514
303.69699096680	8.1841660755292	37.820190143606
304.69601440430	8.4111545294495	38.274239409433
305.69500732422	8.6456275639460	38.733297478905
306.69400024414	8.8878659500714	39.197410123852
307.69299316406	9.1381661825136	39.666637586225
308.69198608398	9.3968617823877	40.141050239092
309.69100952148	9.6642566345625	40.620665900797
310.69000244141	9.9407088796031	41.105549276599
311.68899536133	10.226563801131	41.595733586932
312.68798828125	10.522205098195	42.091262673341
313.68701171875	10.828013314347	42.592178298346
314.68600463867	11.144394234236	43.098471408956
315.68499755859	11.471772952125	43.610175916837
316.68399047852	11.810593245264	44.127308018653
317.68301391602	12.161307648718	44.649852992540
318.68200683594	12.524400209514	45.177805886293
319.68099975586	12.900379294735	45.711146072673
320.67999267578	13.289766418110	46.249832295449
321.67898559570	13.693099643184	46.793809480796
322.67800903320	14.110951525368	47.343037937026
323.67700195313	14.543917686456	47.897412891159
324.67599487305	14.992613194555	48.456835184683
325.67498779297	15.457687351419	49.021205309069
326.67401123047	15.939805862094	49.590342187006
327.67300415039	16.439683392730	50.164130375354
328.67199707031	16.958031844332	50.742322453325
329.67098999023	17.495614666235	51.324721854261
330.67001342773	18.053222118695	51.911059053684
331.66900634766	18.631677269900	52.501053249303
332.66799926758	19.231816789424	53.094372686317
333.66699218750	19.854523610838	53.690611999068
334.66598510742	20.500724100023	54.289377012695
335.66500854492	21.171354553353	54.890174469388
336.66400146484	21.867393212678	55.492492777962
337.66299438477	22.589832475091	56.095731666404
338.66198730469	23.339740561290	56.699235748504
339.66101074219	24.118172211465	57.302263962284
340.66000366211	24.926210154371	57.904036829827
341.65899658203	25.765004962535	58.503655367830
342.65798950195	26.635676047544	59.100121975766
343.65701293945	27.539399717422	59.692365542458
344.65600585938	28.477374877146	60.279218030225
345.65499877930	29.450792282139	60.859375494387
346.65399169922	30.460844624187	61.431407239807
347.65301513672	31.508755175205	61.993781708871
348.65200805664	32.595721454035	62.544790106324
349.65100097656	33.722935683230	63.082622069876
350.64999389648	34.891533015555	63.605258856598
351.64898681641	36.102670573298	64.110563935026
352.64801025391	37.357411171773	64.596177349012
353.64700317383	38.656774608950	65.059616636309
354.64599609375	40.001682983524	65.498143035048
355.64498901367	41.392956286981	65.908829165061
356.64401245117	42.831344351495	66.288613134000
357.64300537109	44.317375814009	66.634090520901
358.64199829102	45.851469196364	66.941788387310
359.64099121094	47.433816507448	67.207905171911
360.64001464844	49.064388129361	67.428487287083
361.63900756836	50.742908312875	67.599334466669
362.63800048828	52.468734797946	67.716022554436
363.63699340820	54.241047711435	67.774054663211
364.63598632813	56.058479874198	67.768598684175
365.63500976563	57.919324655197	67.694769736583
366.63400268555	59.821487834011	67.547571364782
367.63299560547	61.762253277841	67.321825986556
368.63198852539	63.738510393138	67.012425260432
369.63101196289	65.746439130348	66.614182119189
370.63000488281	67.781803435290	66.122004208846
371.62899780273	69.839544048563	65.530943589554
372.62799072266	71.914041375716	64.836220646284
373.62701416016	73.999068787676	64.033368440400
374.62600708008	76.087637826308	63.118311807628
375.62500000000	78.172236152721	62.087397466890
376.62399291992	80.244499065369	60.937591749624
377.62298583984	82.295686021078	59.666495322202
378.62200927734	84.316442891803	58.272503251923
379.62100219727	86.296893809889	56.754884766840
380.61999511719	88.226987339842	55.113830767445
381.61898803711	90.096047670726	53.350622067359
382.61801147461	91.893689106834	51.467588194810
383.61700439453	93.609257875831	49.468271912291
384.61599731445	95.232279078281	47.357366765748
385.61499023438	96.752683577467	45.140787910270
386.61401367188	98.160815160323	42.825584384519
387.61300659180	99.447665456119	40.419937909125
388.61199951172	100.60507106088	37.933113275147
389.61099243164	101.62580077331	35.375278347843
390.60998535156	102.50368277512	32.757447468527
391.60900878906	103.23379304821	30.091298876323
392.60800170898	103.81246752333	27.389034737375
393.60699462891	104.23738515924	24.663171316173
394.60598754883	104.50762217350	21.926368574009
395.60501098633	104.62361267162	19.191247313042
396.60400390625	104.58715113909	16.470202058714
397.60299682617	104.40132708612	13.775222841541
398.60198974609	104.07038351009	11.117730161866
399.60101318359	103.59973150078	8.5084499485337
400.60000610352	102.99568381584	5.9572855789553
