#Parameters = {Z=50; d_bond=150; eps_eff=6; h_bond=180; l_bond=700; l_f=4971; p1=175; p2=250; r_bond=25; t=0.1; w=24}
#"Frequency / GHz"	"Z4,4 [Real/Imaginary Part] [Re]"	"Z4,4 [Real/Imaginary Part] [Im]"
#-------------------------------------------------------------------------------------
1.0000000000000	640.67268063601	-3356.9834478171
1.9989999532700	90.737330482284	-1694.2817005194
2.9979999065399	10.562512268523	-1099.5872652482
3.9969999790192	0.0011738215302946	-804.02609291260
4.9959998130798	4.1532601062562	-633.66680206390
5.9949998855591	9.3127998706052	-526.38181281998
6.9939999580383	11.540625424595	-453.78949141222
7.9930000305176	10.327134374653	-400.73394218525
8.9919996261597	6.9032591865865	-358.56176323880
9.9910001754761	3.2303787834556	-322.77986837459
10.989999771118	0.86146803117510	-291.73609519512
11.989000320435	0.24364928614419	-265.18160446784
12.987999916077	0.87476955416639	-243.05275231652
13.987000465393	1.8872474150645	-224.92003882847
14.986000061035	2.5420541122071	-209.96675925209
15.984999656677	2.4963741621801	-197.19565469843
16.983999252319	1.8639247617104	-185.71414926973
17.982999801636	1.0622981687297	-174.98925516508
18.982000350952	0.51474186856158	-164.91861199407
19.981000900269	0.40618135051614	-155.66842778771
20.979999542236	0.63924632017386	-147.42002633797
21.979000091553	0.95726980472883	-140.19732381378
22.978000640869	1.1139726771810	-133.83188754387
23.976999282837	1.0027781943912	-128.03834787766
24.975999832153	0.69656253260510	-122.54840317605
25.975000381470	0.38096809198431	-117.22903204716
26.974000930786	0.22663551530576	-112.11109714769
27.972999572754	0.29054003357747	-107.31855407694
28.972000122070	0.50217901590262	-102.96086614579
29.971000671387	0.72144957863368	-99.057933267786
30.969999313354	0.82197322353040	-95.526204516265
31.968999862671	0.75683853604222	-92.221423784916
32.967998504639	0.57520813114603	-89.012316104766
33.966999053955	0.38221919423949	-85.841593850987
34.965999603271	0.27025602378562	-82.736828042194
35.965000152588	0.26937644012182	-79.770230217530
36.964000701904	0.34347972748836	-77.001532048063
37.963001251221	0.42448415811781	-74.440448373203
38.962001800537	0.45831371557794	-72.044799600328
39.960998535156	0.43554876366668	-69.750095734791
40.959999084473	0.39053416697213	-67.509733814092
41.958999633789	0.37181019025055	-65.320228174983
42.958000183105	0.40584131568457	-63.214614358277
43.957000732422	0.47834720808021	-61.233470120418
44.956001281738	0.54302220007520	-59.392075417921
45.955001831055	0.55057888696844	-57.664600182189
46.953998565674	0.48047324010999	-55.994066116285
47.952999114990	0.35604619715557	-54.322531698835
48.951999664307	0.23238560426375	-52.623426698176
49.951000213623	0.16489569428990	-50.914187973548
50.950000762939	0.17972482460867	-49.243004736203
51.949001312256	0.26284794482218	-47.660419771103
52.948001861572	0.37071627106059	-46.193181077369
53.946998596191	0.45421492686935	-44.832347446529
54.945999145508	0.48343627285256	-43.540543788457
55.944999694824	0.46025700816751	-42.273615536712
56.944000244141	0.41185982833070	-41.003849782371
57.943000793457	0.37055754643228	-39.730531868280
58.942001342773	0.35418452654128	-38.472404747222
59.941001892090	0.35942357541263	-37.249983985136
60.939998626709	0.36992263172870	-36.070464208212
61.938999176025	0.37181608364471	-34.924260254032
62.937999725342	0.36530592657785	-33.794443089700
63.937000274658	0.36494945677976	-32.670759538302
64.935997009277	0.38931819590161	-31.558901203681
65.934997558594	0.44733318863901	-30.478995245337
66.933998107910	0.52953664679337	-29.454815744130
67.932998657227	0.60929161403842	-28.499270422053
68.931999206543	0.65412856362202	-27.603931819272
69.930999755859	0.64227837000768	-26.739076918895
70.930000305176	0.57562138788264	-25.865718668694
71.929000854492	0.48053207947310	-24.954190710835
72.928001403809	0.39532869827370	-23.998035777463
73.927001953125	0.35245615169864	-23.014982126567
74.926002502441	0.36581911280121	-22.036684439256
75.925003051758	0.42819048718900	-21.094382333983
76.924003601074	0.51724361770081	-20.207562726068
77.922996520996	0.60590529502268	-19.379120885312
78.921997070313	0.67240811183579	-18.597448231637
79.920997619629	0.70620657435235	-17.843504155705
80.919998168945	0.70811438693595	-17.098655093121
81.918998718262	0.68622090406758	-16.349755084363
82.917999267578	0.65108803298976	-15.590120652945
83.916999816895	0.61271292688316	-14.817937811631
84.916000366211	0.57979488669975	-14.034479530300
85.915000915527	0.55966402814759	-13.243613979876
86.914001464844	0.55762187512163	-12.451697981406
87.913002014160	0.57558694627493	-11.666854566476
88.912002563477	0.61130248699813	-10.897050670203
89.911003112793	0.65908264536088	-10.147674180124
90.910003662109	0.71210987001755	-9.4202729929994
91.908996582031	0.76493470357799	-8.7132587602629
92.907997131348	0.81452420487629	-8.0241416206542
93.906997680664	0.85903327266612	-7.3516058544776
94.905998229980	0.89537726396446	-6.6954075907487
95.904998779297	0.91778228424814	-6.0539247814389
96.903999328613	0.91927906648816	-5.4207675955664
97.902999877930	0.89626408946519	-4.7834070097189
98.902000427246	0.85363683557146	-4.1260913176136
99.901000976563	0.80677552316204	-3.4366299137721
100.90000152588	0.77797600824036	-2.7135690582088
101.89900207520	0.78830866928507	-1.9696325435334
102.89800262451	0.84856938723122	-1.2289848459620
103.89700317383	0.95364038121209	-0.51905380600476
104.89600372314	1.0829595373090	0.13971514283464
105.89499664307	1.2074351467630	0.74207864030813
106.89399719238	1.3001598457706	1.3001682648011
107.89299774170	1.3461179176629	1.8384974560730
108.89199829102	1.3463241543990	2.3842549291891
109.89099884033	1.3150540375956	2.9580765785051
110.88999938965	1.2728724898742	3.5693222086599
111.88899993896	1.2398401705241	4.2165824842917
112.88800048828	1.2316864935209	4.8909971041894
113.88700103760	1.2588918057255	5.5793008554649
114.88600158691	1.3266016366709	6.2651417578990
115.88500213623	1.4333179394108	6.9298523658199
116.88400268555	1.5684545359028	7.5546624220661
117.88300323486	1.7107988168631	8.1260767936344
118.88200378418	1.8312749911536	8.6431034882557
119.88099670410	1.9014872250984	9.1224769740408
120.87999725342	1.9056104102588	9.5969093828211
121.87899780273	1.8494604935538	10.104694927954
122.87799835205	1.7604528309601	10.674956853324
123.87699890137	1.6777942927565	11.316217619991
124.87599945068	1.6379258425577	12.013829267660
125.87500000000	1.6621381851527	12.736678609719
126.87400054932	1.7509957202053	13.449219176764
127.87300109863	1.8869291596111	14.123641412178
128.87199401855	2.0430943983692	14.747544558265
129.87100219727	2.1940398259222	15.324009722435
130.86999511719	2.3226089310688	15.865570961693
131.86900329590	2.4203295040537	16.386931809300
132.86799621582	2.4834963746639	16.901640871829
133.86700439453	2.5105042962336	17.423885118506
134.86599731445	2.5040064373663	17.971117702828
135.86500549316	2.4762644097718	18.562383228703
136.86399841309	2.4521496191531	19.210682393829
137.86300659180	2.4650044224964	19.913190081226
138.86199951172	2.5449177574143	20.645696004622
139.86099243164	2.7039361293355	21.366282138064
140.86000061035	2.9254398129818	22.029602932273
141.85899353027	3.1652008971684	22.607359141365
142.85800170898	3.3678229382765	23.105186683567
143.85699462891	3.4928661882184	23.563725993951
144.85600280762	3.5356165950037	24.039884681011
145.85499572754	3.5282696971720	24.578035976712
146.85400390625	3.5206257167501	25.189486889516
147.85299682617	3.5528625871875	25.851301979556
148.85200500488	3.6359665806029	26.523917703633
149.85099792480	3.7502547045524	27.177027052936
150.85000610352	3.8629203660711	27.808671242200
151.84899902344	3.9549118642370	28.445401488406
152.84800720215	4.0395917314116	29.121313237434
153.84700012207	4.1592651961326	29.848631764250
154.84599304199	4.3600297903689	30.599244241317
155.84500122070	4.6581778981154	31.309393174381
156.84399414063	5.0166900573498	31.909484172655
157.84300231934	5.3487837828795	32.367188175686
158.84199523926	5.5557012275846	32.720103692498
159.84100341797	5.5824964875067	33.070928286130
160.83999633789	5.4551558913558	33.540631225156
161.83900451660	5.2730620923708	34.209037305606
162.83799743652	5.1651326888170	35.078662961833
163.83700561523	5.2373521052071	36.074483554682
164.83599853516	5.5323110968161	37.071951812999
165.83500671387	6.0102478779631	37.942728388997
166.83399963379	6.5600293622330	38.606743874015
167.83299255371	7.0441899668565	39.069514532358
168.83200073242	7.3614618282197	39.419407716907
169.83099365234	7.4897162330268	39.781196077606
170.83000183105	7.4831990599970	40.256634547506
171.82899475098	7.4339277030679	40.888760836647
172.82800292969	7.4277670239145	41.662153306670
173.82699584961	7.5175268075401	42.526130212666
174.82600402832	7.7180806453688	43.422743745669
175.82499694824	8.0173650295289	44.306274750882
176.82400512695	8.3925584570778	45.148849549301
177.82299804688	8.8211508216780	45.934756779117
178.82200622559	9.2814719713757	46.651893659223
179.82099914551	9.7459281470975	47.289878946147
180.82000732422	10.176087606227	47.848023239066
181.81900024414	10.528202753371	48.347325121776
182.81799316406	10.769505893422	48.835953802919
183.81700134277	10.896781161894	49.380289431904
184.81599426270	10.945172973003	50.044264165711
185.81500244141	10.981802779280	50.866864993082
186.81399536133	11.087907805020	51.848141086345
187.81300354004	11.337122803288	52.946878483488
188.81199645996	11.776184081816	54.088496528300
189.81100463867	12.410717927990	55.180661044544
190.80999755859	13.198562296057	56.134769739616
191.80900573730	14.053714594715	56.890858678138
192.80799865723	14.864608805615	57.440569759030
193.80700683594	15.525635490188	57.837823360275
194.80599975586	15.972541559522	58.188739285681
195.80499267578	16.206501829484	58.621142052836
196.80400085449	16.295764430899	59.245518740270
197.80299377441	16.355817349799	60.123208514419
198.80200195313	16.518071705910	61.250913393077
199.80099487305	16.897288154280	62.561896314001
200.80000305176	17.563707997887	63.940725787634
201.79899597168	18.523423774041	65.249178263114
202.79800415039	19.712331928884	66.360855676554
203.79699707031	21.009585435078	67.197456814628
204.79600524902	22.271184821398	67.752984562158
205.79499816895	23.372107666900	68.094323214528
206.79400634766	24.239423073302	68.338002484701
207.79299926758	24.865231688739	68.616437124908
208.79200744629	25.301654874833	69.047752367869
209.79100036621	25.647083206603	69.714817925591
210.78999328613	26.029776436474	70.650640897258
211.78900146484	26.587852278290	71.826727676209
212.78799438477	27.441849724122	73.145933692696
213.78700256348	28.657312770155	74.447418030118
214.78599548340	30.203790000334	75.536279202690
215.78500366211	31.931047591498	76.246761701269
216.78399658203	33.594739162712	76.524568872503
217.78300476074	34.946109323525	76.481673706095
218.78199768066	35.847903065731	76.370792627263
219.78100585938	36.342331310551	76.481745719832
220.77999877930	36.629730365525	77.024440808248
221.77900695801	36.986126440526	78.061924982709
222.77799987793	37.673056440504	79.505755132716
223.77699279785	38.869408575492	81.150683474263
224.77600097656	40.628286119138	82.729679522153
225.77499389648	42.860344036426	83.982979725617
226.77400207520	45.353532035615	84.733312764349
227.77299499512	47.836084321775	84.942456029247
228.77200317383	50.064291323329	84.720133278706
229.77099609375	51.895477405961	84.278660552744
230.77000427246	53.316457958174	83.860401709979
231.76899719238	54.429369954673	83.673514354938
232.76800537109	55.416732008864	83.851815841300
233.76699829102	56.504023975063	84.434785098310
234.76600646973	57.923070983212	85.356774201839
235.76499938965	59.870437078161	86.442497753244
236.76400756836	62.454236140133	87.416053923243
237.76300048828	65.633030543190	87.941252334771
238.76199340820	69.171607005172	87.710469632762
239.76100158691	72.661440175243	86.572874003647
240.75999450684	75.641248644216	84.641077034458
241.75900268555	77.782698160520	82.288244264313
242.75799560547	79.030254447880	80.009691707019
243.75700378418	79.607008563287	78.232641565278
244.75599670410	79.907070399640	77.186983425721
245.75500488281	80.362445128452	76.875072891016
246.75399780273	81.344654671045	77.102939184119
247.75300598145	83.101395738559	77.525523100950
248.75199890137	85.700687832430	77.695410756360
249.75100708008	88.969839839822	77.141007236577
250.75000000000	92.464148270472	75.508592141184
251.74899291992	95.546338857522	72.750689691869
252.74800109863	97.626159404230	69.241521125995
253.74699401855	98.458452895210	65.671215941179
254.74600219727	98.278024442233	62.734549914672
255.74499511719	97.670768245525	60.829410011952
256.74398803711	97.310096641591	59.944506642016
257.74301147461	97.733962434229	59.718417530160
258.74200439453	99.212125702169	59.563677149776
259.74099731445	101.66578791332	58.810050827183
260.73999023438	104.63049766178	56.894923487578
261.73901367188	107.33934766164	53.608275836341
262.73800659180	109.00631238029	49.269074790113
263.73699951172	109.21132945409	44.633186569823
264.73599243164	108.09867180951	40.520447200951
265.73498535156	106.23079323349	37.438861235425
266.73400878906	104.26579422403	35.460881370803
267.73300170898	102.70919162821	34.329443783423
268.73199462891	101.82102823686	33.631413120335
269.73098754883	101.62291576787	32.936707055975
270.73001098633	101.94265471939	31.891929293504
271.72900390625	102.47508922850	30.286612870575
272.72799682617	102.86377226129	28.095493320681
273.72698974609	102.80078368293	25.479626280487
274.72601318359	102.11747024798	22.730850787724
275.72500610352	100.82750038391	20.172812633884
276.72399902344	99.104381226873	18.060062459621
277.72299194336	97.212180818407	16.515516572860
278.72198486328	95.426351733813	15.518012354123
279.72100830078	93.971742050200	14.925012375781
280.72000122070	92.982926149375	14.509441653729
281.71899414063	92.478419856840	14.000376039483
282.71798706055	92.342632704316	13.131625226677
283.71701049805	92.322727893545	11.708011089267
284.71600341797	92.064786305837	9.6871546236458
285.71499633789	91.213461438942	7.2426140766275
286.71398925781	89.558064321743	4.7472179697167
287.71301269531	87.144598890144	2.6450242003463
288.71200561523	84.266899308350	1.2705931858653
289.71099853516	81.337958392210	0.72866267705479
290.70999145508	78.732351873289	0.89208854997622
291.70901489258	76.682488112668	1.4828390773110
292.70800781250	75.244341930049	2.1722586247033
293.70700073242	74.309045717511	2.6680783227849
294.70599365234	73.643503971952	2.7855846502625
295.70498657227	72.961889057732	2.4985891011821
296.70401000977	72.024628409944	1.9464771270422
297.70300292969	70.730087169536	1.3741934214877
298.70199584961	69.145711748683	1.0226241257180
299.70098876953	67.458689380881	1.0300917913651
300.70001220703	65.883700172025	1.3962971628166
301.69900512695	64.583641154288	2.0089320728835
302.69799804688	63.630636061416	2.6989186782146
303.69699096680	63.002475015879	3.2942744115804
304.69601440430	62.599714919861	3.6612461990470
305.69500732422	62.274145452549	3.7321159213140
306.69400024414	61.865095896550	3.5192123099572
307.69299316406	61.239594334345	3.1115219087353
308.69198608398	60.327507808350	2.6510512015143
309.69100952148	59.139737170810	2.2928882143864
310.69000244141	57.761628106070	2.1615478259631
311.68899536133	56.324252325394	2.3191713918280
312.68798828125	54.965631692732	2.7551345543507
313.68701171875	53.795583054693	3.3963168278968
314.68600463867	52.872368547163	4.1305936577686
315.68499755859	52.192962219229	4.8358114614021
316.68399047852	51.696261345099	5.4093028089462
317.68301391602	51.279183450082	5.7939745557501
318.68200683594	50.825256495908	5.9948007929635
319.68099975586	50.240313784159	6.0777428769104
320.67999267578	49.482954205817	6.1473329189900
321.67898559570	48.575924514445	6.3099377907478
322.67800903320	47.593435272834	6.6386557536829
323.67700195313	46.632461063765	7.1541972322192
324.67599487305	45.782072438800	7.8254079210827
325.67498779297	45.101110796910	8.5836508309640
326.67401123047	44.606947275560	9.3430125699231
327.67300415039	44.273944556162	10.021204005144
328.67199707031	44.040214978566	10.558838244475
329.67098999023	43.822569253074	10.934699838463
330.67001342773	43.538641648115	11.172569042627
331.66900634766	43.131137960783	11.334843404151
332.66799926758	42.585053228312	11.502485987636
333.66699218750	41.929695296348	11.748303277963
334.66598510742	41.224695975032	12.115085235401
335.66500854492	40.537445845504	12.607112002644
336.66400146484	39.922315188474	13.195794488064
337.66299438477	39.408432756616	13.833912735459
338.66198730469	38.997548557424	14.471512146909
339.66101074219	38.669407751282	15.068328134020
340.66000366211	38.390804031867	15.600468755837
341.65899658203	38.124581406901	16.061823030265
342.65798950195	37.836521024461	16.462221885075
343.65701293945	37.500232687898	16.824599023156
344.65600585938	37.101531329256	17.181747340359
345.65499877930	36.642749913980	17.571274103752
346.65399169922	36.145487311982	18.027385711026
347.65301513672	35.648384589839	18.570265066969
348.65200805664	35.198256259088	19.196893622924
349.65100097656	34.835882958202	19.877913570894
350.64999389648	34.580895222334	20.563529383366
351.64898681641	34.421598656934	21.198257466962
352.64801025391	34.315032915658	21.740812804176
353.64700317383	34.200012733432	22.181800674762
354.64599609375	34.020287154672	22.550205113368
355.64498901367	33.747968999698	22.903049300532
356.64401245117	33.394954076479	23.301524071687
357.64300537109	33.005917512914	23.785725872202
358.64199829102	32.637555900365	24.360703666659
359.64099121094	32.335393494669	24.998735293011
360.64001464844	32.118556539271	25.654170957591
361.63900756836	31.976965539760	26.282543234119
362.63800048828	31.879819820775	26.855981929144
363.63699340820	31.790209015048	27.369514072958
364.63598632813	31.678643648339	27.837327431529
365.63500976563	31.530021014095	28.283009775569
366.63400268555	31.342610851689	28.729915077615
367.63299560547	31.122873249773	29.196501460374
368.63198852539	30.881203484965	29.696579911725
369.63101196289	30.631246872520	30.240960935990
370.63000488281	30.391420732372	30.836612054921
371.62899780273	30.185166843428	31.482735267360
372.62799072266	30.036603596486	32.166053476757
373.62701416016	29.962363754254	32.859732862987
374.62600708008	29.963017003648	33.528655058546
375.62500000000	30.018872012243	34.140333018730
376.62399291992	30.093922416454	34.677403883845
377.62298583984	30.147904274594	35.145652970244
378.62200927734	30.151211310344	35.572206195375
379.62100219727	30.095448582732	35.994479890513
380.61999511719	29.993954262004	36.445259021169
381.61898803711	29.873313996384	36.941934136324
382.61801147461	29.761157825435	37.483855111883
383.61700439453	29.676476995314	38.057600452179
384.61599731445	29.626334809281	38.645696574474
385.61499023438	29.608679518104	39.233683238446
386.61401367188	29.617590075203	39.812367287652
387.61300659180	29.646857875597	40.376023190120
388.61199951172	29.689931515930	40.919807258343
389.61099243164	29.737387409368	41.439596697055
390.60998535156	29.775753658749	41.935299106022
391.60900878906	29.789988855949	42.415103708610
392.60800170898	29.769719027457	42.897133555670
393.60699462891	29.716409927210	43.405763321185
394.60598754883	29.646761710072	43.962863444866
395.60501098633	29.589141324642	44.577990723373
396.60400390625	29.574104440041	45.242804080058
397.60299682617	29.623104854505	45.932590457385
398.60198974609	29.740485302751	46.614483733403
399.60101318359	29.911617169679	47.258617395908
400.60000610352	30.108286924126	47.848468459073
401.59899902344	30.298698199868	48.385811924071
402.59799194336	30.458220614982	48.888830380971
403.59698486328	30.576492671839	49.384785640187
404.59600830078	30.658693047035	49.900776724411
405.59500122070	30.722033020165	50.456487586759
