#Parameters = {t=0.1; a=2000; R=8000; C=3e-15; ep_eff=6}
#"Frequency / GHz"	"Z1,1 [Real/Imaginary Part] [Re]"	"Z1,1 [Real/Imaginary Part] [Im]"
#-------------------------------------------------------------------------------------
1.0000000000000	0.00064782972930351	-1264.9072393313
1.9989999532700	0.54919537811245	-632.03735344269
2.9979999065399	0.64798729898791	-420.61381984328
3.9969999790192	0.67874836823758	-314.63059809818
4.9959998130798	0.68883125044282	-250.83560510681
5.9949998855591	0.68975156312623	-208.13766125523
6.9939999580383	0.68553779288520	-177.49582222968
7.9930000305176	0.67786778365811	-154.38892336066
8.9919996261597	0.66748766242821	-136.30481793716
9.9910001754761	0.65476641377766	-121.73603072360
10.989999771118	0.64001795202062	-109.72308108510
11.989000320435	0.62334785602949	-99.626159771252
12.987999916077	0.60486294073793	-91.002219283634
13.987000465393	0.58469618782531	-83.534620386526
14.986000061035	0.56295734519332	-76.991108966990
15.984999656677	0.53977494436055	-71.197333861932
16.983999252319	0.51532684450492	-66.019862736694
17.982999801636	0.48980071725796	-61.354859409721
18.982000350952	0.46342291755195	-57.120229412551
19.981000900269	0.43645233609892	-53.250256341804
20.979999542236	0.40920484305753	-49.691620348485
21.979000091553	0.38203349794460	-46.400681485674
22.978000640869	0.35531379511458	-43.341363254262
23.976999282837	0.32946709603189	-40.483538742544
24.975999832153	0.30494761841594	-37.801876077960
25.975000381470	0.28222681158029	-35.274987360731
26.974000930786	0.26181036914637	-32.884611104766
27.972999572754	0.24421571867940	-30.615144520549
28.972000122070	0.22996244361882	-28.453131027074
29.971000671387	0.21958500952804	-26.386985384579
30.969999313354	0.21359717520532	-24.406608260151
31.968999862671	0.21251467670757	-22.503244855822
32.967998504639	0.21681947372114	-20.669237469688
33.966999053955	0.22698773894466	-18.897904889911
34.965999603271	0.24344296234058	-17.183352698864
35.965000152588	0.26656671321933	-15.520404915583
36.964000701904	0.29670642507205	-13.904506616359
37.963001251221	0.33415387860561	-12.331620826146
38.962001800537	0.37912808221651	-10.798151914551
39.960998535156	0.43179342845805	-9.3009202683171
40.959999084473	0.49224590604149	-7.8370425508765
41.958999633789	0.56049660823668	-6.4039498645297
42.958000183105	0.63648425136598	-4.9992768775268
43.957000732422	0.72006903184945	-3.6208586768718
44.956001281738	0.81102198518012	-2.2666446542974
45.955001831055	0.90905433392977	-0.93470099520758
46.953998565674	1.0137941738575	0.37686125559685
47.952999114990	1.1248162132564	1.6699385928084
48.951999664307	1.2416575951438	2.9464283962173
49.951000213623	1.3638362387339	4.2083050974973
50.950000762939	1.4908801562549	5.4576433128540
51.949001312256	1.6223471266436	6.6966507913895
52.948001861572	1.7578953063201	7.9276713130249
53.946998596191	1.8973052676794	9.1532558357598
54.945999145508	2.0405328507458	10.376095371625
55.944999694824	2.1877583148050	11.599093728697
56.944000244141	2.3394443045421	12.825321193640
57.943000793457	2.4963993799015	14.058008603745
58.942001342773	2.6598093712288	15.300533600256
59.941001892090	2.8313037021712	16.556393910219
60.939998626709	3.0129953754257	17.829123386269
61.938999176025	3.2075507277140	19.122330284925
62.937999725342	3.4182017867305	20.439583766896
63.937000274658	3.6488225905244	21.784402287370
64.935997009277	3.9039591622847	23.160168544847
65.934997558594	4.1888928347577	24.570098259633
66.933998107910	4.5097099922332	26.017135904424
67.932998657227	4.8733491485055	27.503875152576
68.931999206543	5.2876933976251	29.032493903184
69.930999755859	5.7616522751658	30.604525817606
70.930000305176	6.3052576821078	32.220787826964
71.929000854492	6.9297384690737	33.881089150068
72.928001403809	7.6476364617809	35.583994526178
73.927001953125	8.4728170567292	37.326408590225
74.926002502441	9.4205261388507	39.103175486868
75.925003051758	10.507293735503	40.906509736673
76.924003601074	11.750741439135	42.725367793156
77.922996520996	13.169216405487	44.544633975860
78.921997070313	14.781170999988	46.344327987333
79.920997619629	16.604144282659	48.098731091987
80.919998168945	18.653388569333	49.775609216462
81.918998718262	20.939966736338	51.335737233244
82.917999267578	23.468304716687	52.732757678419
83.916999816895	26.233269100774	53.913997822222
84.916000366211	29.217151519300	54.822346170179
85.915000915527	32.386567914365	55.399360658479
86.914001464844	35.690685343820	55.590383252022
87.913002014160	39.060590687261	55.350309010757
88.912002563477	42.411724243892	54.650678922711
89.911003112793	45.648615285843	53.485608979064
90.910003662109	48.673071433045	51.876318286150
91.908996582031	51.393571695063	49.871749364685
92.907997131348	53.734988681100	47.545424831289
93.906997680664	55.646218769017	44.988381222778
94.905998229980	57.104271040905	42.299662746189
95.904998779297	58.114214746190	39.576268814401
96.903999328613	58.705182011981	36.904553539753
97.902999877930	58.924172157323	34.354362993428
98.902000427246	58.828728608175	31.976258294550
99.901000976563	58.480072001287	29.801609659735
100.90000152588	57.937654164364	27.844696556237
101.89900207520	57.255369983234	26.105932370186
102.89800262451	56.479249536805	24.575453346495
103.89700317383	55.646647006516	23.236490845325
104.89600372314	54.786173000905	22.068316781791
105.89499664307	53.918465150325	21.048557516075
106.89399719238	53.057053507808	20.154983291484
107.89299774170	52.209551370952	19.366758457984
108.89199829102	51.378699034047	18.665334123760
109.89099884033	50.563588158126	18.034983525527
110.88999938965	49.760581279085	17.463099653446
111.88899993896	48.964351728336	16.940297449742
112.88800048828	48.168670764996	16.460329592217
113.88700103760	47.367233003919	16.019880110604
114.88600158691	46.554250322507	15.618220902986
115.88500213623	45.725022586278	15.256771911764
116.88400268555	44.876272401550	14.938592708644
117.88300323486	44.006443758683	14.667825765034
118.88200378418	43.115731656920	14.449154070222
119.88099670410	42.206049619621	14.287268156819
120.87999725342	41.280860835246	14.186423956578
121.87899780273	40.344875705424	14.150061103402
122.87799835205	39.403785991466	14.180589743138
123.87699890137	38.463849598390	14.279200466748
124.87599945068	37.531590105870	14.445850431550
125.87500000000	36.613468180854	14.679289119019
126.87400054932	35.715620602748	14.977181708822
127.87300109863	34.843643804355	15.336249105849
128.87199401855	34.002449860965	15.752446882266
129.87100219727	33.196197839235	16.221185023486
130.86999511719	32.428193482944	16.737442510330
131.86900329590	31.700942606309	17.296021275987
132.86799621582	31.016112951106	17.891614333822
133.86700439453	30.374633056128	18.518993137854
134.86599731445	29.776708060611	19.173091582070
135.86500549316	29.221904031242	19.849103464335
136.86399841309	28.709217110418	20.542534923936
137.86300659180	28.237147637194	21.249319925621
138.86199951172	27.803762439600	21.965795900065
139.86099243164	27.406799569395	22.688813503824
140.86000061035	27.043723118560	23.415710740547
141.85899353027	26.711793027212	24.144339343392
142.85800170898	26.408194731669	24.873118478707
143.85699462891	26.130060757257	25.600984590110
144.85600280762	25.874603064003	26.327409152804
145.85499572754	25.639159311562	27.052352306029
146.85400390625	25.421270181673	27.776215133901
147.85299682617	25.218778648988	28.499851069632
148.85200500488	25.029837847063	29.224422948238
149.85099792480	24.853003330999	29.951385412640
150.85000610352	24.687229715756	30.682385126800
151.84899902344	24.531922939896	31.419236993528
152.84800720215	24.386902939484	32.163707408885
153.84700012207	24.252413736708	32.917596220507
154.84599304199	24.129093047022	33.682598206064
155.84500122070	24.017914140145	34.460154787373
156.84399414063	23.920183873829	35.251605987625
157.84300231934	23.837432190834	36.057951539238
158.84199523926	23.771357565849	36.879890716040
159.84100341797	23.723824512830	37.717900634742
160.83999633789	23.696740476669	38.572068236844
161.83900451660	23.692019389208	39.442243114803
162.83799743652	23.711542466057	40.327975394292
163.83700561523	23.757081571126	41.228548118841
164.83599853516	23.830287801063	42.143057357577
165.83500671387	23.932663513901	43.070415575889
166.83399963379	24.065497076469	44.009404197582
167.83299255371	24.229898888070	44.958733452804
168.83200073242	24.426759986379	45.917085246263
169.83099365234	24.656789086591	46.883205818327
170.83000183105	24.920514041998	47.855886401599
171.82899475098	25.218320233845	48.834070084091
172.82800292969	25.550497781958	49.816919035331
173.82699584961	25.917304077525	50.803765682102
174.82600402832	26.319041186424	51.794275267381
175.82499694824	26.756095772403	52.788320815995
176.82400512695	27.229071091070	53.786039729983
177.82299804688	27.738882826920	54.787883394413
178.82200622559	28.286841997835	55.794459753811
179.82099914551	28.874728612341	56.806530585685
180.82000732422	29.504922981812	57.824917429433
181.81900024414	30.180467480057	58.850442163836
182.81799316406	30.905153594348	59.883706359386
183.81700134277	31.683542062595	60.924985303421
184.81599426270	32.521048466866	61.974102909061
185.81500244141	33.423930967929	63.030176722302
186.81399536133	34.399255106912	64.091384095908
187.81300354004	35.454892891944	65.154850501588
188.81199645996	36.599410667085	66.216241762681
189.81100463867	37.841960769616	67.269652618230
190.80999755859	39.192044440229	68.307126908932
191.80900573730	40.659369511007	69.318600780859
192.80799865723	42.253380875740	70.291351446173
193.80700683594	43.982900434630	71.209944897450
194.80599975586	45.855551003652	72.055760451542
195.80499267578	47.877064426744	72.807035527632
196.80400085449	50.050389369345	73.438595884306
197.80299377441	52.374786786573	73.922101324926
198.80200195313	54.844652784856	74.226347553437
199.80099487305	57.448336290809	74.317964408083
200.80000305176	60.166999160860	74.162542661142
201.79899597168	62.973542315811	73.726120782364
202.79800415039	65.831938194926	72.977309754050
203.79699707031	68.697061060265	71.889763163456
204.79600524902	71.515198860049	70.444891043375
205.79499816895	74.225716664689	68.634794000153
206.79400634766	76.763445327488	66.464659086838
207.79299926758	79.062349808048	63.954563369476
208.79200744629	81.059624337938	61.140138420721
209.79100036621	82.700191902705	58.071652296313
210.78999328613	83.940875991831	54.811788521793
211.78900146484	84.753557883292	51.431856637537
212.78799438477	85.127073280974	48.007333948763
213.78700256348	85.067373402390	44.612883447001
214.78599548340	84.596156813725	41.317861311449
215.78500366211	83.748200346264	38.182635898208
216.78399658203	82.567914080991	35.256150767972
217.78300476074	81.105528433847	32.574728362510
218.78199768066	79.413572412305	30.162178611946
219.78100585938	77.543833753692	28.030777545422
220.77999877930	75.544988699443	26.182832390465
221.77900695801	73.461055633291	24.612640396194
222.77799987793	71.330482543647	23.308425966477
223.77699279785	69.185846593850	22.254203881609
224.77600097656	67.053949914404	21.431303518709
225.77499389648	64.956174660154	20.819729622697
226.77400207520	62.909098021643	20.399136143968
227.77299499512	60.925097312768	20.149565876556
228.77200317383	59.012989219418	20.051961813898
229.77099609375	57.178671054291	20.088494629632
230.77000427246	55.425645801276	20.242735116387
231.76899719238	53.755520251345	20.499734747609
232.76800537109	52.168431835444	20.846026425828
233.76699829102	50.663385444502	21.269571392873
234.76600646973	49.238529853289	21.759677930738
235.76499938965	47.891397844683	22.306903826790
236.76400756836	46.619097788899	22.902955919103
237.76300048828	45.418429632961	23.540570131919
238.76199340820	44.286039670394	24.213421394914
239.76100158691	43.218472365339	24.916034648344
240.75999450684	42.212256837716	25.643666998213
241.75900268555	41.263945154080	26.392243276797
242.75799560547	40.370174468004	27.158301413963
243.75700378418	39.527668435243	27.938899653105
244.75599670410	38.733277672962	28.731579096630
245.75500488281	37.983981754112	29.534291817717
246.75399780273	37.276923303027	30.345381387682
247.75300598145	36.609401773153	31.163516811022
248.75199890137	35.978892865385	31.987686189380
249.75100708008	35.383021265346	32.817114624835
250.75000000000	34.819615562039	33.651297813767
251.74899291992	34.286662471358	34.489899317367
252.74800109863	33.782351561408	35.332801437682
253.74699401855	33.305039370031	36.180026923597
254.74600219727	32.853260440796	37.031728365446
255.74499511719	32.425741769296	37.888180660533
256.74398803711	32.021368893543	38.749728490206
257.74301147461	31.639198897878	39.616816612929
258.74200439453	31.278473529070	40.489940772845
259.74099731445	30.938574294877	41.369618973877
260.73999023438	30.619038428616	42.256411788162
261.73901367188	30.319559532751	43.150891390689
262.73800659180	30.039964275821	44.053628231111
263.73699951172	29.780220476034	44.965187211035
264.73599243164	29.540398006444	45.886113803810
265.73498535156	29.320718998183	46.816946801039
266.73400878906	29.121491911748	47.758155454919
267.73300170898	28.943136276643	48.710233150885
268.73199462891	28.786193549420	49.673571952661
269.73098754883	28.651289495430	50.648554753846
270.73001098633	28.539130271135	51.635473954225
271.72900390625	28.450521681751	52.634632715886
272.72799682617	28.386384006270	53.646217260704
273.72698974609	28.347666474304	54.670351470873
274.72601318359	28.335447614188	55.707096075205
275.72500610352	28.350857478660	56.756451828587
276.72399902344	28.395093666118	57.818297935694
277.72299194336	28.469447925415	58.892466553612
278.72198486328	28.575250875039	59.978620574553
279.72100830078	28.713916011359	61.076410436061
280.72000122070	28.886861837402	62.185279602573
281.71899414063	29.095596307549	63.304594636968
282.71798706055	29.341630777575	64.433625732045
283.71701049805	29.626503850927	65.571470818208
284.71600341797	29.951781528251	66.717138102717
285.71499633789	30.318986941134	67.869441331202
286.71398925781	30.729700965986	69.027163952033
287.71301269531	31.185411298664	70.188877744007
288.71200561523	31.687644007632	71.353099004298
289.71099853516	32.237859837803	72.518233694817
290.70999145508	32.837512540261	73.682536853758
291.70901489258	33.488024067660	74.844257594691
292.70800781250	34.190779286046	76.001491684848
293.70700073242	34.947212413494	77.152316152588
294.70599365234	35.758761083865	78.294728486453
295.70498657227	36.626931182892	79.426637645942
296.70401000977	37.553284202277	80.545898467739
297.70300292969	38.539541709853	81.650194673393
298.70199584961	39.587575070086	82.737116292171
299.70098876953	40.699474356108	83.803999994981
300.70001220703	41.877510358118	84.847897836779
301.69900512695	43.124266778903	85.865482673964
302.69799804688	44.442544247521	86.852937287355
303.69699096680	45.835372553570	87.805800290675
304.69601440430	47.305968483308	88.718828940938
305.69500732422	48.857607590947	89.585791772696
306.69400024414	50.493546794229	90.399381528627
307.69299316406	52.216801890352	91.150998133594
308.69198608398	54.029822459501	91.830599635664
309.69100952148	55.934330105147	92.426603934969
310.69000244141	57.930775047102	92.925788669734
311.68899536133	60.017986110345	93.313357717814
312.68798828125	62.192594186707	93.573032381838
313.68701171875	64.448546374789	93.687239709971
314.68600463867	66.776482413441	93.637582494009
315.68499755859	69.163281742514	93.405436617062
316.68399047852	71.591536341121	92.972667725344
317.68301391602	74.039386834238	92.322648654690
318.68200683594	76.480351742724	91.441385219822
319.68099975586	78.883670893934	90.318770179505
320.67999267578	81.214950280873	88.949908471050
321.67898559570	83.437125692156	87.336158334493
322.67800903320	85.511909535628	85.486217285665
323.67700195313	87.401654289618	83.416615743869
324.67599487305	89.071116173447	81.151613815446
325.67498779297	90.489652711151	78.722886630651
326.67401123047	91.632892188276	76.168192300502
327.67300415039	92.484242077562	73.529854824403
328.67199707031	93.035724293419	70.852552919242
329.67098999023	93.288354816214	68.181293421803
330.67001342773	93.251646612236	65.559229582596
331.66900634766	92.942744567321	63.025764255603
332.66799926758	92.385033601376	60.615065737430
333.66699218750	91.606553190705	58.355180151044
334.66598510742	90.638221290850	56.267483050363
335.66500854492	89.512286769508	54.366761387390
336.66400146484	88.260907123987	52.661592991053
337.66299438477	86.914944222304	51.154975476981
338.66198730469	85.503122772268	49.845169632828
339.66101074219	84.051496743690	48.726604900323
340.66000366211	82.583078185329	47.790732280807
341.65899658203	81.117764272165	47.026840246317
342.65798950195	79.672349742280	46.422773538592
343.65701293945	78.260728651089	45.965539557169
344.65600585938	76.894094173262	45.641786582430
345.65499877930	75.581217019737	45.438153825187
346.65399169922	74.328781551987	45.341661221264
347.65301513672	73.141579190178	45.339751129085
348.65200805664	72.022865218220	45.420578785181
349.65100097656	70.974556005199	45.573020947586
350.64999389648	69.997477180690	45.786715539874
351.64898681641	69.091503357977	46.052092825342
352.64801025391	68.255819998267	46.360413012683
353.64700317383	67.488987932129	46.703645255411
354.64599609375	66.789122057876	47.074526485886
355.64498901367	66.153964517530	47.466456119440
356.64401245117	65.580979596759	47.873484237966
357.64300537109	65.067466412933	48.290251729758
358.64199829102	64.610539843498	48.711917008422
359.64099121094	64.207283109799	49.134151009479
360.64001464844	63.854702734935	49.553039826458
361.63900756836	63.549716228214	49.965039704261
362.63800048828	63.289365124882	50.366981070534
363.63699340820	63.070587480455	50.755950028374
364.63598632813	62.890353052499	51.129302728783
365.63500976563	62.745519631838	51.484614425956
366.63400268555	62.633073742466	51.819678530307
367.63299560547	62.549766257786	52.132452806058
368.63198852539	62.492402768801	52.421116977946
369.63101196289	62.457593547084	52.684028276920
370.63000488281	62.441867454332	52.919769752976
371.62899780273	62.441596050624	53.127178953423
372.62799072266	62.453034766170	53.305392086016
373.62701416016	62.472275656159	53.453871154110
374.62600708008	62.495299162112	53.572473833527
375.62500000000	62.518052609887	53.661476673245
376.62399291992	62.536419013763	53.721660583147
377.62298583984	62.546354445537	53.754308501604
378.62200927734	62.543923964462	53.761237110184
379.62100219727	62.525488351099	53.744828707664
380.61999511719	62.487571740029	53.707940044071
381.61898803711	62.427319302894	53.653982221041
382.61801147461	62.342223360871	53.586748529731
383.61700439453	62.230431719208	53.510381524275
384.61599731445	62.090792848944	53.429292604700
385.61499023438	61.922774688193	53.347992867144
386.61401367188	61.726645749548	53.271026214173
387.61300659180	61.503289794667	53.202778263469
388.61199951172	61.254364348885	53.147433280084
389.61099243164	60.982145107033	53.108797445037
390.60998535156	60.689418914540	53.090205603759
391.60900878906	60.379360200600	53.094448107069
392.60800170898	60.055736522836	53.123767921291
393.60699462891	59.722248513316	53.179709818106
394.60598754883	59.382938452821	53.263187138921
395.60501098633	59.041735851891	53.374440363618
396.60400390625	58.702610034853	53.513131470464
397.60299682617	58.369172651110	53.678260505167
398.60198974609	58.044944893086	53.868342143612
399.60101318359	57.732871591952	54.081375550087
400.60000610352	57.435727876787	54.314997094525
401.59899902344	57.155653622728	54.566479537827
402.59799194336	56.894395844996	54.832876499422
403.59698486328	56.653137629956	55.111047461673
404.59600830078	56.432547659135	55.397813931864
405.59500122070	56.232808379335	55.689964529536
406.59399414063	56.053585490016	55.984426728502
407.59298706055	55.894045835855	56.278212377266
408.59201049805	55.752963285217	56.568625905198
