#Parameters = {C=3e-15; R=4600; h_bond=180; r_bond=25}
#"Frequency / GHz"	"Z1,1 [Real/Imaginary Part] [Re]"	"Z1,1 [Real/Imaginary Part] [Im]"
#-------------------------------------------------------------------------------------
1.0000000000000	336.18672007774	11.656851961703
1.9989999532700	397.57763020545	10.313505380206
2.9979999065399	530.90657842314	-58.540385283906
3.9969999790192	623.09120992176	-409.41887951255
4.9959998130798	155.64475551165	-622.66496060216
5.9949998855591	-50.287062450179	-394.40966668002
6.9939999580383	-66.358508354736	-256.56106050703
7.9930000305176	-55.698943656541	-184.57662615064
8.9919996261597	-43.855997198803	-142.08905422668
9.9910001754761	-34.144947690803	-114.11264414886
10.989999771118	-26.523412879585	-94.106781661899
11.989000320435	-20.514689748217	-78.876502331203
12.987999916077	-15.690337921929	-66.699389347471
13.987000465393	-11.726242135510	-56.568286309296
14.986000061035	-8.3844502854942	-47.852648088660
15.984999656677	-5.4882353536850	-40.133153677671
16.983999252319	-2.9019858176447	-33.114623986275
17.982999801636	-0.51636897931433	-26.576750743461
18.982000350952	1.7630394893036	-20.344444073441
19.981000900269	4.0251591145656	-14.268309646461
20.979999542236	6.3626102597874	-8.2105980690706
21.979000091553	8.8823557026616	-2.0335382194618
22.978000640869	11.720360710710	4.4115832649424
23.976999282837	15.064330760676	11.296183237101
24.975999832153	19.192180895829	18.827356059600
25.975000381470	24.541749562395	27.260382338747
26.974000930786	31.844414488434	36.900655727182
27.972999572754	42.394174426335	48.053530887143
28.972000122070	58.604638988480	60.761067192528
29.971000671387	85.097555854802	73.694474070835
30.969999313354	129.87223765968	79.845905885532
31.968999862671	197.14705161363	53.962220188114
32.967998504639	241.01737827175	-40.910366831086
33.966999053955	187.23011959954	-136.82659188025
34.965999603271	108.59994937363	-154.95617122036
35.965000152588	60.697350512569	-138.15154028883
36.964000701904	35.676802624055	-117.52578649086
37.963001251221	22.288460581289	-100.03550262301
38.962001800537	14.721727043077	-86.057231587654
39.960998535156	10.230184803250	-74.861888344687
40.959999084473	7.4684719876034	-65.737324675090
41.958999633789	5.7381224708671	-58.148021043573
42.958000183105	4.6550044942977	-51.713255354289
43.957000732422	3.9962256242399	-46.164011539457
44.956001281738	3.6257081518054	-41.308592578497
45.955001831055	3.4558163480396	-37.008484241884
46.953998565674	3.4265100129519	-33.161687531486
47.952999114990	3.4935184793613	-29.691313705407
48.951999664307	3.6214304646152	-26.537234610092
49.951000213623	3.7797534443320	-23.649769029071
50.950000762939	3.9409932910309	-20.984776488741
51.949001312256	4.0803996861276	-18.499687992345
52.948001861572	4.1769588510281	-16.150679839579
53.946998596191	4.2153944602928	-13.891283753456
54.945999145508	4.1884126333252	-11.672494888597
55.944999694824	4.0984227922741	-9.4443047883638
56.944000244141	3.9580349396213	-7.1581694072838
57.943000793457	3.7890214438230	-4.7692242760195
58.942001342773	3.6201220785836	-2.2375072773547
59.941001892090	3.4845722283911	0.47268870147116
60.939998626709	3.4183532479210	3.3952081837051
61.938999176025	3.4599767952382	6.5659290529014
62.937999725342	3.6524114674459	10.027765811423
63.937000274658	4.0476450949292	13.836736467247
64.935997009277	4.7148242089325	18.069218783042
65.934997558594	5.7540979020414	22.831463872278
66.933998107910	7.3207965652051	28.272332681059
67.932998657227	9.6701034292916	34.600714649824
68.931999206543	13.244527964635	42.106004069734
69.930999755859	18.856832299308	51.168006678276
70.930000305176	28.092792259471	62.183180547976
71.929000854492	44.210934308690	75.068191540892
72.928001403809	73.802066822051	86.809579869562
73.927001953125	125.48915714000	81.754725301832
74.926002502441	177.72173426270	21.827095554137
75.925003051758	154.60039958456	-63.871762088730
76.924003601074	93.833766983725	-90.203505645292
77.922996520996	53.713582255908	-82.041473651238
78.921997070313	32.156592909318	-68.067271702995
79.920997619629	20.298939526951	-55.464299161332
80.919998168945	13.371064715069	-45.066953556895
81.918998718262	9.1029695167268	-36.514260107648
82.917999267578	6.3788654745067	-29.349545070259
83.916999816895	4.6189760979887	-23.208948293324
84.916000366211	3.5070017696036	-17.827490172320
85.915000915527	2.8648471487288	-13.016322435492
86.914001464844	2.5918441477506	-8.6421879486788
87.913002014160	2.6333113808335	-4.6130484692314
88.912002563477	2.9630280136376	-0.86943261014704
89.911003112793	3.5721497590977	2.6202101048727
90.910003662109	4.4603014554671	5.8613175218339
91.908996582031	5.6264060456427	8.8340560795758
92.907997131348	7.0575312131941	11.495156551202
93.906997680664	8.7158193539281	13.784201717598
94.905998229980	10.526172025980	15.637720071088
95.904998779297	12.371107476359	17.012621144301
96.903999328613	14.101056289040	17.914282467509
97.902999877930	15.564210304993	18.416959349111
98.902000427246	16.647711261355	18.661552904635
99.901000976563	17.310798153926	18.826231449334
100.90000152588	17.592296396201	19.082792845624
101.89900207520	17.591143235427	19.560449851033
102.89800262451	17.434312217819	20.330757055781
103.89700317383	17.248485088341	21.412051177273
104.89600372314	17.143699019104	22.783796107774
105.89499664307	17.207937085716	24.400876233667
106.89399719238	17.508144221763	26.203839301287
107.89299774170	18.092899512119	28.124018193995
108.89199829102	18.993798171000	30.085320092762
109.89099884033	20.224295106799	32.004994970306
110.88999938965	21.776007237115	33.795745039453
111.88899993896	23.614051282096	35.371448712879
112.88800048828	25.674313427912	36.657292347383
113.88700103760	27.866292259912	37.603393725779
114.88600158691	30.084411492691	38.197784606828
115.88500213623	32.227140894516	38.472621921914
116.88400268555	34.218808953177	38.498958441212
117.88300323486	36.025901943483	38.369506533279
118.88200378418	37.661773407835	38.175209337389
119.88099670410	39.178822451457	37.983613788384
120.87999725342	40.651914345611	37.824756184484
121.87899780273	42.159249055860	37.686645144676
122.87799835205	43.764273365577	37.518461287129
123.87699890137	45.500810628499	37.239590231380
124.87599945068	47.361730402534	36.753156757064
125.87500000000	49.292286568261	35.964113754032
126.87400054932	51.190663752015	34.801176975878
127.87300109863	52.919649250370	33.239736316692
128.87199401855	54.330783742489	31.318831233207
129.87100219727	55.297613863927	29.143791661492
130.86999511719	55.747672731737	26.869375737095
131.86900329590	55.680647877855	24.667032737587
132.86799621582	55.165342480611	22.688052098286
133.86700439453	54.318354931288	21.036141356708
134.86599731445	53.274954195788	19.756759975218
135.86500549316	52.162641354404	18.841888708324
136.86399841309	51.083777130785	18.243864296935
137.86300659180	50.107464147483	17.891645704224
138.86199951172	49.268474526595	17.705441933804
139.86099243164	48.570253966222	17.608430201024
140.86000061035	47.990048320760	17.535760067451
141.85899353027	47.485673276634	17.441449169998
142.85800170898	47.003719378404	17.303175628704
143.85699462891	46.489133486425	17.124289324320
144.85600280762	45.895421360459	16.932184316372
145.85499572754	45.193522310240	16.772476904467
146.85400390625	44.377388452195	16.699803280496
147.85299682617	43.464911199363	16.767334257213
148.85200500488	42.494066968757	17.017489769983
149.85099792480	41.516002808299	17.475946942846
150.85000610352	40.587263386093	18.149585583203
151.84899902344	39.762994392345	19.027643630937
152.84800720215	39.092248481469	20.084767084537
153.84700012207	38.615264726698	21.284482336513
154.84599304199	38.362327430317	22.582303712330
155.84500122070	38.353209185492	23.928027572897
156.84399414063	38.596639623013	25.267484294958
157.84300231934	39.089452837374	26.544137148054
158.84199523926	39.815258672123	27.701146630107
159.84100341797	40.743152249488	28.684467024828
160.83999633789	41.827251434067	29.447226203830
161.83900451660	43.007858256924	29.955100187711
162.83799743652	44.215245081007	30.191768307001
163.83700561523	45.376314450002	30.163008867051
164.83599853516	46.423143720063	29.897581095735
165.83500671387	47.301784346097	29.444009082433
166.83399963379	47.978816109729	28.863456310309
167.83299255371	48.443875065726	28.220394893273
168.83200073242	48.707653283815	27.573465247945
169.83099365234	48.796325500278	26.968799795544
170.83000183105	48.744338076358	26.436869984328
171.82899475098	48.587427633885	25.992822021345
172.82800292969	48.357271501953	25.639316185047
173.82699584961	48.078373859333	25.370719968940
174.82600402832	47.767068013903	25.177402738774
175.82499694824	47.432279831367	25.049516632088
176.82400512695	47.077449465208	24.979644490347
177.82299804688	46.703047171043	24.964206943470
178.82200622559	46.309052606008	25.003612382918
179.82099914551	45.897088584988	25.101380927069
180.82000732422	45.471714133843	25.262578325019
181.81900024414	45.040878765805	25.491923162484
182.81799316406	44.615364721379	25.792063009114
183.81700134277	44.207784297434	26.162275915239
184.81599426270	43.830977191653	26.597803969638
185.81500244141	43.496414420443	27.089852295906
186.81399536133	43.212716137665	27.626212132429
187.81300354004	42.984537942624	28.192352493075
188.81199645996	42.811881502197	28.772837148941
189.81100463867	42.689893371325	29.352903411624
190.80999755859	42.609278277158	29.920086110990
191.80900573730	42.557139162071	30.465571079436
192.80799865723	42.518424715008	30.985302269058
193.80700683594	42.477592122256	31.480503759446
194.80599975586	42.420412433876	31.957514996272
195.80499267578	42.335718912342	32.427015491356
196.80400085449	42.216590770191	32.902646211471
197.80299377441	42.060998758711	33.399255692569
198.80200195313	41.871707481216	33.931140150856
199.80099487305	41.655536668378	34.510474218037
200.80000305176	41.422155528244	35.146244249679
201.79899597168	41.182644492769	35.843707881275
202.79800415039	40.948074341690	36.604485701899
203.79699707031	40.728302516269	37.427042807168
204.79600524902	40.531095076429	38.307590149431
205.79499816895	40.361655159639	39.241112824590
206.79400634766	40.222538557424	40.222436772837
207.79299926758	40.114000312185	41.247225530793
208.79200744629	40.034515358767	42.312731450564
209.79100036621	39.981606356609	43.418292803110
210.78999328613	39.952731011156	44.565518873932
211.78900146484	39.946142380887	45.758138905943
212.78799438477	39.961587615197	47.001534501645
213.78700256348	40.000818681490	48.302138421367
214.78599548340	40.067784960097	49.666638402227
215.78500366211	40.168582690729	51.101314053065
216.78399658203	40.311119912327	52.611334632658
217.78300476074	40.504619557829	54.200385336585
218.78199768066	40.759043768833	55.870457665279
219.78100585938	41.084518312083	57.621832329702
220.77999877930	41.490798286023	59.453397807403
221.77900695801	41.986925885502	61.362953850266
222.77799987793	42.581076508190	63.347816918127
223.77699279785	43.280553344249	65.405328685461
224.77600097656	44.092122069556	67.533389111117
225.77499389648	45.022471077716	69.730808863695
226.77400207520	46.078893796993	71.997581506026
227.77299499512	47.270057042820	74.334738617819
228.77200317383	48.606728664765	76.744020206567
229.77099609375	50.102496399205	79.227206973235
230.77000427246	51.774163109803	81.785180074526
231.76899719238	53.641830399331	84.416687987805
232.76800537109	55.728681425343	87.117357181524
233.76699829102	58.060141071935	89.878378680071
234.76600646973	60.662935355742	92.685761244718
235.76499938965	63.563416229490	95.519801675062
236.76400756836	66.786047042890	98.355226665360
237.76300048828	70.351857967692	101.16212005906
238.76199340820	74.277136239054	103.90729371018
239.76100158691	78.573244193476	106.55662426664
240.75999450684	83.247348083836	109.07731884842
241.75900268555	88.304707843552	111.43995391360
242.75799560547	93.752270148815	113.61941088240
243.75700378418	99.603335363287	115.59385505130
244.75599670410	105.88219556187	117.34110241413
245.75500488281	112.62774802575	118.83203208006
246.75399780273	119.89492692133	120.02160345743
247.75300598145	127.75190323106	120.83732769195
248.75199890137	136.27268854916	121.16724235379
249.75100708008	145.52295299816	120.84816394170
250.75000000000	155.53852932256	119.65806344870
251.74899291992	166.29619289810	117.31523006598
252.74800109863	177.67824412804	113.49120704234
253.74699401855	189.43633065600	107.84249950414
254.74600219727	201.16587067844	100.06651689735
255.74499511719	212.30732571372	89.978608308229
256.74398803711	222.19112169914	77.594754268571
257.74301147461	230.13206752638	63.191161003029
258.74200439453	235.55629914002	47.307498172908
259.74099731445	238.12050143457	30.676940545562
260.73999023438	237.77647338985	14.098955703171
261.73901367188	234.75762761737	-1.6999879331470
262.73800659180	229.49768016169	-16.168955934100
263.73699951172	222.52362484631	-28.972544359472
264.73599243164	214.35880186087	-39.973800284671
265.73498535156	205.46190236113	-49.184438792674
266.73400878906	196.20201459613	-56.708144955671
267.73300170898	186.86043660608	-62.693825672303
268.73199462891	177.64577589590	-67.304890463522
269.73098754883	168.71220345917	-70.703390786721
270.73001098633	160.17470636565	-73.044534278289
271.72900390625	152.11917172809	-74.476546558660
272.72799682617	144.60788792198	-75.142173207014
273.72698974609	137.68170685724	-75.179595419821
274.72601318359	131.36084715631	-74.721700001665
275.72500610352	125.64557962195	-73.894392295637
276.72399902344	120.51755199442	-72.814224324739
277.72299194336	115.94161240190	-71.585742128528
278.72198486328	111.86842347502	-70.299365464628
279.72100830078	108.23727801711	-69.029648587733
280.72000122070	104.97922505133	-67.834013484007
281.71899414063	102.02026963036	-66.751648833784
282.71798706055	99.285049029970	-65.803094132307
283.71701049805	96.700766183811	-64.990155893587
284.71600341797	94.201636437704	-64.296924284582
285.71499633789	91.733267734158	-63.692000060573
286.71398925781	89.256679627311	-63.132265575094
287.71301269531	86.751006122250	-62.568123765099
288.71200561523	84.214397350217	-61.949732125889
289.71099853516	81.662326750147	-61.233120498129
290.70999145508	79.124022797433	-60.385489827643
291.70901489258	76.637020000912	-59.388279620053
292.70800781250	74.241451427450	-58.238204729703
293.70700073242	71.974790132795	-56.945914026160
294.70599365234	69.867816256901	-55.533178206937
295.70498657227	67.942275757993	-54.029189903764
296.70401000977	66.210081473206	-52.466959402608
297.70300292969	64.673585539049	-50.879963692547
298.70199584961	63.326918785393	-49.299668918178
299.70098876953	62.157447513381	-47.753699432166
300.70001220703	61.147581835067	-46.264692874187
301.69900512695	60.276479873008	-44.849730935942
302.69799804688	59.521659317186	-43.520206350414
303.69699096680	58.860469013934	-42.281991022131
304.69601440430	58.271340207047	-41.135923308482
305.69500732422	57.734914547347	-40.078576911013
306.69400024414	57.234785581428	-39.103135128483
307.69299316406	56.758123881439	-38.200602917317
308.69198608398	56.295750128406	-37.360855669621
309.69100952148	55.842011519611	-36.573827298473
310.69000244141	55.394235748648	-35.830373084125
311.68899536133	54.952042194367	-35.123059755541
312.68798828125	54.516460640179	-34.446436258524
313.68701171875	54.088975642471	-33.797123163493
314.68600463867	53.670929727483	-33.173569986502
315.68499755859	53.262806195669	-32.575567475072
316.68399047852	52.864011326762	-32.003674526146
317.68301391602	52.472658582878	-31.458594511713
318.68200683594	52.085891640118	-30.940643190592
319.68099975586	51.700048045946	-30.449297472903
320.67999267578	51.311202275589	-29.982980169437
321.67898559570	50.915569923073	-29.538995519373
322.67800903320	50.509989517948	-29.113665567148
323.67700195313	50.092254160084	-28.702616729445
324.67599487305	49.661201450544	-28.301118509921
325.67498779297	49.216882732890	-27.904537223716
326.67401123047	48.760351168664	-27.508655713773
327.67300415039	48.293380765601	-27.109948399832
328.67199707031	47.818313081439	-26.705757782619
329.67098999023	47.337527878661	-26.294277009454
330.67001342773	46.853315563845	-25.874463936933
331.66900634766	46.367638596504	-25.445861265668
332.66799926758	45.881936015378	-25.008325907442
333.66699218750	45.397279069454	-24.561843852182
334.66598510742	44.914321967918	-24.106276232967
335.66500854492	44.433567131154	-23.641289398010
336.66400146484	43.955422452493	-23.166254381858
337.66299438477	43.480505789636	-22.680329499143
338.66198730469	43.009681732592	-22.182537538715
339.66101074219	42.544170801724	-21.671927338467
340.66000366211	42.085549252517	-21.147736933255
341.65899658203	41.635642637884	-20.609529764416
342.65798950195	41.196452112060	-20.057312178850
343.65701293945	40.769964030850	-19.491581844955
344.65600585938	40.357951443431	-18.913280190245
345.65499877930	39.961922882522	-18.323771876084
346.65399169922	39.582914503726	-17.724651124571
347.65301513672	39.221496724564	-17.117631983587
348.65200805664	38.877757238668	-16.504367387284
349.65100097656	38.551379206634	-15.886306076755
350.64999389648	38.241704950938	-15.264556944049
351.64898681641	37.947947144997	-14.639870529806
352.64801025391	37.669253431662	-14.012558828920
353.64700317383	37.404911996406	-13.382577198125
354.64599609375	37.154429618089	-12.749577850768
355.64498901367	36.917627576836	-12.113030662826
356.64401245117	36.694666323769	-11.472339863259
357.64300537109	36.486037637921	-10.826977121018
358.64199829102	36.292511553641	-10.176577073214
359.64099121094	36.115050263627	-9.5210162400169
360.64001464844	35.954721840333	-8.8604529479700
361.63900756836	35.812586249323	-8.1953269873667
362.63800048828	35.689621245548	-7.5263172396236
363.63699340820	35.586664445794	-6.8543065035379
364.63598632813	35.504364892722	-6.1802792342172
365.63500976563	35.443202122187	-5.5052689593015
366.63400268555	35.403497773615	-4.8303021553037
367.63299560547	35.385471245291	-4.1563184654395
368.63198852539	35.389307750088	-3.4842098429377
369.63101196289	35.415198060635	-2.8147945456894
370.63000488281	35.463407502973	-2.1488544914747
371.62899780273	35.534291864856	-1.4872260803713
372.62799072266	35.628308266812	-0.83083224739705
373.62701416016	35.745975663269	-0.18079258258479
374.62600708008	35.887830659546	0.46156067868689
375.62500000000	36.054330136079	1.0946044906714
376.62399291992	36.245775902203	1.7164455103545
377.62298583984	36.462191970774	2.3249299037908
378.62200927734	36.703249106654	2.9177155320684
379.62100219727	36.968174295049	3.4923338365680
380.61999511719	37.255721900127	4.0463563132038
381.61898803711	37.564148173625	4.5774683126028
382.61801147461	37.891255150105	5.0836434633228
383.61700439453	38.234458336476	5.5632367426231
384.61599731445	38.590894550158	6.0151085833988
385.61499023438	38.957551988634	6.4386505445122
386.61401367188	39.331427164278	6.8338248392454
387.61300659180	39.709664969486	7.2011305107060
388.61199951172	40.089683841818	7.5415206888643
389.61099243164	40.469281759670	7.8562981072310
390.60998535156	40.846683568388	8.1469852806665
391.60900878906	41.220550650607	8.4151805030476
392.60800170898	41.589931121923	8.6624310246944
393.60699462891	41.954198641211	8.8901421128722
394.60598754883	42.312942104310	9.0995060492346
395.60501098633	42.665845950624	9.2914822459444
396.60400390625	43.012612147433	9.4668332486967
397.60299682617	43.352847146141	9.6261779907007
398.60198974609	43.686039537425	9.7700737513715
399.60101318359	44.011536918828	9.8991136100080
400.60000610352	44.328595206398	10.014016295041
401.59899902344	44.636443943064	10.115692397883
402.59799194336	44.934363219547	10.205260927420
403.59698486328	45.221811352203	10.284058091227
404.59600830078	45.498506577059	10.353574034798
405.59500122070	45.764480996238	10.415358293371
406.59399414063	46.020150522840	10.470916696810
